1,w,sub_t,h,l1,l2,l3,g1,g2,Freq,S11_re,S21_re,S11_img,S21_img,S11_dB,S21_dB
11.185,2.0,1.0,1.0,34.9,33.7,33.7,2.4,4.2,2.5,0.610295417285315,-0.014126361172941,0.780437837504013,0.00392205751772111,-0.080904,-36.676896
11.185,2.0,1.0,1.0,34.9,33.7,33.7,2.4,4.2,2.5025,0.6031359219684381,-0.014353713842300084,0.7858535404314497,0.003834449285923849,-0.081811,-36.561345
11.185,2.0,1.0,1.0,34.9,33.7,33.7,2.4,4.2,2.505,0.5958853725287069,-0.014583921940535052,0.7912337449298835,0.0037428775845791914,-0.082733,-36.445486
11.185,2.0,1.0,1.0,34.9,33.7,33.7,2.4,4.2,2.5075,0.5885429904119465,-0.014817002184905862,0.7965772133120163,0.003647224717651567,-0.083672,-36.329316
11.185,2.0,1.0,1.0,34.9,33.7,33.7,2.4,4.2,2.51,0.5811079963518543,-0.015052970308676071,0.8018826754834146,0.00354736963838554,-0.084628,-36.212829
11.185,2.0,1.0,1.0,34.9,33.7,33.7,2.4,4.2,2.5125,0.5735796108260139,-0.015291840985469955,0.8071488281509388,0.0034431878569873287,-0.0856,-36.09602
11.185,2.0,1.0,1.0,34.9,33.7,33.7,2.4,4.2,2.515,0.5659570545384065,-0.015533627749610484,0.8123743340162218,0.0033345513461082213,-0.08659,-35.978886
11.185,2.0,1.0,1.0,34.9,33.7,33.7,2.4,4.2,2.5175,0.5582395489296114,-0.015778342912246692,0.8175578209542003,0.003221328444105161,-0.087597,-35.861421
11.185,2.0,1.0,1.0,34.9,33.7,33.7,2.4,4.2,2.52,0.5504263167158668,-0.01602599747307269,0.8226978811767524,0.0031033837560547374,-0.088622,-35.743621
11.185,2.0,1.0,1.0,34.9,33.7,33.7,2.4,4.2,2.5225,0.5425165824582833,-0.01627660102742944,0.8277930703814993,0.0029805780525002574,-0.089665,-35.625482
11.185,2.0,1.0,1.0,34.9,33.7,33.7,2.4,4.2,2.525,0.5345095731634649,-0.016530161668573837,0.8328419068858789,0.0028527681659128623,-0.090727,-35.506998
11.185,2.0,1.0,1.0,34.9,33.7,33.7,2.4,4.2,2.5275,0.5264045189168977,-0.01678668588488864,0.8378428707466196,0.0027198068848503947,-0.091808,-35.388165
11.185,2.0,1.0,1.0,34.9,33.7,33.7,2.4,4.2,2.53,0.5182006535504957,-0.01704617845179734,0.8427944028647794,0.0025815428458013786,-0.092908,-35.268978
11.185,2.0,1.0,1.0,34.9,33.7,33.7,2.4,4.2,2.5325,0.5098972153457303,-0.017308642318138553,0.8476949040765542,0.002437820422703493,-0.094029,-35.149432
11.185,2.0,1.0,1.0,34.9,33.7,33.7,2.4,4.2,2.535,0.5014934477738245,-0.017574078486743427,0.8525427342301033,0.002288479614129903,-0.095169,-35.029523
11.185,2.0,1.0,1.0,34.9,33.7,33.7,2.4,4.2,2.5375,0.49298860027456287,-0.017842485888948604,0.8573362112486678,0.002133355928140621,-0.096331,-34.909245
11.185,2.0,1.0,1.0,34.9,33.7,33.7,2.4,4.2,2.54,0.4843819290752827,-0.018113861252766532,0.8620736101803257,0.0019722802647996374,-0.097514,-34.788595
11.185,2.0,1.0,1.0,34.9,33.7,33.7,2.4,4.2,2.5425,0.4756726980516897,-0.01838819896442265,0.8667531622347598,0.0018050787963630082,-0.098719,-34.667566
11.185,2.0,1.0,1.0,34.9,33.7,33.7,2.4,4.2,2.545,0.4668601796321865,-0.018665490922957013,0.8713730538074728,0.0016315728451482643,-0.099946,-34.546155
11.185,2.0,1.0,1.0,34.9,33.7,33.7,2.4,4.2,2.5475,0.4579436557474625,-0.018945726387574847,0.8759314254919334,0.0014515787590998722,-0.101195,-34.424355
11.185,2.0,1.0,1.0,34.9,33.7,33.7,2.4,4.2,2.55,0.44892241882711703,-0.019228891817418783,0.8804263710802175,0.0012649077850711028,-0.102468,-34.302163
11.185,2.0,1.0,1.0,34.9,33.7,33.7,2.4,4.2,2.5525,0.4397957728452005,-0.019514970703419534,0.8848559365527362,0.0010713659398490342,-0.103765,-34.179572
11.185,2.0,1.0,1.0,34.9,33.7,33.7,2.4,4.2,2.555,0.43056303441654603,-0.019803943391870436,0.8892181190577468,0.00087075387895493,-0.105086,-34.056579
11.185,2.0,1.0,1.0,34.9,33.7,33.7,2.4,4.2,2.5575,0.4212235339458608,-0.020095786899354567,0.8935108658813915,0.0006628667632591837,-0.106432,-33.933177
11.185,2.0,1.0,1.0,34.9,33.7,33.7,2.4,4.2,2.56,0.41177661683160266,-0.02039047471863913,0.8977320734090907,0.0004474941234576359,-0.107804,-33.809362
11.185,2.0,1.0,1.0,34.9,33.7,33.7,2.4,4.2,2.5625,0.40222164472669714,-0.020687976615135464,0.9018795860791966,0.00022441972246290735,-0.109201,-33.685129
11.185,2.0,1.0,1.0,34.9,33.7,33.7,2.4,4.2,2.565,0.39255799685822096,-0.020988258413507845,0.9059511953299041,-6.578584226726497e-06,-0.110625,-33.560472
11.185,2.0,1.0,1.0,34.9,33.7,33.7,2.4,4.2,2.5675,0.3827850714082496,-0.021291281773995554,0.9099446385404999,-0.00024572899011028794,-0.112076,-33.435385
11.185,2.0,1.0,1.0,34.9,33.7,33.7,2.4,4.2,2.57,0.37290228695808186,-0.02159700395799748,0.9138575979681192,-0.0004932658811385073,-0.113555,-33.309865
11.185,2.0,1.0,1.0,34.9,33.7,33.7,2.4,4.2,2.5725,0.3629090839981446,-0.021905377582448732,0.9176876996813044,-0.0007494299809504894,-0.115063,-33.183905
11.185,2.0,1.0,1.0,34.9,33.7,33.7,2.4,4.2,2.575,0.35280492650591383,-0.022216350362500796,0.9214325124917399,-0.0010144684977918773,-0.116599,-33.0575
11.185,2.0,1.0,1.0,34.9,33.7,33.7,2.4,4.2,2.5775,0.34258930359425305,-0.02252986484199708,0.9250895468856545,-0.001288635273004232,-0.118166,-32.930644
11.185,2.0,1.0,1.0,34.9,33.7,33.7,2.4,4.2,2.58,0.3322617312326175,-0.022845858111215724,0.9286562539565154,-0.0015721909309624317,-0.119763,-32.803332
11.185,2.0,1.0,1.0,34.9,33.7,33.7,2.4,4.2,2.5825,0.3218217540436071,-0.023164261511330518,0.9321300243407458,-0.0018654030303262349,-0.121391,-32.675558
11.185,2.0,1.0,1.0,34.9,33.7,33.7,2.4,4.2,2.585,0.3112689471774343,-0.023485000325019316,0.9355081871583337,-0.002168546216458436,-0.123052,-32.547317
11.185,2.0,1.0,1.0,34.9,33.7,33.7,2.4,4.2,2.5875,0.30060291826687263,-0.023807993452626606,0.9387880089603331,-0.002481902374849019,-0.124745,-32.418602
11.185,2.0,1.0,1.0,34.9,33.7,33.7,2.4,4.2,2.59,0.289823309465344,-0.024133153073263476,0.9419666926854108,-0.0028057607853706474,-0.126471,-32.289409
11.185,2.0,1.0,1.0,34.9,33.7,33.7,2.4,4.2,2.5925,0.27892979957079744,-0.02446038429020478,0.9450413766277267,-0.003140418277177009,-0.128232,-32.159731
11.185,2.0,1.0,1.0,34.9,33.7,33.7,2.4,4.2,2.595,0.26792210623811874,-0.02478958475991623,0.9480091334186029,-0.0034861793840379857,-0.130029,-32.029563
11.185,2.0,1.0,1.0,34.9,33.7,33.7,2.4,4.2,2.5975,0.2567999882827888,-0.025120644304020213,0.9508669690246029,-0.0038433564998930866,-0.131861,-31.898897
11.185,2.0,1.0,1.0,34.9,33.7,33.7,2.4,4.2,2.6,0.24556324807858387,-0.025453444503480197,0.9536118217647993,-0.004212270034385182,-0.13373,-31.767729
11.185,2.0,1.0,1.0,34.9,33.7,33.7,2.4,4.2,2.6025,0.23421173405213008,-0.025787858274254723,0.9562405613501963,-0.004593248568120331,-0.135637,-31.636053
11.185,2.0,1.0,1.0,34.9,33.7,33.7,2.4,4.2,2.605,0.2227453432771132,-0.026123749423644125,0.958749987948462,-0.004986629007382521,-0.137582,-31.503861
11.185,2.0,1.0,1.0,34.9,33.7,33.7,2.4,4.2,2.6075,0.21116402417100766,-0.026460972186519466,0.9611368312773105,-0.005392756738012587,-0.139568,-31.371147
11.185,2.0,1.0,1.0,34.9,33.7,33.7,2.4,4.2,2.61,0.1994677792971683,-0.026799370740592292,0.9633977497300578,-0.005811985778142053,-0.141594,-31.237906
11.185,2.0,1.0,1.0,34.9,33.7,33.7,2.4,4.2,2.6125,0.18765666827514058,-0.0271387786998486,0.9655293295371334,-0.0062446789294532115,-0.143661,-31.10413
11.185,2.0,1.0,1.0,34.9,33.7,33.7,2.4,4.2,2.615,0.17573081080204023,-0.027479018585234917,0.967528083967475,-0.006691207926617462,-0.145772,-30.969813
11.185,2.0,1.0,1.0,34.9,33.7,33.7,2.4,4.2,2.6175,0.16369038978786093,-0.027819901271645776,0.9693904525740118,-0.007151953584541597,-0.147926,-30.834948
11.185,2.0,1.0,1.0,34.9,33.7,33.7,2.4,4.2,2.62,0.15153565460752427,-0.028161225410222084,0.9711128004876366,-0.0076273059430328576,-0.150125,-30.699529
11.185,2.0,1.0,1.0,34.9,33.7,33.7,2.4,4.2,2.6225,0.13926692447247216,-0.02850277682492797,0.9726914177643143,-0.00811766440847184,-0.15237,-30.563548
11.185,2.0,1.0,1.0,34.9,33.7,33.7,2.4,4.2,2.625,0.126884591924598,-0.0288443278823272,0.974122518790216,-0.00862343789205943,-0.154662,-30.426998
11.185,2.0,1.0,1.0,34.9,33.7,33.7,2.4,4.2,2.6275,0.11438912645520104,-0.029185636833434184,0.9754022417500106,-0.009145044944185022,-0.157003,-30.289872
11.185,2.0,1.0,1.0,34.9,33.7,33.7,2.4,4.2,2.63,0.10178107825166154,-0.0295264471264622,0.9765266481636947,-0.009682913884439093,-0.159393,-30.152163
11.185,2.0,1.0,1.0,34.9,33.7,33.7,2.4,4.2,2.6325,0.08906108207443798,-0.029866486689237554,0.9774917224976177,-0.010237482926772514,-0.161835,-30.013863
11.185,2.0,1.0,1.0,34.9,33.7,33.7,2.4,4.2,2.635,0.0762298612669139,-0.03020546717998932,0.9782933718556021,-0.010809200299283284,-0.164328,-29.874964
11.185,2.0,1.0,1.0,34.9,33.7,33.7,2.4,4.2,2.6375,0.06328823190055743,-0.030543083205161935,0.9789274257563308,-0.011398524358089279,-0.166876,-29.735459
11.185,2.0,1.0,1.0,34.9,33.7,33.7,2.4,4.2,2.64,0.050237107057704095,-0.030879011502829852,0.9793896360034527,-0.012005923694725995,-0.169478,-29.595339
11.185,2.0,1.0,1.0,34.9,33.7,33.7,2.4,4.2,2.6425,0.03707750125424354,-0.03121291009021997,0.9796756766551209,-0.012631877236485378,-0.172137,-29.454597
11.185,2.0,1.0,1.0,34.9,33.7,33.7,2.4,4.2,2.645,0.023810535004294593,-0.03154441737376776,0.9797811440999601,-0.013276874339094014,-0.174854,-29.313223
11.185,2.0,1.0,1.0,34.9,33.7,33.7,2.4,4.2,2.6475,0.010437439528861437,-0.031873151220047,0.9797015572467204,-0.01394141487110763,-0.177631,-29.17121
11.185,2.0,1.0,1.0,34.9,33.7,33.7,2.4,4.2,2.65,-0.0030404383897236287,-0.032198707985818587,0.9794323578351742,-0.014626009289383584,-0.180469,-29.028549
11.185,2.0,1.0,1.0,34.9,33.7,33.7,2.4,4.2,2.6525,-0.0166216314058575,-0.03252066150533973,0.9789689108760601,-0.015331178704970779,-0.18337,-28.885229
11.185,2.0,1.0,1.0,34.9,33.7,33.7,2.4,4.2,2.655,-0.030304546459784695,-0.03283856203296301,0.978306505228159,-0.016057454938746458,-0.186336,-28.741243
11.185,2.0,1.0,1.0,34.9,33.7,33.7,2.4,4.2,2.6575,-0.04408745947644042,-0.033151935138930055,0.9774403543208605,-0.01680538056611007,-0.189368,-28.59658
11.185,2.0,1.0,1.0,34.9,33.7,33.7,2.4,4.2,2.66,-0.05796850991292639,-0.033460280556127237,0.976365597030817,-0.017575508950034013,-0.192469,-28.451231
11.185,2.0,1.0,1.0,34.9,33.7,33.7,2.4,4.2,2.6625,-0.07194569515371103,-0.0337630709754202,0.9750772987215524,-0.01836840426175804,-0.195639,-28.305186
11.185,2.0,1.0,1.0,34.9,33.7,33.7,2.4,4.2,2.665,-0.08601686475291344,-0.03405975078701745,0.9735704524551175,-0.01918464148840714,-0.198883,-28.158434
11.185,2.0,1.0,1.0,34.9,33.7,33.7,2.4,4.2,2.6675,-0.10017971452319831,-0.03434973476512676,0.9718399803851305,-0.02002480642680228,-0.2022,-28.010964
11.185,2.0,1.0,1.0,34.9,33.7,33.7,2.4,4.2,2.67,-0.11443178047109479,-0.0346324066929646,0.9698807353407308,-0.02088949566273046,-0.205594,-27.862765
11.185,2.0,1.0,1.0,34.9,33.7,33.7,2.4,4.2,2.6725,-0.128770432578803,-0.03490711792494938,0.9676875026111951,-0.02177931653493698,-0.209067,-27.713827
11.185,2.0,1.0,1.0,34.9,33.7,33.7,2.4,4.2,2.675,-0.14319286843274737,-0.03517318588265529,0.9652550019411348,-0.02269488708309972,-0.212621,-27.564136
11.185,2.0,1.0,1.0,34.9,33.7,33.7,2.4,4.2,2.6775,-0.1576961066994451,-0.03542989248082089,0.9625778897463404,-0.023636835979048306,-0.216258,-27.413682
11.185,2.0,1.0,1.0,34.9,33.7,33.7,2.4,4.2,2.68,-0.17227698044947745,-0.03567648247939043,0.9596507615604978,-0.0246058024404931,-0.219981,-27.26245
11.185,2.0,1.0,1.0,34.9,33.7,33.7,2.4,4.2,2.6825,-0.1869321303305799,-0.03591216175721271,0.9564681547230691,-0.025602436126531004,-0.223793,-27.110429
11.185,2.0,1.0,1.0,34.9,33.7,33.7,2.4,4.2,2.685,-0.2016579975911267,-0.036136095502628286,0.9530245513187557,-0.026627397014203913,-0.227696,-26.957604
11.185,2.0,1.0,1.0,34.9,33.7,33.7,2.4,4.2,2.6875,-0.216450816955477,-0.036347406315734,0.949314381378952,-0.0276813552553879,-0.231693,-26.803961
11.185,2.0,1.0,1.0,34.9,33.7,33.7,2.4,4.2,2.69,-0.23130660935282318,-0.0365451722166194,0.9453320263556549,-0.02876499101329764,-0.235788,-26.649486
11.185,2.0,1.0,1.0,34.9,33.7,33.7,2.4,4.2,2.6925,-0.2462211745013899,-0.036728424553316555,0.9410718228782408,-0.029878994277896,-0.239982,-26.494164
11.185,2.0,1.0,1.0,34.9,33.7,33.7,2.4,4.2,2.695,-0.26119008334987104,-0.03689614580258251,0.936528066803447,-0.031024064659495258,-0.24428,-26.337979
11.185,2.0,1.0,1.0,34.9,33.7,33.7,2.4,4.2,2.6975,-0.2762086703781459,-0.037047267255938945,0.9316950175688047,-0.03220091115983963,-0.248685,-26.180913
11.185,2.0,1.0,1.0,34.9,33.7,33.7,2.4,4.2,2.7,-0.29127202575924827,-0.03718066658261018,0.9265669028596015,-0.033410251919941236,-0.2532,-26.022951
11.185,2.0,1.0,1.0,34.9,33.7,33.7,2.4,4.2,2.7025,-0.3063749873845406,-0.03729516526012525,0.9211379235992472,-0.03465281394392768,-0.257828,-25.864074
11.185,2.0,1.0,1.0,34.9,33.7,33.7,2.4,4.2,2.705,-0.32151213275385887,-0.03738952586236292,0.9154022592726669,-0.03592933279812288,-0.262575,-25.704264
11.185,2.0,1.0,1.0,34.9,33.7,33.7,2.4,4.2,2.7075,-0.3366777707321607,-0.03746244919371322,0.90935407359206,-0.037240552284536876,-0.267443,-25.543501
11.185,2.0,1.0,1.0,34.9,33.7,33.7,2.4,4.2,2.71,-0.3518659331737795,-0.03751257125678441,0.9029875205140021,-0.03858722408786449,-0.272437,-25.381764
11.185,2.0,1.0,1.0,34.9,33.7,33.7,2.4,4.2,2.7125,-0.3670703664149079,-0.03753846003968744,0.8962967506164843,-0.03997010739499961,-0.277562,-25.219033
11.185,2.0,1.0,1.0,34.9,33.7,33.7,2.4,4.2,2.715,-0.38228452263417023,-0.037538612107357934,0.8892759178440399,-0.04138996848593055,-0.282821,-25.055286
11.185,2.0,1.0,1.0,34.9,33.7,33.7,2.4,4.2,2.7175,-0.39750155108029456,-0.03751144897960904,0.8819191866286495,-0.04284758029470951,-0.288221,-24.890498
11.185,2.0,1.0,1.0,34.9,33.7,33.7,2.4,4.2,2.72,-0.4127142891647032,-0.0374553132766208,0.8742207393935971,-0.0443437219389497,-0.293766,-24.724647
11.185,2.0,1.0,1.0,34.9,33.7,33.7,2.4,4.2,2.7225,-0.4279152534155215,-0.03736846461033484,0.8661747844468987,-0.045879178216009855,-0.299461,-24.557705
11.185,2.0,1.0,1.0,34.9,33.7,33.7,2.4,4.2,2.725,-0.4430966302877005,-0.03724907519770708,0.8577755642704318,-0.047454739063633074,-0.305312,-24.389647
11.185,2.0,1.0,1.0,34.9,33.7,33.7,2.4,4.2,2.7275,-0.4582502668220115,-0.03709522516893716,0.8490173642102647,-0.049071198982332274,-0.311325,-24.220445
11.185,2.0,1.0,1.0,34.9,33.7,33.7,2.4,4.2,2.73,-0.47336766114311624,-0.036904897540603665,0.8398945215732538,-0.05072935641619596,-0.317507,-24.050068
11.185,2.0,1.0,1.0,34.9,33.7,33.7,2.4,4.2,2.7325,-0.48843995278409924,-0.036675972820039204,0.8304014351343881,-0.05243001308803944,-0.323864,-23.878486
11.185,2.0,1.0,1.0,34.9,33.7,33.7,2.4,4.2,2.735,-0.5034579128213493,-0.03640622320323162,0.820532575059036,-0.054173973283881516,-0.330404,-23.705667
11.185,2.0,1.0,1.0,34.9,33.7,33.7,2.4,4.2,2.7375,-0.5184119337997318,-0.03609330632397112,0.8102824932438704,-0.05596204308057529,-0.337134,-23.531576
11.185,2.0,1.0,1.0,34.9,33.7,33.7,2.4,4.2,2.74,-0.5332920194232406,-0.035734758506817746,0.799645834080123,-0.057795029508997176,-0.344061,-23.356177
11.185,2.0,1.0,1.0,34.9,33.7,33.7,2.4,4.2,2.7425,-0.548087773980933,-0.035327987470654784,0.7886173456428419,-0.059673739643468164,-0.351195,-23.179432
11.185,2.0,1.0,1.0,34.9,33.7,33.7,2.4,4.2,2.745,-0.5627883914715862,-0.03487026442304148,0.77719189131014,-0.0615989796059571,-0.358545,-23.001302
11.185,2.0,1.0,1.0,34.9,33.7,33.7,2.4,4.2,2.7475,-0.577382644383236,-0.03435871547817634,0.7653644618170594,-0.06357155347104783,-0.36612,-22.821745
11.185,2.0,1.0,1.0,34.9,33.7,33.7,2.4,4.2,2.75,-0.59185887207537,-0.0337903123229219,0.753130187749789,-0.0655922620545226,-0.37393,-22.640715
11.185,2.0,1.0,1.0,34.9,33.7,33.7,2.4,4.2,2.7525,-0.6062049687018298,-0.03316186204589025,0.7404843524875768,-0.0676619015646322,-0.381986,-22.458167
11.185,2.0,1.0,1.0,34.9,33.7,33.7,2.4,4.2,2.755,-0.6204083706014183,-0.032469996033898454,0.7274224056020575,-0.06978126209054239,-0.390301,-22.274051
11.185,2.0,1.0,1.0,34.9,33.7,33.7,2.4,4.2,2.7575,-0.6344560430704852,-0.031711157828004044,0.7139399767268558,-0.07195112589692206,-0.398886,-22.088315
11.185,2.0,1.0,1.0,34.9,33.7,33.7,2.4,4.2,2.76,-0.6483344664171732,-0.03088158981763252,0.7000328899146171,-0.07417226548695131,-0.407756,-21.900905
11.185,2.0,1.0,1.0,34.9,33.7,33.7,2.4,4.2,2.7625,-0.6620296211804223,-0.02997731863578274,0.6856971785041558,-0.0764454413879865,-0.416924,-21.711761
11.185,2.0,1.0,1.0,34.9,33.7,33.7,2.4,4.2,2.765,-0.6755269723778042,-0.028994139100695412,0.6709291005275309,-0.078771399604395,-0.426406,-21.520824
11.185,2.0,1.0,1.0,34.9,33.7,33.7,2.4,4.2,2.7675,-0.6888114526245906,-0.02792759652940051,0.6557251546960315,-0.08115086867036692,-0.436218,-21.328028
11.185,2.0,1.0,1.0,34.9,33.7,33.7,2.4,4.2,2.77,-0.7018674439417878,-0.02677296722588466,0.6400820970154478,-0.08358455622138632,-0.44638,-21.133305
11.185,2.0,1.0,1.0,34.9,33.7,33.7,2.4,4.2,2.7725,-0.7146787580427096,-0.02552523692087002,0.6239969580954596,-0.08607314498600371,-0.456909,-20.936583
11.185,2.0,1.0,1.0,34.9,33.7,33.7,2.4,4.2,2.775,-0.7272286148556055,-0.024179076910921794,0.6074670612358916,-0.08861728807898954,-0.467828,-20.737784
11.185,2.0,1.0,1.0,34.9,33.7,33.7,2.4,4.2,2.7775,-0.7394996190034224,-0.02272881761131923,0.5904900413948275,-0.09121760345210966,-0.479159,-20.536828
11.185,2.0,1.0,1.0,34.9,33.7,33.7,2.4,4.2,2.78,-0.7514737339202592,-0.021168419199256615,0.5730638651710734,-0.09387466732874536,-0.490926,-20.33363
11.185,2.0,1.0,1.0,34.9,33.7,33.7,2.4,4.2,2.7825,-0.7631322532368472,-0.019491438980858138,0.5551868519674736,-0.0965890064122387,-0.503157,-20.128097
11.185,2.0,1.0,1.0,34.9,33.7,33.7,2.4,4.2,2.785,-0.7744557690138139,-0.01769099506644055,0.536857696543229,-0.09936108861384699,-0.51588,-19.920135
11.185,2.0,1.0,1.0,34.9,33.7,33.7,2.4,4.2,2.7875,-0.7854241363404136,-0.01575972588265376,0.5180754932148735,-0.10219131199277708,-0.529128,-19.709641
11.185,2.0,1.0,1.0,34.9,33.7,33.7,2.4,4.2,2.79,-0.7960164337472652,-0.01368974498661284,0.49883976202851893,-0.10507999153591739,-0.542935,-19.496507
11.185,2.0,1.0,1.0,34.9,33.7,33.7,2.4,4.2,2.7925,-0.8062109188030046,-0.011472590574922163,0.4791504773035722,-0.10802734332594015,-0.557339,-19.280618
11.185,2.0,1.0,1.0,34.9,33.7,33.7,2.4,4.2,2.795,-0.8159849781758116,-0.0090991689984262,0.45900809904315626,-0.1110334655502469,-0.572382,-19.061853
11.185,2.0,1.0,1.0,34.9,33.7,33.7,2.4,4.2,2.7975,-0.8253150713399364,-0.0065596915004336055,0.4384136078234674,-0.11409831568572931,-0.58811,-18.840084
11.185,2.0,1.0,1.0,34.9,33.7,33.7,2.4,4.2,2.8,-0.8341766669936572,-0.0038436032907225833,0.41736854391788525,-0.11722168305060283,-0.604572,-18.615174
11.185,2.0,1.0,1.0,34.9,33.7,33.7,2.4,4.2,2.8025,-0.8425441711269469,-0.0009395039485989201,0.39587505158853264,-0.1204031557383557,-0.621824,-18.386978
11.185,2.0,1.0,1.0,34.9,33.7,33.7,2.4,4.2,2.805,-0.8503908455333437,0.0021649419856484826,0.3739359296958448,-0.12364208073242229,-0.639929,-18.155343
11.185,2.0,1.0,1.0,34.9,33.7,33.7,2.4,4.2,2.8075,-0.857688715400027,0.005483105521446744,0.35155469004546946,-0.12693751573375098,-0.658953,-17.920104
11.185,2.0,1.0,1.0,34.9,33.7,33.7,2.4,4.2,2.81,-0.8644084644320797,0.009029506287955156,0.3287356252239273,-0.13028817090475095,-0.678972,-17.681091
11.185,2.0,1.0,1.0,34.9,33.7,33.7,2.4,4.2,2.8125,-0.870519315771214,0.0128199398040074,0.30548388808566,-0.133692338326719,-0.70007,-17.438118
11.185,2.0,1.0,1.0,34.9,33.7,33.7,2.4,4.2,2.815,-0.8759888967568908,0.016871620787985146,0.2818055855637727,-0.13714780646434074,-0.722341,-17.190992
11.185,2.0,1.0,1.0,34.9,33.7,33.7,2.4,4.2,2.8175,-0.8807830853512569,0.0212033445603659,0.25770789011015816,-0.1406517563056084,-0.745888,-16.939505
11.185,2.0,1.0,1.0,34.9,33.7,33.7,2.4,4.2,2.82,-0.8848658358139794,0.02583566881264283,0.23319917285889796,-0.1442006350674519,-0.770829,-16.683439
11.185,2.0,1.0,1.0,34.9,33.7,33.7,2.4,4.2,2.8225,-0.8881989809780493,0.030791118236378954,0.20828916358971597,-0.14779000238720238,-0.797296,-16.422561
11.185,2.0,1.0,1.0,34.9,33.7,33.7,2.4,4.2,2.825,-0.8907420082582697,0.03609441471031347,0.18298914379607067,-0.15141434270790702,-0.825437,-16.156625
11.185,2.0,1.0,1.0,34.9,33.7,33.7,2.4,4.2,2.8275,-0.8924518063445013,0.04177273590783181,0.15731218069856676,-0.15506683604852983,-0.855419,-15.885371
