1,w,sub_t,h,l1,l2,l3,g1,g2,Freq,S11_re,S21_re,S11_img,S21_img,S11_dB,S21_dB
11.185,2.0,1.0,1.0,34.1,33.4,33.4,2.1,3.3,2.5,0.764226560469144,-0.0124708760824595,0.632629598087737,0.00772564718268547,-0.068891,-36.671408
11.185,2.0,1.0,1.0,34.1,33.4,33.4,2.1,3.3,2.5025,0.7593021514927134,-0.01270518253076593,0.638400389453792,0.007724805318647984,-0.069631,-36.554225
11.185,2.0,1.0,1.0,34.1,33.4,33.4,2.1,3.3,2.505,0.7543080801205002,-0.012943442129987928,0.644161279142961,0.007721813665616282,-0.070383,-36.436699
11.185,2.0,1.0,1.0,34.1,33.4,33.4,2.1,3.3,2.5075,0.749243617486736,-0.01318572185842562,0.6499117123234632,0.0077165908019667835,-0.071147,-36.318823
11.185,2.0,1.0,1.0,34.1,33.4,33.4,2.1,3.3,2.51,0.7441080252495883,-0.013432089820890043,0.6556511174804207,0.00770905247373278,-0.071925,-36.200593
11.185,2.0,1.0,1.0,34.1,33.4,33.4,2.1,3.3,2.5125,0.7389005555414045,-0.01368261525924619,0.6613789059070289,0.007699111489478262,-0.072715,-36.082002
11.185,2.0,1.0,1.0,34.1,33.4,33.4,2.1,3.3,2.515,0.7336204509235652,-0.013937368562282119,0.6670944711801722,0.007686677611002051,-0.073519,-35.963044
11.185,2.0,1.0,1.0,34.1,33.4,33.4,2.1,3.3,2.5175,0.7282669443463311,-0.01419642127482948,0.6727971886199849,0.00767165743969686,-0.074338,-35.843712
11.185,2.0,1.0,1.0,34.1,33.4,33.4,2.1,3.3,2.52,0.7228392591140372,-0.014459846106056395,0.678486414732884,0.007653954298380124,-0.07517,-35.724
11.185,2.0,1.0,1.0,34.1,33.4,33.4,2.1,3.3,2.5225,0.7173366088560679,-0.01472771693684635,0.6841614866375446,0.007633468108405268,-0.076017,-35.603903
11.185,2.0,1.0,1.0,34.1,33.4,33.4,2.1,3.3,2.525,0.7117581975040104,-0.01500010882617204,0.6898217214733159,0.007610095261853562,-0.076879,-35.483412
11.185,2.0,1.0,1.0,34.1,33.4,33.4,2.1,3.3,2.5275,0.7061032192754534,-0.01527709801636517,0.6954664157905338,0.0075837284885975995,-0.077756,-35.362523
11.185,2.0,1.0,1.0,34.1,33.4,33.4,2.1,3.3,2.53,0.7003708586648982,-0.015558761937176127,0.7010948449221702,0.007554256718018529,-0.078649,-35.241228
11.185,2.0,1.0,1.0,34.1,33.4,33.4,2.1,3.3,2.5325,0.6945602904422911,-0.015845179208510137,0.7067062623362618,0.007521564935148571,-0.079559,-35.119521
11.185,2.0,1.0,1.0,34.1,33.4,33.4,2.1,3.3,2.535,0.6886706796596933,-0.016136429641718148,0.7122998989685304,0.007485534031001022,-0.080484,-34.997394
11.185,2.0,1.0,1.0,34.1,33.4,33.4,2.1,3.3,2.5375,0.6827011816666678,-0.01643259423931122,0.717874962534587,0.007446040646838275,-0.081427,-34.874841
11.185,2.0,1.0,1.0,34.1,33.4,33.4,2.1,3.3,2.54,0.6766509421349551,-0.01673375519295829,0.7234306368211131,0.007402957012117966,-0.082387,-34.751856
11.185,2.0,1.0,1.0,34.1,33.4,33.4,2.1,3.3,2.5425,0.6705190970930716,-0.017039995879617482,0.7289660809553757,0.00735615077584481,-0.083366,-34.62843
11.185,2.0,1.0,1.0,34.1,33.4,33.4,2.1,3.3,2.545,0.6643047729714825,-0.01735140085563876,0.7344804286524312,0.007305484831043709,-0.084362,-34.504558
11.185,2.0,1.0,1.0,34.1,33.4,33.4,2.1,3.3,2.5475,0.6580070866590546,-0.017668055848665643,0.7399727874393347,0.007250817132056923,-0.085378,-34.380231
11.185,2.0,1.0,1.0,34.1,33.4,33.4,2.1,3.3,2.55,0.6516251455715011,-0.01799004774715099,0.7454422378556875,0.007192000504353994,-0.086412,-34.255443
11.185,2.0,1.0,1.0,34.1,33.4,33.4,2.1,3.3,2.5525,0.6451580477326193,-0.01831746458728711,0.7508878326297893,0.0071288824465292515,-0.087467,-34.130186
11.185,2.0,1.0,1.0,34.1,33.4,33.4,2.1,3.3,2.555,0.6386048818691118,-0.018650395537138587,0.7563085958296917,0.007061304924146965,-0.088542,-34.004452
11.185,2.0,1.0,1.0,34.1,33.4,33.4,2.1,3.3,2.5575,0.6319647275198617,-0.01898893087774913,0.7617035219883981,0.006989104155077904,-0.089638,-33.878234
11.185,2.0,1.0,1.0,34.1,33.4,33.4,2.1,3.3,2.56,0.6252366551605718,-0.01933316198097817,0.7670715752024437,0.006912110385955673,-0.090755,-33.751525
11.185,2.0,1.0,1.0,34.1,33.4,33.4,2.1,3.3,2.5625,0.6184197263447204,-0.01968318128380506,0.7724116882030736,0.006830147659362818,-0.091895,-33.624317
11.185,2.0,1.0,1.0,34.1,33.4,33.4,2.1,3.3,2.565,0.611512993861841,-0.020039082258820992,0.7777227613992211,0.006743033571339999,-0.093057,-33.496601
11.185,2.0,1.0,1.0,34.1,33.4,33.4,2.1,3.3,2.5675,0.6045155019141963,-0.020400959380606973,0.7830036618914445,0.006650579018791378,-0.094242,-33.36837
11.185,2.0,1.0,1.0,34.1,33.4,33.4,2.1,3.3,2.57,0.5974262863129656,-0.020768908087676664,0.7882532224559959,0.006552587936340633,-0.095451,-33.239616
11.185,2.0,1.0,1.0,34.1,33.4,33.4,2.1,3.3,2.5725,0.5902443746951211,-0.021143024739638423,0.7934702404981431,0.006448857022170418,-0.096685,-33.11033
11.185,2.0,1.0,1.0,34.1,33.4,33.4,2.1,3.3,2.575,0.5829687867622534,-0.021523406569206958,0.798653476973866,0.006339175452356614,-0.097944,-32.980504
11.185,2.0,1.0,1.0,34.1,33.4,33.4,2.1,3.3,2.5775,0.5755985345426479,-0.021910151628668415,0.8038016552790097,0.006223324583186155,-0.099229,-32.85013
11.185,2.0,1.0,1.0,34.1,33.4,33.4,2.1,3.3,2.58,0.568132622678013,-0.022303358730373892,0.8089134601049718,0.006101077640922915,-0.10054,-32.719199
11.185,2.0,1.0,1.0,34.1,33.4,33.4,2.1,3.3,2.5825,0.5605700487363017,-0.022703127380807108,0.8139875362599699,0.005972199398460434,-0.101879,-32.587703
11.185,2.0,1.0,1.0,34.1,33.4,33.4,2.1,3.3,2.585,0.5529098035521866,-0.023109557707738083,0.8190224874549172,0.005836445838275419,-0.103246,-32.455632
11.185,2.0,1.0,1.0,34.1,33.4,33.4,2.1,3.3,2.5875,0.5451508715967923,-0.023522750379940838,0.8240168750529115,0.005693563801066404,-0.104642,-32.322977
11.185,2.0,1.0,1.0,34.1,33.4,33.4,2.1,3.3,2.59,0.5372922313784159,-0.02394280651891425,0.8289692167813172,0.005543290619434017,-0.106067,-32.189731
11.185,2.0,1.0,1.0,34.1,33.4,33.4,2.1,3.3,2.5925,0.5293328558760159,-0.024369827602007,0.8338779854054114,0.005385353735928675,-0.107524,-32.055883
11.185,2.0,1.0,1.0,34.1,33.4,33.4,2.1,3.3,2.595,0.521271713007399,-0.02480391535630139,0.8387416073625196,0.005219470304759123,-0.109011,-31.921424
11.185,2.0,1.0,1.0,34.1,33.4,33.4,2.1,3.3,2.5975,0.5131077661340792,-0.0252451716425677,0.843558461355577,0.005045346776421459,-0.110531,-31.786344
11.185,2.0,1.0,1.0,34.1,33.4,33.4,2.1,3.3,2.6,0.504839974604937,-0.025693698328548075,0.8483268769049991,0.004862678464473683,-0.112084,-31.650634
11.185,2.0,1.0,1.0,34.1,33.4,33.4,2.1,3.3,2.6025,0.4964672943409087,-0.02614959715077663,0.8530451328577403,0.004671149093643252,-0.113671,-31.514285
11.185,2.0,1.0,1.0,34.1,33.4,33.4,2.1,3.3,2.605,0.48798867846303384,-0.026612969564085275,0.8577114558523994,0.004470430328415477,-0.115294,-31.377285
11.185,2.0,1.0,1.0,34.1,33.4,33.4,2.1,3.3,2.6075,0.4794030779663524,-0.027083916577881326,0.8623240187392024,0.004260181281211202,-0.116953,-31.239626
11.185,2.0,1.0,1.0,34.1,33.4,33.4,2.1,3.3,2.61,0.4707094424422526,-0.02756253857821759,0.866880938953672,0.004040047999217979,-0.118649,-31.101296
11.185,2.0,1.0,1.0,34.1,33.4,33.4,2.1,3.3,2.6125,0.46190672085201445,-0.02804893513460377,0.8713802768427856,0.0038096629288941635,-0.120383,-30.962285
11.185,2.0,1.0,1.0,34.1,33.4,33.4,2.1,3.3,2.615,0.45299386235444716,-0.02854320479043028,0.8758200339423914,0.0035686443571176893,-0.122157,-30.822584
11.185,2.0,1.0,1.0,34.1,33.4,33.4,2.1,3.3,2.6175,0.4439698171906839,-0.0290454448357928,0.8801981512046334,0.0033165958279022228,-0.123972,-30.68218
11.185,2.0,1.0,1.0,34.1,33.4,33.4,2.1,3.3,2.62,0.43483353762934823,-0.02955575106141644,0.8845125071741283,0.003053105533550057,-0.125829,-30.541063
11.185,2.0,1.0,1.0,34.1,33.4,33.4,2.1,3.3,2.6225,0.4255839789754867,-0.030074217492282364,0.8887609161116115,0.00277774567905612,-0.127729,-30.399221
11.185,2.0,1.0,1.0,34.1,33.4,33.4,2.1,3.3,2.625,0.41622010064687,-0.030600936099454,0.892941126063749,0.00249007181852107,-0.129673,-30.256644
11.185,2.0,1.0,1.0,34.1,33.4,33.4,2.1,3.3,2.6275,0.4067408673214163,-0.03113599648849069,0.8970508168778086,0.0021896221622681087,-0.131663,-30.113319
11.185,2.0,1.0,1.0,34.1,33.4,33.4,2.1,3.3,2.63,0.39714525015974456,-0.03167948556271281,0.9010875981598577,0.0018759168532966656,-0.133701,-29.969236
11.185,2.0,1.0,1.0,34.1,33.4,33.4,2.1,3.3,2.6325,0.38743222810705913,-0.03223148715945341,0.9050490071751496,0.001548457211637912,-0.135788,-29.824381
11.185,2.0,1.0,1.0,34.1,33.4,33.4,2.1,3.3,2.635,0.37760078927880236,-0.03279208165729012,0.9089325066893341,0.0012067249451058692,-0.137925,-29.678743
11.185,2.0,1.0,1.0,34.1,33.4,33.4,2.1,3.3,2.6375,0.3676499324347809,-0.03336134555209726,0.9127354827491345,0.000850181324865781,-0.140114,-29.532309
11.185,2.0,1.0,1.0,34.1,33.4,33.4,2.1,3.3,2.64,0.3575786685466844,-0.033939350999596316,0.9164552424011159,0.000478266324160606,-0.142356,-29.385067
11.185,2.0,1.0,1.0,34.1,33.4,33.4,2.1,3.3,2.6425,0.347386022464253,-0.03452616532190082,0.9200890113471532,9.039771845728459e-05,-0.144654,-29.237003
11.185,2.0,1.0,1.0,34.1,33.4,33.4,2.1,3.3,2.645,0.33707103468559546,-0.03512185047536158,0.9236339315352124,-0.0003140298548129243,-0.147009,-29.088105
11.185,2.0,1.0,1.0,34.1,33.4,33.4,2.1,3.3,2.6475,0.3266327632375069,-0.03572646247680796,0.9270870586840526,-0.0007356458788359138,-0.149422,-28.938359
11.185,2.0,1.0,1.0,34.1,33.4,33.4,2.1,3.3,2.65,0.31607028567192214,-0.03634005078505563,0.9304453597404465,-0.0011751049843294426,-0.151897,-28.787751
11.185,2.0,1.0,1.0,34.1,33.4,33.4,2.1,3.3,2.6525,0.3053827011850682,-0.03696265763430263,0.9337057102675177,-0.0016330880228992487,-0.154435,-28.636267
11.185,2.0,1.0,1.0,34.1,33.4,33.4,2.1,3.3,2.655,0.29456913286616737,-0.037594317315774554,0.9368648917628101,-0.002110303189054381,-0.157037,-28.483893
11.185,2.0,1.0,1.0,34.1,33.4,33.4,2.1,3.3,2.6575,0.2836287300830101,-0.03823505540368478,0.9399195889046832,-0.0026074871932038756,-0.159707,-28.330614
11.185,2.0,1.0,1.0,34.1,33.4,33.4,2.1,3.3,2.66,0.2725606710121026,-0.038884887921266285,0.9428663867256548,-0.003125406488075897,-0.162446,-28.176417
11.185,2.0,1.0,1.0,34.1,33.4,33.4,2.1,3.3,2.6625,0.2613641653215876,-0.039543820442286416,0.9457017677113169,-0.0036648585511186863,-0.165257,-28.021284
11.185,2.0,1.0,1.0,34.1,33.4,33.4,2.1,3.3,2.665,0.2500384570155694,-0.040211847123088326,0.9484221088234541,-0.004226673225571095,-0.168142,-27.865201
11.185,2.0,1.0,1.0,34.1,33.4,33.4,2.1,3.3,2.6675,0.23858282744906084,-0.04088894965979443,0.951023678446029,-0.004811714123019493,-0.171104,-27.708152
11.185,2.0,1.0,1.0,34.1,33.4,33.4,2.1,3.3,2.67,0.22699659852326226,-0.041575096164870685,0.9535026332526959,-0.00542088009040017,-0.174146,-27.550121
11.185,2.0,1.0,1.0,34.1,33.4,33.4,2.1,3.3,2.6725,0.21527913607151827,-0.042270239956767965,0.9558550149945533,-0.0060551067445475575,-0.17727,-27.391091
11.185,2.0,1.0,1.0,34.1,33.4,33.4,2.1,3.3,2.675,0.20342985344693976,-0.042974318255833296,0.9580767472068459,-0.0067153680775399365,-0.180479,-27.231045
11.185,2.0,1.0,1.0,34.1,33.4,33.4,2.1,3.3,2.6775,0.1914482153233335,-0.04368725077911232,0.9601636318333865,-0.007402678136252494,-0.183777,-27.069966
11.185,2.0,1.0,1.0,34.1,33.4,33.4,2.1,3.3,2.68,0.17933374172185795,-0.044408938226039536,0.9621113457674936,-0.008118092779689112,-0.187166,-26.907836
11.185,2.0,1.0,1.0,34.1,33.4,33.4,2.1,3.3,2.6825,0.16708601227660225,-0.04513926064632742,0.9639154373082649,-0.008862711517833606,-0.190651,-26.744637
11.185,2.0,1.0,1.0,34.1,33.4,33.4,2.1,3.3,2.685,0.15470467075314281,-0.045878075680619766,0.9655713225311132,-0.009637679435937819,-0.194233,-26.58035
11.185,2.0,1.0,1.0,34.1,33.4,33.4,2.1,3.3,2.6875,0.14218942983506616,-0.04662521666365283,0.9670742815714739,-0.010444189208342985,-0.197918,-26.414956
11.185,2.0,1.0,1.0,34.1,33.4,33.4,2.1,3.3,2.69,0.12954007619446398,-0.0473804905787691,0.9684194548207175,-0.011283483206115826,-0.201709,-26.248436
11.185,2.0,1.0,1.0,34.1,33.4,33.4,2.1,3.3,2.6925,0.11675647586345254,-0.04814367585164355,0.9696018390333475,-0.012156855702974862,-0.20561,-26.080769
11.185,2.0,1.0,1.0,34.1,33.4,33.4,2.1,3.3,2.695,0.10383857992502016,-0.048914519969994734,0.9706162833446532,-0.013065655184169429,-0.209625,-25.911935
11.185,2.0,1.0,1.0,34.1,33.4,33.4,2.1,3.3,2.6975,0.09078643054269579,-0.049692736914866364,0.971457485198076,-0.014011286763177517,-0.213759,-25.741913
11.185,2.0,1.0,1.0,34.1,33.4,33.4,2.1,3.3,2.7,0.07760016735004006,-0.050478004387748146,0.9721199861816716,-0.014995214711277407,-0.218016,-25.570681
11.185,2.0,1.0,1.0,34.1,33.4,33.4,2.1,3.3,2.7025,0.06428003422237381,-0.051269960816363855,0.9725981677731655,-0.016018965105249566,-0.222402,-25.398216
11.185,2.0,1.0,1.0,34.1,33.4,33.4,2.1,3.3,2.705,0.05082638645491403,-0.052068202120358356,0.9728862469932342,-0.01708412859865246,-0.226922,-25.224497
11.185,2.0,1.0,1.0,34.1,33.4,33.4,2.1,3.3,2.7075,0.037239698373250585,-0.052872278216358835,0.9729782719668288,-0.01819236332230317,-0.23158,-25.049499
11.185,2.0,1.0,1.0,34.1,33.4,33.4,2.1,3.3,2.71,0.023520571404125976,-0.05368168923994032,0.9728681173925277,-0.01934539791976529,-0.236383,-24.873198
11.185,2.0,1.0,1.0,34.1,33.4,33.4,2.1,3.3,2.7125,0.00966974263665555,-0.05449588145987855,0.9725494799201406,-0.020545034723807858,-0.241337,-24.69557
11.185,2.0,1.0,1.0,34.1,33.4,33.4,2.1,3.3,2.715,-0.004311906093459836,-0.0553142428576925,0.9720158734370269,-0.021793153079932518,-0.246447,-24.516589
11.185,2.0,1.0,1.0,34.1,33.4,33.4,2.1,3.3,2.7175,-0.01842333856152149,-0.05613609834284343,0.9712606242638994,-0.02309171282317681,-0.251722,-24.336228
11.185,2.0,1.0,1.0,34.1,33.4,33.4,2.1,3.3,2.72,-0.03266335391505943,-0.05696070457103085,0.9702768662612347,-0.02444275791446972,-0.257168,-24.15446
11.185,2.0,1.0,1.0,34.1,33.4,33.4,2.1,3.3,2.7225,-0.04703057579736486,-0.05778724432978149,0.9690575358478161,-0.025848420242840883,-0.262791,-23.971258
11.185,2.0,1.0,1.0,34.1,33.4,33.4,2.1,3.3,2.725,-0.06152344078830532,-0.058614820451911166,0.9675953669334155,-0.027310923599739353,-0.268602,-23.786592
11.185,2.0,1.0,1.0,34.1,33.4,33.4,2.1,3.3,2.7275,-0.07614018611354384,-0.059442449213429505,0.9658828857682176,-0.028832587831608143,-0.274607,-23.600433
11.185,2.0,1.0,1.0,34.1,33.4,33.4,2.1,3.3,2.73,-0.09087883656875026,-0.06026905316797616,0.9639124057122364,-0.030415833176636913,-0.280815,-23.412751
11.185,2.0,1.0,1.0,34.1,33.4,33.4,2.1,3.3,2.7325,-0.10573719060057639,-0.06109345336489302,0.9616760219288288,-0.032063184791286885,-0.287236,-23.223513
11.185,2.0,1.0,1.0,34.1,33.4,33.4,2.1,3.3,2.735,-0.12071280548062674,-0.06191436089246572,0.9591656060073318,-0.03377727747168879,-0.293881,-23.032687
11.185,2.0,1.0,1.0,34.1,33.4,33.4,2.1,3.3,2.7375,-0.13580298150258704,-0.06273036768164902,0.9563728005210576,-0.03556086057434853,-0.300758,-22.840239
11.185,2.0,1.0,1.0,34.1,33.4,33.4,2.1,3.3,2.74,-0.15100474512583478,-0.06353993649863224,0.9532890135282399,-0.03741680313969102,-0.307881,-22.646135
11.185,2.0,1.0,1.0,34.1,33.4,33.4,2.1,3.3,2.7425,-0.16631483098122626,-0.06434139004681624,0.9499054130252181,-0.03934809922079949,-0.31526,-22.450337
11.185,2.0,1.0,1.0,34.1,33.4,33.4,2.1,3.3,2.745,-0.1817296626462072,-0.06513289909004648,0.9462129213631496,-0.041357873418182624,-0.322908,-22.25281
11.185,2.0,1.0,1.0,34.1,33.4,33.4,2.1,3.3,2.7475,-0.19724533208678424,-0.06591246949916439,0.9422022096419683,-0.04344938661946902,-0.330839,-22.053515
11.185,2.0,1.0,1.0,34.1,33.4,33.4,2.1,3.3,2.75,-0.212857577653155,-0.0666779281129563,0.937863692098253,-0.0456260419404807,-0.339068,-21.85241
11.185,2.0,1.0,1.0,34.1,33.4,33.4,2.1,3.3,2.7525,-0.22856176050363194,-0.06742690729224218,0.9331875205071753,-0.04789139086107456,-0.347609,-21.649456
11.185,2.0,1.0,1.0,34.1,33.4,33.4,2.1,3.3,2.755,-0.24435283931790452,-0.06815682803197473,0.928163578623021,-0.05024913954531686,-0.35648,-21.444609
11.185,2.0,1.0,1.0,34.1,33.4,33.4,2.1,3.3,2.7575,-0.26022534314532036,-0.06886488148061443,0.9227814766879089,-0.05270315533082889,-0.365697,-21.237825
11.185,2.0,1.0,1.0,34.1,33.4,33.4,2.1,3.3,2.76,-0.27617334221650613,-0.06954800869846849,0.9170305460446473,-0.055257473366277496,-0.37528,-21.029057
11.185,2.0,1.0,1.0,34.1,33.4,33.4,2.1,3.3,2.7625,-0.29219041652715716,-0.07020287846688554,0.9108998338972314,-0.057916303368788315,-0.385249,-20.818258
11.185,2.0,1.0,1.0,34.1,33.4,33.4,2.1,3.3,2.765,-0.3082696219807054,-0.07082586293787169,0.9043780982717436,-0.060684036464194985,-0.395626,-20.605379
11.185,2.0,1.0,1.0,34.1,33.4,33.4,2.1,3.3,2.7675,-0.32440345385164937,-0.07141301088851708,0.8974538032415589,-0.06356525206218172,-0.406433,-20.390367
11.185,2.0,1.0,1.0,34.1,33.4,33.4,2.1,3.3,2.77,-0.34058380730312443,-0.07196001831621107,0.8901151144943814,-0.06656472470508377,-0.417696,-20.17317
11.185,2.0,1.0,1.0,34.1,33.4,33.4,2.1,3.3,2.7725,-0.3568019346603958,-0.07246219607855547,0.8823498953350957,-0.06968743081285213,-0.429442,-19.953731
11.185,2.0,1.0,1.0,34.1,33.4,33.4,2.1,3.3,2.775,-0.3730483991058516,-0.07291443424568682,0.8741457032384976,-0.07293855522682952,-0.4417,-19.731993
11.185,2.0,1.0,1.0,34.1,33.4,33.4,2.1,3.3,2.7775,-0.389313024420291,-0.07331116279185201,0.8654897870903174,-0.07632349743074748,-0.454501,-19.507896
11.185,2.0,1.0,1.0,34.1,33.4,33.4,2.1,3.3,2.78,-0.40558484034911285,-0.07364630820696193,0.8563690852846343,-0.07984787729777626,-0.46788,-19.281378
11.185,2.0,1.0,1.0,34.1,33.4,33.4,2.1,3.3,2.7825,-0.421852023119778,-0.07391324555681174,0.8467702248818546,-0.08351754017637163,-0.481872,-19.052373
11.185,2.0,1.0,1.0,34.1,33.4,33.4,2.1,3.3,2.785,-0.43810183057803787,-0.07410474546199712,0.8366795220754292,-0.08733856108368046,-0.496518,-18.820815
11.185,2.0,1.0,1.0,34.1,33.4,33.4,2.1,3.3,2.7875,-0.4543205313437367,-0.07421291539948288,0.8260829842690343,-0.0913172477215781,-0.511861,-18.586632
11.185,2.0,1.0,1.0,34.1,33.4,33.4,2.1,3.3,2.79,-0.47049332731205756,-0.07422913465647119,0.8149663141312904,-0.0954601419649748,-0.527947,-18.349753
11.185,2.0,1.0,1.0,34.1,33.4,33.4,2.1,3.3,2.7925,-0.4866042687415734,-0.07414398218279294,0.8033149160747874,-0.0997740193921483,-0.544829,-18.110101
11.185,2.0,1.0,1.0,34.1,33.4,33.4,2.1,3.3,2.795,-0.5026361610758011,-0.07394715649461893,0.7911139057034572,-0.10426588632942273,-0.562561,-17.867597
11.185,2.0,1.0,1.0,34.1,33.4,33.4,2.1,3.3,2.7975,-0.5185704625387964,-0.07362738667798775,0.7783481228912127,-0.10894297376350931,-0.581205,-17.62216
11.185,2.0,1.0,1.0,34.1,33.4,33.4,2.1,3.3,2.8,-0.5343871714272743,-0.0731723334246873,0.7650021492999104,-0.1138127273295471,-0.600826,-17.373703
11.185,2.0,1.0,1.0,34.1,33.4,33.4,2.1,3.3,2.8025,-0.550064701890632,-0.07256847890477283,0.7510603313222923,-0.11888279240532834,-0.621498,-17.122139
11.185,2.0,1.0,1.0,34.1,33.4,33.4,2.1,3.3,2.805,-0.5655797468459247,-0.0718010041391255,0.7365068096527969,-0.12416099312519387,-0.643302,-16.867375
11.185,2.0,1.0,1.0,34.1,33.4,33.4,2.1,3.3,2.8075,-0.5809071265172611,-0.07085365238208483,0.7213255569549558,-0.12965530386173457,-0.666324,-16.609316
11.185,2.0,1.0,1.0,34.1,33.4,33.4,2.1,3.3,2.81,-0.5960196209189211,-0.06970857685917801,0.7055004254196349,-0.13537381139884253,-0.690661,-16.347863
11.185,2.0,1.0,1.0,34.1,33.4,33.4,2.1,3.3,2.8125,-0.610887784420548,-0.06834617103028746,0.6890152064071476,-0.14132466562246793,-0.716421,-16.082913
11.185,2.0,1.0,1.0,34.1,33.4,33.4,2.1,3.3,2.815,-0.6254797403446086,-0.06674487936777397,0.6718537048546914,-0.14751601606938117,-0.743722,-15.81436
11.185,2.0,1.0,1.0,34.1,33.4,33.4,2.1,3.3,2.8175,-0.6397609533563099,-0.06488098645798611,0.6539998317290336,-0.1539559310793356,-0.772694,-15.542095
11.185,2.0,1.0,1.0,34.1,33.4,33.4,2.1,3.3,2.82,-0.653693977223655,-0.06272838206237373,0.6354377185374289,-0.16065229556805924,-0.803483,-15.266005
11.185,2.0,1.0,1.0,34.1,33.4,33.4,2.1,3.3,2.8225,-0.6672381753636196,-0.060258299624883355,0.6161518588073863,-0.16761268254806497,-0.836251,-14.985974
11.185,2.0,1.0,1.0,34.1,33.4,33.4,2.1,3.3,2.825,-0.6803494114699342,-0.0574390256057537,0.5961272825441486,-0.17484419243586113,-0.871177,-14.701882
11.185,2.0,1.0,1.0,34.1,33.4,33.4,2.1,3.3,2.8275,-0.6929797074678261,-0.054235576987603756,0.5753497710170397,-0.18235325285529458,-0.908462,-14.413609
