1,w,sub_t,h,l1,l2,l3,g1,g2,Freq,S11_re,S21_re,S11_img,S21_img,S11_dB,S21_dB
11.185,2.0,1.0,1.0,34.0,34.5,34.5,2.0,4.0,2.5,0.776204084190328,-0.0117216201878654,0.617795954477414,0.00719694746135188,-0.069323,-37.230962
11.185,2.0,1.0,1.0,34.0,34.5,34.5,2.0,4.0,2.5025,0.7714793427644929,-0.011959377842982429,0.6235386935522167,0.007207625408149759,-0.070133,-37.100175
11.185,2.0,1.0,1.0,34.0,34.5,34.5,2.0,4.0,2.505,0.7666858767093252,-0.01220187771175174,0.6292742918240283,0.007216555990034126,-0.070961,-36.968807
11.185,2.0,1.0,1.0,34.0,34.5,34.5,2.0,4.0,2.5075,0.7618228841431663,-0.01244923290230504,0.6350022670986949,0.00722366009253589,-0.071806,-36.836843
11.185,2.0,1.0,1.0,34.0,34.5,34.5,2.0,4.0,2.51,0.7568895489686011,-0.012701559907707482,0.6407221213013767,0.007228855144366289,-0.072669,-36.704273
11.185,2.0,1.0,1.0,34.0,34.5,34.5,2.0,4.0,2.5125,0.7518850405904568,-0.012958978727514598,0.6464333399062019,0.0072320549487912,-0.07355,-36.571082
11.185,2.0,1.0,1.0,34.0,34.5,34.5,2.0,4.0,2.515,0.746808513627417,-0.013221612994418578,0.6521353913432147,0.00723316950568357,-0.074449,-36.437259
11.185,2.0,1.0,1.0,34.0,34.5,34.5,2.0,4.0,2.5175,0.7416591076170851,-0.013489590106225333,0.6578277263815353,0.007232104823667684,-0.075368,-36.302789
11.185,2.0,1.0,1.0,34.0,34.5,34.5,2.0,4.0,2.52,0.7364359467142998,-0.013763041363416967,0.6635097774876322,0.00722876272172982,-0.076307,-36.167659
11.185,2.0,1.0,1.0,34.0,34.5,34.5,2.0,4.0,2.5225,0.7311381393825256,-0.014042102112566119,0.6691809581574691,0.007223040619622785,-0.077266,-36.031855
11.185,2.0,1.0,1.0,34.0,34.5,34.5,2.0,4.0,2.525,0.7257647780781105,-0.014326911895884238,0.6748406622213122,0.007214831316345664,-0.078246,-35.895363
11.185,2.0,1.0,1.0,34.0,34.5,34.5,2.0,4.0,2.5275,0.7203149389271966,-0.014617614607199184,0.6804882631198299,0.007204022755926111,-0.079248,-35.758167
11.185,2.0,1.0,1.0,34.0,34.5,34.5,2.0,4.0,2.53,0.7147876813950922,-0.014914358654673098,0.6861231131500829,0.007190497779677489,-0.080272,-35.620254
11.185,2.0,1.0,1.0,34.0,34.5,34.5,2.0,4.0,2.5325,0.709182047947859,-0.015217297130588147,0.6917445426798969,0.007174133864041197,-0.08132,-35.481609
11.185,2.0,1.0,1.0,34.0,34.5,34.5,2.0,4.0,2.535,0.7034970637058922,-0.01552658798854433,0.6973518593290401,0.007154802843059024,-0.08239,-35.342215
11.185,2.0,1.0,1.0,34.0,34.5,34.5,2.0,4.0,2.5375,0.6977317360892599,-0.01584239422843138,0.7029443471154952,0.007132370614448344,-0.083486,-35.202057
11.185,2.0,1.0,1.0,34.0,34.5,34.5,2.0,4.0,2.54,0.691885054454539,-0.016164884089555367,0.708521265565051,0.0071066968281760816,-0.084606,-35.061119
11.185,2.0,1.0,1.0,34.0,34.5,34.5,2.0,4.0,2.5425,0.6859559897228933,-0.016494231252321048,0.7140818487822975,0.007077634556342166,-0.085752,-34.919384
11.185,2.0,1.0,1.0,34.0,34.5,34.5,2.0,4.0,2.545,0.6799434939991243,-0.016830615048890482,0.7196253044809944,0.0070450299430938,-0.086925,-34.776835
11.185,2.0,1.0,1.0,34.0,34.5,34.5,2.0,4.0,2.5475,0.6738465001814171,-0.01717422068326025,0.7251508129716554,0.007008721833190233,-0.088126,-34.633456
11.185,2.0,1.0,1.0,34.0,34.5,34.5,2.0,4.0,2.55,0.6676639215614747,-0.017525239461223505,0.7306575261040531,0.0069685413777325084,-0.089355,-34.489227
11.185,2.0,1.0,1.0,34.0,34.5,34.5,2.0,4.0,2.5525,0.6613946514147624,-0.01788386903070362,0.7361445661621747,0.006924311615453966,-0.090613,-34.344132
11.185,2.0,1.0,1.0,34.0,34.5,34.5,2.0,4.0,2.555,0.6550375625805265,-0.01825031363297436,0.7416110247090352,0.006875847027840645,-0.091902,-34.198152
11.185,2.0,1.0,1.0,34.0,34.5,34.5,2.0,4.0,2.5575,0.6485915070312664,-0.01862478436530412,0.7470559613785324,0.006822953066211827,-0.093222,-34.051267
11.185,2.0,1.0,1.0,34.0,34.5,34.5,2.0,4.0,2.56,0.6420553154313272,-0.019007499455589605,0.7524784026113692,0.00676542564873936,-0.094575,-33.903458
11.185,2.0,1.0,1.0,34.0,34.5,34.5,2.0,4.0,2.5625,0.635427796684261,-0.0193986845495714,0.757877340331846,0.00670305062522052,-0.095961,-33.754706
11.185,2.0,1.0,1.0,34.0,34.5,34.5,2.0,4.0,2.565,0.6287077374685831,-0.01979857301125295,0.7632517305621038,0.006635603207238649,-0.097381,-33.604988
11.185,2.0,1.0,1.0,34.0,34.5,34.5,2.0,4.0,2.5675,0.6218939017615684,-0.020207406237171925,0.7686004919701513,0.006562847361149311,-0.098838,-33.454286
11.185,2.0,1.0,1.0,34.0,34.5,34.5,2.0,4.0,2.57,0.6149850303506831,-0.02062543398520492,0.7739225043477564,0.006484535161115686,-0.100332,-33.302577
11.185,2.0,1.0,1.0,34.0,34.5,34.5,2.0,4.0,2.5725,0.6079798403322627,-0.02105291471861598,0.7792166070139784,0.006400406099181533,-0.101863,-33.149838
11.185,2.0,1.0,1.0,34.0,34.5,34.5,2.0,4.0,2.575,0.6008770245970222,-0.02149011596609035,0.7844815971398165,0.006310186349113469,-0.103435,-32.996048
11.185,2.0,1.0,1.0,34.0,34.5,34.5,2.0,4.0,2.5775,0.5936752513019872,-0.02193731469852661,0.7897162279891047,0.006213587980462781,-0.105048,-32.841182
11.185,2.0,1.0,1.0,34.0,34.5,34.5,2.0,4.0,2.58,0.5863731633284126,-0.022394797723391258,0.7949192070704116,0.006110308118988589,-0.106703,-32.685218
11.185,2.0,1.0,1.0,34.0,34.5,34.5,2.0,4.0,2.5825,0.5789693777252528,-0.022862862097471685,0.8000891941942998,0.006000028049245028,-0.108403,-32.528129
11.185,2.0,1.0,1.0,34.0,34.5,34.5,2.0,4.0,2.585,0.5714624851377499,-0.023341815558892604,0.8052247994298626,0.005882412254764223,-0.110148,-32.369892
11.185,2.0,1.0,1.0,34.0,34.5,34.5,2.0,4.0,2.5875,0.5638510492206883,-0.02383197697929154,0.8103245809539621,0.0057571073908575165,-0.111941,-32.210479
11.185,2.0,1.0,1.0,34.0,34.5,34.5,2.0,4.0,2.59,0.5561336060358864,-0.024333676837074828,0.8153870427860763,0.005623741184608768,-0.113783,-32.049865
11.185,2.0,1.0,1.0,34.0,34.5,34.5,2.0,4.0,2.5925,0.5483086634334712,-0.02484725771270275,0.8204106324010777,0.005481921256137547,-0.115677,-31.88802
11.185,2.0,1.0,1.0,34.0,34.5,34.5,2.0,4.0,2.595,0.540374700416537,-0.02537307480697106,0.8253937382116254,0.005331233854666683,-0.117624,-31.724918
11.185,2.0,1.0,1.0,34.0,34.5,34.5,2.0,4.0,2.5975,0.532330166488745,-0.025911496483277095,0.830334686911182,0.005171242502325136,-0.119626,-31.560529
11.185,2.0,1.0,1.0,34.0,34.5,34.5,2.0,4.0,2.6,0.5241734809844989,-0.026462904834866813,0.8352317406678679,0.005001486537956041,-0.121685,-31.394822
11.185,2.0,1.0,1.0,34.0,34.5,34.5,2.0,4.0,2.6025,0.5159030323813445,-0.027027696278065876,0.8400830941585518,0.004821479552463586,-0.123804,-31.227767
11.185,2.0,1.0,1.0,34.0,34.5,34.5,2.0,4.0,2.605,0.5075171775942685,-0.027606282172492464,0.8448868714316401,0.004630707706424203,-0.125985,-31.059331
11.185,2.0,1.0,1.0,34.0,34.5,34.5,2.0,4.0,2.6075,0.49901424125166094,-0.0281990894692342,0.8496411225860087,0.004428627919787206,-0.128232,-30.889482
11.185,2.0,1.0,1.0,34.0,34.5,34.5,2.0,4.0,2.61,0.49039251495276026,-0.028806561387941576,0.8543438202523955,0.004214665922497345,-0.130545,-30.718186
11.185,2.0,1.0,1.0,34.0,34.5,34.5,2.0,4.0,2.6125,0.4816502565065001,-0.029429158123744338,0.8589928558623317,0.00398821415376676,-0.132929,-30.545407
11.185,2.0,1.0,1.0,34.0,34.5,34.5,2.0,4.0,2.615,0.47278568915178554,-0.030067357584830742,0.8635860356883185,0.0037486294964998086,-0.135386,-30.371109
11.185,2.0,1.0,1.0,34.0,34.5,34.5,2.0,4.0,2.6175,0.46379700075939617,-0.030721656161435757,0.8681210766374216,0.0034952308320121313,-0.137919,-30.195254
11.185,2.0,1.0,1.0,34.0,34.5,34.5,2.0,4.0,2.62,0.45468234301586746,-0.031392569526862944,0.8725956017787864,0.0032272963986712307,-0.140533,-30.017804
11.185,2.0,1.0,1.0,34.0,34.5,34.5,2.0,4.0,2.6225,0.44543983058993275,-0.0320806334710046,0.8770071355836973,0.002944060936398178,-0.143229,-29.838719
11.185,2.0,1.0,1.0,34.0,34.5,34.5,2.0,4.0,2.625,0.436067540282395,-0.0327864047666185,0.881353098854718,0.00264471259709081,-0.146013,-29.657957
11.185,2.0,1.0,1.0,34.0,34.5,34.5,2.0,4.0,2.6275,0.42656351016059196,-0.03351046206836453,0.8856308033181602,0.0023283895989282695,-0.148888,-29.475475
11.185,2.0,1.0,1.0,34.0,34.5,34.5,2.0,4.0,2.63,0.4169257386790452,-0.03425340684427685,0.8898374458515311,0.0019941766001733982,-0.151858,-29.29123
11.185,2.0,1.0,1.0,34.0,34.5,34.5,2.0,4.0,2.6325,0.40715218378835616,-0.035015864338948904,0.8939701023147497,0.001641100765465515,-0.154927,-29.105174
11.185,2.0,1.0,1.0,34.0,34.5,34.5,2.0,4.0,2.635,0.3972407620349866,-0.0357984845672105,0.8980257209507151,0.001268127494660414,-0.158102,-28.917261
11.185,2.0,1.0,1.0,34.0,34.5,34.5,2.0,4.0,2.6375,0.3871893476552853,-0.036601943336467956,0.9020011153172315,0.0008741557809813487,-0.161385,-28.727441
11.185,2.0,1.0,1.0,34.0,34.5,34.5,2.0,4.0,2.64,0.37699577166792264,-0.03742694329513532,0.905892956708287,0.00045801316155062,-0.164784,-28.535662
11.185,2.0,1.0,1.0,34.0,34.5,34.5,2.0,4.0,2.6425,0.3666578209699646,-0.03827421500367316,0.9096977660181762,1.8450219220144853e-05,-0.168304,-28.341873
11.185,2.0,1.0,1.0,34.0,34.5,34.5,2.0,4.0,2.645,0.35617323744299323,-0.03914451802365055,0.9134119049969524,-0.0004458654100508158,-0.17195,-28.146018
11.185,2.0,1.0,1.0,34.0,34.5,34.5,2.0,4.0,2.6475,0.34553971707717535,-0.04003864201890336,0.917031566839991,-0.0009363555752797699,-0.175729,-27.948039
11.185,2.0,1.0,1.0,34.0,34.5,34.5,2.0,4.0,2.65,0.33475490912290434,-0.04095740786124125,0.9205527660481183,-0.0014545387509492277,-0.179649,-27.747877
11.185,2.0,1.0,1.0,34.0,34.5,34.5,2.0,4.0,2.6525,0.3238164152818158,-0.041901668731185955,0.9239713274875649,-0.0020020378435297755,-0.183716,-27.545471
11.185,2.0,1.0,1.0,34.0,34.5,34.5,2.0,4.0,2.655,0.31272178895143266,-0.04287231120185329,0.9272828745709346,-0.002580588735240211,-0.187939,-27.340755
11.185,2.0,1.0,1.0,34.0,34.5,34.5,2.0,4.0,2.6575,0.3014685345408096,-0.04387025629121628,0.9304828164712283,-0.003192049644803618,-0.192326,-27.133665
11.185,2.0,1.0,1.0,34.0,34.5,34.5,2.0,4.0,2.66,0.290054106878172,-0.044896460464520796,0.933566334270673,-0.003838411394660818,-0.196886,-26.924129
11.185,2.0,1.0,1.0,34.0,34.5,34.5,2.0,4.0,2.6625,0.27847591073596606,-0.04595191656443416,0.9365283659343886,-0.004521808685102882,-0.20163,-26.712076
11.185,2.0,1.0,1.0,34.0,34.5,34.5,2.0,4.0,2.665,0.26673130050399496,-0.04703765464145051,0.939363589985708,-0.005244532488282358,-0.206567,-26.49743
11.185,2.0,1.0,1.0,34.0,34.5,34.5,2.0,4.0,2.6675,0.25481758004775285,-0.048154742650957164,0.9420664077449198,-0.006009043689267506,-0.21171,-26.280113
11.185,2.0,1.0,1.0,34.0,34.5,34.5,2.0,4.0,2.67,0.24273200279667242,-0.04930428697597885,0.9446309239761266,-0.006817988117480772,-0.21707,-26.060043
11.185,2.0,1.0,1.0,34.0,34.5,34.5,2.0,4.0,2.6725,0.23047177211632033,-0.050487432725672195,0.9470509257674888,-0.007674213130294928,-0.22266,-25.837133
11.185,2.0,1.0,1.0,34.0,34.5,34.5,2.0,4.0,2.675,0.2180340420297391,-0.051705363748815646,0.9493198594479768,-0.008580785931590871,-0.228496,-25.611296
11.185,2.0,1.0,1.0,34.0,34.5,34.5,2.0,4.0,2.6775,0.2054159183666547,-0.05295930228842513,0.9514308053185128,-0.009541013832108999,-0.234592,-25.382436
11.185,2.0,1.0,1.0,34.0,34.5,34.5,2.0,4.0,2.68,0.19261446043563182,-0.05425050818770985,0.9533764499465677,-0.010558466685892668,-0.240965,-25.150458
11.185,2.0,1.0,1.0,34.0,34.5,34.5,2.0,4.0,2.6825,0.1796266833341226,-0.05558027753825554,0.9551490557403249,-0.01163700176856587,-0.247633,-24.915259
11.185,2.0,1.0,1.0,34.0,34.5,34.5,2.0,4.0,2.685,0.1664495610354091,-0.05694994063782347,0.9567404274808463,-0.012780791399209858,-0.254617,-24.676732
11.185,2.0,1.0,1.0,34.0,34.5,34.5,2.0,4.0,2.6875,0.153080030420756,-0.0583608590965294,0.958141875447492,-0.0139943536489047,-0.261938,-24.434766
11.185,2.0,1.0,1.0,34.0,34.5,34.5,2.0,4.0,2.69,0.13951499646076426,-0.05981442189525974,0.9593441747224143,-0.015282586526393855,-0.269619,-24.189243
11.185,2.0,1.0,1.0,34.0,34.5,34.5,2.0,4.0,2.6925,0.12575133879341635,-0.06131204015754138,0.9603375202031778,-0.016650806085747004,-0.277687,-23.940041
11.185,2.0,1.0,1.0,34.0,34.5,34.5,2.0,4.0,2.695,0.11178591999957635,-0.0628551403438896,0.9611114767874898,-0.018104788963389483,-0.286168,-23.687032
11.185,2.0,1.0,1.0,34.0,34.5,34.5,2.0,4.0,2.6975,0.09761559594179722,-0.06444515551369083,0.961654924119311,-0.019650819923679702,-0.295095,-23.43008
11.185,2.0,1.0,1.0,34.0,34.5,34.5,2.0,4.0,2.7,0.08323722861236287,-0.06608351422108093,0.9619559951998391,-0.02129574507470033,-0.3045,-23.169043
11.185,2.0,1.0,1.0,34.0,34.5,34.5,2.0,4.0,2.7025,0.06864770203477485,-0.06777162651457078,0.962002008068465,-0.023047031510673333,-0.314422,-22.903774
11.185,2.0,1.0,1.0,34.0,34.5,34.5,2.0,4.0,2.705,0.05384394188418588,-0.06951086639087584,0.9617793896459302,-0.02491283424612202,-0.3249,-22.634115
11.185,2.0,1.0,1.0,34.0,34.5,34.5,2.0,4.0,2.7075,0.03882293964198726,-0.07130254990597597,0.9612735907026254,-0.02690207143151315,-0.335982,-22.359902
11.185,2.0,1.0,1.0,34.0,34.5,34.5,2.0,4.0,2.71,0.023581782285174598,-0.07314790796379379,0.9604689907671419,-0.029024508982655933,-0.347716,-22.080962
11.185,2.0,1.0,1.0,34.0,34.5,34.5,2.0,4.0,2.7125,0.00811768874114384,-0.07504805257613939,0.959348791621567,-0.03129085591876719,-0.360158,-21.797113
11.185,2.0,1.0,1.0,34.0,34.5,34.5,2.0,4.0,2.715,-0.007571945375242527,-0.07700393510538515,0.9578948978383888,-0.03371287188893931,-0.373371,-21.508163
11.185,2.0,1.0,1.0,34.0,34.5,34.5,2.0,4.0,2.7175,-0.023489492868672617,-0.07901629464936043,0.9560877825971851,-0.036303488575732935,-0.387424,-21.21391
11.185,2.0,1.0,1.0,34.0,34.5,34.5,2.0,4.0,2.72,-0.03963702759481185,-0.08108559428783178,0.9539063367759563,-0.039076946899190224,-0.402393,-20.914141
11.185,2.0,1.0,1.0,34.0,34.5,34.5,2.0,4.0,2.7225,-0.05601624173765107,-0.08321194235831048,0.9513276990412585,-0.04204895220530525,-0.418366,-20.608632
11.185,2.0,1.0,1.0,34.0,34.5,34.5,2.0,4.0,2.725,-0.0726283441522409,-0.08539499523584079,0.9483270643642437,-0.04523684990875793,-0.435438,-20.297146
11.185,2.0,1.0,1.0,34.0,34.5,34.5,2.0,4.0,2.7275,-0.08947393530855179,-0.08763383721861763,0.9448774680698054,-0.048659824366814486,-0.453721,-19.979434
11.185,2.0,1.0,1.0,34.0,34.5,34.5,2.0,4.0,2.73,-0.1065528532566919,-0.08992683201955778,0.9409495421912568,-0.052339124081545195,-0.473337,-19.655232
11.185,2.0,1.0,1.0,34.0,34.5,34.5,2.0,4.0,2.7325,-0.12386398362304822,-0.09227143897033027,0.9365112405679754,-0.05629831664615192,-0.494426,-19.324263
11.185,2.0,1.0,1.0,34.0,34.5,34.5,2.0,4.0,2.735,-0.14140502485888815,-0.09466398527788007,0.9315275288133916,-0.06056357714286727,-0.517147,-18.986236
11.185,2.0,1.0,1.0,34.0,34.5,34.5,2.0,4.0,2.7375,-0.15917219769286084,-0.0970993834304829,0.9259600350366707,-0.06516401392345841,-0.541683,-18.640841
11.185,2.0,1.0,1.0,34.0,34.5,34.5,2.0,4.0,2.74,-0.1771598848521284,-0.0995707799980924,0.9197666570888471,-0.07013203579346425,-0.56824,-18.287756
11.185,2.0,1.0,1.0,34.0,34.5,34.5,2.0,4.0,2.7425,-0.19536018344237344,-0.1020691184409974,0.9129011222248039,-0.07550376447635337,-0.597057,-17.92664
11.185,2.0,1.0,1.0,34.0,34.5,34.5,2.0,4.0,2.745,-0.2137623476972197,-0.1045825939170481,0.9053124955830641,-0.08131949569772176,-0.628408,-17.557135
11.185,2.0,1.0,1.0,34.0,34.5,34.5,2.0,4.0,2.7475,-0.23235209384968344,-0.10709597219141793,0.8969446350243266,-0.08762421106513432,-0.662611,-17.178868
11.185,2.0,1.0,1.0,34.0,34.5,34.5,2.0,4.0,2.75,-0.251110731303291,-0.109589737269884,0.887735591997652,-0.094468140767772,-0.700036,-16.791449
11.185,2.0,1.0,1.0,34.0,34.5,34.5,2.0,4.0,2.7525,-0.270014074676744,-0.1120390228912191,0.8776169617619212,-0.10190737344339727,-0.741111,-16.394472
11.185,2.0,1.0,1.0,34.0,34.5,34.5,2.0,4.0,2.755,-0.2890310791792195,-0.1144122710497233,0.8665131922899526,-0.11000450355389381,-0.78634,-15.987519
11.185,2.0,1.0,1.0,34.0,34.5,34.5,2.0,4.0,2.7575,-0.3081221266039043,-0.11666954574494627,0.8543408707290913,-0.11882929707842389,-0.836316,-15.570159
11.185,2.0,1.0,1.0,34.0,34.5,34.5,2.0,4.0,2.76,-0.32723687046212896,-0.11876041164073774,0.8410080211704094,-0.1284593415046473,-0.891737,-15.141957
11.185,2.0,1.0,1.0,34.0,34.5,34.5,2.0,4.0,2.7625,-0.3463115259926631,-0.12062126484587375,0.8264134703151893,-0.13898062337022188,-0.953435,-14.702476
11.185,2.0,1.0,1.0,34.0,34.5,34.5,2.0,4.0,2.765,-0.3652654639011538,-0.12217197654829848,0.8104463722548066,-0.15048794218181397,-1.022398,-14.251286
11.185,2.0,1.0,1.0,34.0,34.5,34.5,2.0,4.0,2.7675,-0.38399693646695976,-0.12331168050924265,0.7929860355273838,-0.16308501794242045,-1.099813,-13.787978
11.185,2.0,1.0,1.0,34.0,34.5,34.5,2.0,4.0,2.77,-0.40237773352600276,-0.12391350488227303,0.7739022727266839,-0.17688407298626496,-1.187109,-13.312179
11.185,2.0,1.0,1.0,34.0,34.5,34.5,2.0,4.0,2.7725,-0.4202465394113281,-0.123818023060764,0.7530566060734426,-0.1920045566161169,-1.286014,-12.823573
11.185,2.0,1.0,1.0,34.0,34.5,34.5,2.0,4.0,2.775,-0.4374007516079521,-0.12282518861406905,0.7303048259671728,-0.20857051888223993,-1.39863,-12.321936
11.185,2.0,1.0,1.0,34.0,34.5,34.5,2.0,4.0,2.7775,-0.45358654916966584,-0.12068454721658761,0.705501631619653,-0.22670590997071816,-1.527524,-11.807172
11.185,2.0,1.0,1.0,34.0,34.5,34.5,2.0,4.0,2.78,-0.4684871023752333,-0.1170836220251993,0.6785084031705667,-0.24652676464816045,-1.675845,-11.279369
11.185,2.0,1.0,1.0,34.0,34.5,34.5,2.0,4.0,2.7825,-0.48170906049878187,-0.11163461347355529,0.6492055787080115,-0.26812881188503324,-1.847468,-10.738874
11.185,2.0,1.0,1.0,34.0,34.5,34.5,2.0,4.0,2.785,-0.49276794888310643,-0.10386004584982761,0.6175116339219705,-0.29156853189073123,-2.047174,-10.186385
11.185,2.0,1.0,1.0,34.0,34.5,34.5,2.0,4.0,2.7875,-0.5010740124765287,-0.09317889233578282,0.5834112328750632,-0.31683512016516396,-2.280865,-9.623074
11.185,2.0,1.0,1.0,34.0,34.5,34.5,2.0,4.0,2.79,-0.505921584623552,-0.07889623876715961,0.5469955710811555,-0.34381037443163576,-2.555812,-9.050742
11.185,2.0,1.0,1.0,34.0,34.5,34.5,2.0,4.0,2.7925,-0.5064874920486179,-0.06020195549363728,0.508517889001101,-0.37221357038786956,-2.880916,-8.472005
11.185,2.0,1.0,1.0,34.0,34.5,34.5,2.0,4.0,2.795,-0.5018474916451587,-0.03618729455502814,0.4684658581382429,-0.40152966661868367,-3.266923,-7.890515
11.185,2.0,1.0,1.0,34.0,34.5,34.5,2.0,4.0,2.7975,-0.4910240239974695,-0.005892566630571006,0.42764879776754333,-0.43092290056739824,-3.726463,-7.311197
11.185,2.0,1.0,1.0,34.0,34.5,34.5,2.0,4.0,2.8,-0.4730823762021352,0.03159720032616588,0.38728978866465996,-0.4591456654553633,-4.273603,-6.740471
11.185,2.0,1.0,1.0,34.0,34.5,34.5,2.0,4.0,2.8025,-0.44729241813473875,0.07699168886008238,0.34909927292121384,-0.48446590683714025,-4.92224,-6.186413
11.185,2.0,1.0,1.0,34.0,34.5,34.5,2.0,4.0,2.805,-0.4133634984555492,0.13056241613927042,0.31528846582771936,-0.5046543368761356,-5.681922,-5.658743
11.185,2.0,1.0,1.0,34.0,34.5,34.5,2.0,4.0,2.8075,-0.3717335218385328,0.19185652513828794,0.28846453117425164,-0.5170889016144309,-6.548271,-5.168553
11.185,2.0,1.0,1.0,34.0,34.5,34.5,2.0,4.0,2.81,-0.32384688427574215,0.25942211105960705,0.2713509641329577,-0.5190323167973637,-7.48342,-4.727641
11.185,2.0,1.0,1.0,34.0,34.5,34.5,2.0,4.0,2.8125,-0.272303215677625,0.33066204988296,0.266318123015865,-0.508097226149974,-8.384093,-4.347424
11.185,2.0,1.0,1.0,34.0,34.5,34.5,2.0,4.0,2.815,-0.22073838406889681,0.40195331911759125,0.27480028887423474,-0.48282290659547544,-9.057363,-4.0375
11.185,2.0,1.0,1.0,34.0,34.5,34.5,2.0,4.0,2.8175,-0.17336016597031925,0.4691081009799316,0.2967849002113988,-0.4431793977819384,-9.276213,-3.804159
11.185,2.0,1.0,1.0,34.0,34.5,34.5,2.0,4.0,2.82,-0.13421255224072234,0.528102694585176,0.3306052391778203,-0.39077018910153954,-8.951278,-3.649248
11.185,2.0,1.0,1.0,34.0,34.5,34.5,2.0,4.0,2.8225,-0.1064069653310536,0.5758377850153599,0.37317603623175566,-0.32859602383951636,-8.222246,-3.569774
11.185,2.0,1.0,1.0,34.0,34.5,34.5,2.0,4.0,2.825,-0.09160768222163762,0.6106456610466202,0.42060822201653775,-0.26044383910556423,-7.32117,-3.558381
11.185,2.0,1.0,1.0,34.0,34.5,34.5,2.0,4.0,2.8275,-0.08993687886470376,0.632381222597679,0.46896062909052916,-0.19014123999542007,-6.420409,-3.60454
11.185,2.0,1.0,1.0,34.0,34.5,34.5,2.0,4.0,2.83,-0.10025909218970351,0.6421373766510752,0.5148582684241317,-0.12094421178308074,-5.604606,-3.696048
