1,w,sub_t,h,l1,l2,l3,g1,g2,Freq,S11_re,S21_re,S11_img,S21_img,S11_dB,S21_dB
11.185,2.0,1.0,1.0,34.6,33.9,33.9,4.4,3.3,2.5,0.688530410909511,-0.00889891956239704,0.714730064579137,0.00269067996829598,-0.06602,-40.633328
11.185,2.0,1.0,1.0,34.6,33.9,33.9,4.4,3.3,2.5025,0.6826816861430031,-0.009040145744533165,0.7202129645331997,0.00264503162965429,-0.066692,-40.519764
11.185,2.0,1.0,1.0,34.6,33.9,33.9,4.4,3.3,2.505,0.6767581708287977,-0.009183199707940055,0.7256753067708475,0.0025972796753025934,-0.067374,-40.405912
11.185,2.0,1.0,1.0,34.6,33.9,33.9,4.4,3.3,2.5075,0.6707591879514598,-0.009328100647177366,0.7311163193804439,0.0025473637262252496,-0.068068,-40.291767
11.185,2.0,1.0,1.0,34.6,33.9,33.9,4.4,3.3,2.51,0.6646840554550534,-0.009474867743505894,0.7365352099835762,0.002495221634810498,-0.068774,-40.177322
11.185,2.0,1.0,1.0,34.6,33.9,33.9,4.4,3.3,2.5125,0.6585320863837814,-0.009623520149695171,0.7419311652003873,0.0024407894285745943,-0.069491,-40.06257
11.185,2.0,1.0,1.0,34.6,33.9,33.9,4.4,3.3,2.515,0.6523025890340942,-0.009774076973864666,0.7473033501022613,0.0023840012519150845,-0.070221,-39.947506
11.185,2.0,1.0,1.0,34.6,33.9,33.9,4.4,3.3,2.5175,0.6459948671188441,-0.009926557262307784,0.7526509076516261,0.0023247893058143485,-0.070964,-39.832123
11.185,2.0,1.0,1.0,34.6,33.9,33.9,4.4,3.3,2.52,0.6396082199440442,-0.010080979981246047,0.7579729581286735,0.002263083785410347,-0.071719,-39.716415
11.185,2.0,1.0,1.0,34.6,33.9,33.9,4.4,3.3,2.5225,0.6331419425988662,-0.010237363997457146,0.7632685985447497,0.0021988128153479646,-0.072487,-39.600373
11.185,2.0,1.0,1.0,34.6,33.9,33.9,4.4,3.3,2.525,0.6265953261594851,-0.010395728057718724,0.768536902042228,0.002131902382819494,-0.073269,-39.483992
11.185,2.0,1.0,1.0,34.6,33.9,33.9,4.4,3.3,2.5275,0.6199676579074329,-0.01055609076700628,0.7737769172806361,0.002062276268198664,-0.074065,-39.367266
11.185,2.0,1.0,1.0,34.6,33.9,33.9,4.4,3.3,2.53,0.6132582215631522,-0.010718470565380049,0.7789876678088299,0.001989855973167302,-0.074874,-39.250186
11.185,2.0,1.0,1.0,34.6,33.9,33.9,4.4,3.3,2.5325,0.6064662975354516,-0.010882885703493043,0.7841681514230077,0.0019145606462288632,-0.075697,-39.132746
11.185,2.0,1.0,1.0,34.6,33.9,33.9,4.4,3.3,2.535,0.5995911631875994,-0.011049354216648514,0.7893173395103715,0.0018363070054974594,-0.076536,-39.014938
11.185,2.0,1.0,1.0,34.6,33.9,33.9,4.4,3.3,2.5375,0.5926320931208352,-0.01121789389733116,0.7944341763782233,0.0017550092586448352,-0.077389,-38.896757
11.185,2.0,1.0,1.0,34.6,33.9,33.9,4.4,3.3,2.54,0.5855883594760847,-0.01138852226613328,0.799517578568323,0.0016705790198820415,-0.078257,-38.778193
11.185,2.0,1.0,1.0,34.6,33.9,33.9,4.4,3.3,2.5425,0.5784592322547099,-0.011561256540991407,0.8045664341563156,0.0015829252238448782,-0.079141,-38.65924
11.185,2.0,1.0,1.0,34.6,33.9,33.9,4.4,3.3,2.545,0.5712439796591569,-0.01173611360464652,0.809579602036052,0.0014919540362461647,-0.08004,-38.53989
11.185,2.0,1.0,1.0,34.6,33.9,33.9,4.4,3.3,2.5475,0.5639418684544006,-0.011913109970233857,0.8145559111886359,0.0013975687611493467,-0.080956,-38.420135
11.185,2.0,1.0,1.0,34.6,33.9,33.9,4.4,3.3,2.55,0.5565521643510958,-0.012092261744905889,0.8194941599360405,0.0012996697447097993,-0.081889,-38.299968
11.185,2.0,1.0,1.0,34.6,33.9,33.9,4.4,3.3,2.5525,0.5490741324114267,-0.012273584591384232,0.8243931151791372,0.0011981542752220681,-0.082839,-38.17938
11.185,2.0,1.0,1.0,34.6,33.9,33.9,4.4,3.3,2.555,0.5415070374786246,-0.012457093687332811,0.8292515116200038,0.0010929164793009947,-0.083806,-38.058364
11.185,2.0,1.0,1.0,34.6,33.9,33.9,4.4,3.3,2.5575,0.5338501446312072,-0.012642803682437195,0.834068050968389,0.0009838472140149275,-0.084791,-37.936912
11.185,2.0,1.0,1.0,34.6,33.9,33.9,4.4,3.3,2.56,0.5261027196630104,-0.012830728653069052,0.838841401132201,0.0008708339547785212,-0.085794,-37.815014
11.185,2.0,1.0,1.0,34.6,33.9,33.9,4.4,3.3,2.5625,0.5182640295901253,-0.013020882054408133,0.8435701953919399,0.0007537606788007955,-0.086816,-37.692663
11.185,2.0,1.0,1.0,34.6,33.9,33.9,4.4,3.3,2.565,0.5103333431858892,-0.013213276669886791,0.8482530315589693,0.0006325077438710321,-0.087857,-37.569849
11.185,2.0,1.0,1.0,34.6,33.9,33.9,4.4,3.3,2.5675,0.5023099315451413,-0.013407924557814031,0.852888471117561,0.0005069517622529718,-0.088918,-37.446565
11.185,2.0,1.0,1.0,34.6,33.9,33.9,4.4,3.3,2.57,0.49419306867896173,-0.013604836995028322,0.8574750383506609,0.000376965469441345,-0.089999,-37.3228
11.185,2.0,1.0,1.0,34.6,33.9,33.9,4.4,3.3,2.5725,0.48598203214118996,-0.013804024417419476,0.862011219449332,0.00024241758752084294,-0.0911,-37.198546
11.185,2.0,1.0,1.0,34.6,33.9,33.9,4.4,3.3,2.575,0.4776761036880367,-0.01400549635714982,0.8664954616058583,0.00010317268284917587,-0.092223,-37.073794
11.185,2.0,1.0,1.0,34.6,33.9,33.9,4.4,3.3,2.5775,0.469274569972173,-0.014209261376396108,0.8709261720905085,-4.0908982230847854e-05,-0.093366,-36.948534
11.185,2.0,1.0,1.0,34.6,33.9,33.9,4.4,3.3,2.58,0.4607767232727079,-0.01441532699742084,0.8753017173119787,-0.00018997160396663285,-0.094532,-36.822756
11.185,2.0,1.0,1.0,34.6,33.9,33.9,4.4,3.3,2.5825,0.45218186226252,-0.014623699628772106,0.8796204218615586,-0.0003441639983949278,-0.095721,-36.69645
11.185,2.0,1.0,1.0,34.6,33.9,33.9,4.4,3.3,2.585,0.4434892928144655,-0.01483438448739658,0.8838805675410865,-0.0005036397695252466,-0.096933,-36.569606
11.185,2.0,1.0,1.0,34.6,33.9,33.9,4.4,3.3,2.5875,0.43469832884801485,-0.015047385516438291,0.8880803923747795,-0.000668557484892372,-0.098169,-36.442214
11.185,2.0,1.0,1.0,34.6,33.9,33.9,4.4,3.3,2.59,0.4258082932179532,-0.015262705298479883,0.8922180896050584,-0.0008390808588902758,-0.099429,-36.314264
11.185,2.0,1.0,1.0,34.6,33.9,33.9,4.4,3.3,2.5925,0.41681851864678937,-0.015480344963968365,0.8962918066724991,-0.0010153789443291823,-0.100714,-36.185743
11.185,2.0,1.0,1.0,34.6,33.9,33.9,4.4,3.3,2.595,0.40772834870262725,-0.015700304094549575,0.9002996441800808,-0.0011976263326887917,-0.102024,-36.056642
11.185,2.0,1.0,1.0,34.6,33.9,33.9,4.4,3.3,2.5975,0.3985371388242415,-0.01592258062101712,0.9042396548419241,-0.0013860033635765185,-0.103361,-35.926948
11.185,2.0,1.0,1.0,34.6,33.9,33.9,4.4,3.3,2.6,0.38924425739520824,-0.016147170715562535,0.90810984241674,-0.0015806963439358558,-0.104725,-35.796651
11.185,2.0,1.0,1.0,34.6,33.9,33.9,4.4,3.3,2.6025,0.37984908686898294,-0.016374068677989392,0.9119081606262408,-0.0017818977775918648,-0.106117,-35.665738
11.185,2.0,1.0,1.0,34.6,33.9,33.9,4.4,3.3,2.605,0.37035102494685596,-0.01660326681553315,0.9156325120587805,-0.0019898066057653465,-0.107537,-35.534197
11.185,2.0,1.0,1.0,34.6,33.9,33.9,4.4,3.3,2.6075,0.3607494858107994,-0.016834755315900188,0.9192807470585489,-0.002204628459235228,-0.108986,-35.402015
11.185,2.0,1.0,1.0,34.6,33.9,33.9,4.4,3.3,2.61,0.3510439014132708,-0.017068522113112872,0.922850662600638,-0.0024265759228819,-0.110465,-35.26918
11.185,2.0,1.0,1.0,34.6,33.9,33.9,4.4,3.3,2.6125,0.3412337228260983,-0.017304552745716264,0.9263400011523488,-0.002655868813402354,-0.111975,-35.135678
11.185,2.0,1.0,1.0,34.6,33.9,33.9,4.4,3.3,2.615,0.3313184216506218,-0.01754283020686796,0.9297464495211345,-0.002892734471050544,-0.113517,-35.001497
11.185,2.0,1.0,1.0,34.6,33.9,33.9,4.4,3.3,2.6175,0.32129749149136255,-0.01778333478579606,0.9330676376895852,-0.0031374080663250266,-0.115091,-34.866621
11.185,2.0,1.0,1.0,34.6,33.9,33.9,4.4,3.3,2.62,0.31117044949552536,-0.018026043900069743,0.9363011376379005,-0.0033901329226017577,-0.116699,-34.731037
11.185,2.0,1.0,1.0,34.6,33.9,33.9,4.4,3.3,2.6225,0.30093683796070586,-0.018270931918081962,0.939444462154312,-0.0036511608557920835,-0.118341,-34.594729
11.185,2.0,1.0,1.0,34.6,33.9,33.9,4.4,3.3,2.625,0.290596226013285,-0.0185179699710947,0.942495063633931,-0.0039207525321951,-0.120018,-34.457683
11.185,2.0,1.0,1.0,34.6,33.9,33.9,4.4,3.3,2.6275,0.28014821135999285,-0.018767125754144097,0.9454503328665229,-0.004199177845814033,-0.121732,-34.319883
11.185,2.0,1.0,1.0,34.6,33.9,33.9,4.4,3.3,2.63,0.2695924221152641,-0.019018363315041118,0.9483075978137138,-0.004486716316512834,-0.123483,-34.181314
11.185,2.0,1.0,1.0,34.6,33.9,33.9,4.4,3.3,2.6325,0.25892851870703665,-0.019271642830639844,0.9510641223761447,-0.004783657510508371,-0.125273,-34.041957
11.185,2.0,1.0,1.0,34.6,33.9,33.9,4.4,3.3,2.635,0.24815619586374565,-0.01952692036946965,0.9537171051510789,-0.0050903014848244854,-0.127102,-33.901797
11.185,2.0,1.0,1.0,34.6,33.9,33.9,4.4,3.3,2.6375,0.23727518468534278,-0.019784147639748728,0.956263678180979,-0.005406959257475835,-0.128972,-33.760815
11.185,2.0,1.0,1.0,34.6,33.9,33.9,4.4,3.3,2.64,0.2262852548012361,-0.020043271721705225,0.9587009056935263,-0.0057339533053086126,-0.130884,-33.618993
11.185,2.0,1.0,1.0,34.6,33.9,33.9,4.4,3.3,2.6425,0.2151862166181599,-0.02030423478303176,0.9610257828335625,-0.006071618091596768,-0.132839,-33.476313
11.185,2.0,1.0,1.0,34.6,33.9,33.9,4.4,3.3,2.645,0.2039779236610692,-0.020566973776189042,0.9632352343873548,-0.006420300625683302,-0.134839,-33.332755
11.185,2.0,1.0,1.0,34.6,33.9,33.9,4.4,3.3,2.6475,0.1926602750102464,-0.02083142011614778,0.9653261134995643,-0.006780361057166498,-0.136886,-33.188299
11.185,2.0,1.0,1.0,34.6,33.9,33.9,4.4,3.3,2.65,0.18123321783791257,-0.02109749933702161,0.9672952003832057,-0.007152173307362657,-0.138979,-33.042924
11.185,2.0,1.0,1.0,34.6,33.9,33.9,4.4,3.3,2.6525,0.16969675004777718,-0.021365130725885872,0.9691392010228197,-0.007536125741030515,-0.141122,-32.896609
11.185,2.0,1.0,1.0,34.6,33.9,33.9,4.4,3.3,2.655,0.15805092302104753,-0.021634226931905493,0.9708547458709361,-0.007932621881627345,-0.143315,-32.749331
11.185,2.0,1.0,1.0,34.6,33.9,33.9,4.4,3.3,2.6575,0.1462958444725861,-0.021904693548698086,0.9724383885378033,-0.008342081173676064,-0.145561,-32.601067
11.185,2.0,1.0,1.0,34.6,33.9,33.9,4.4,3.3,2.66,0.13443168142103765,-0.02217642866764109,0.9738866044741656,-0.008764939796168995,-0.14786,-32.451793
11.185,2.0,1.0,1.0,34.6,33.9,33.9,4.4,3.3,2.6625,0.12245866327693826,-0.022449322399583457,0.9751957896467017,-0.009201651531313958,-0.150215,-32.301484
11.185,2.0,1.0,1.0,34.6,33.9,33.9,4.4,3.3,2.665,0.11037708505295696,-0.022723256362147167,0.9763622592054689,-0.009652688693353832,-0.152629,-32.150115
11.185,2.0,1.0,1.0,34.6,33.9,33.9,4.4,3.3,2.6675,0.09818731070071565,-0.022998103129489005,0.9773822461424371,-0.010118543122655869,-0.155101,-31.997658
11.185,2.0,1.0,1.0,34.6,33.9,33.9,4.4,3.3,2.67,0.08588977657877114,-0.02327372564104091,0.9782518999398785,-0.01059972725079071,-0.157636,-31.844086
11.185,2.0,1.0,1.0,34.6,33.9,33.9,4.4,3.3,2.6725,0.07348499505668808,-0.023549976565347828,0.9789672852069607,-0.011096775242897148,-0.160234,-31.68937
11.185,2.0,1.0,1.0,34.6,33.9,33.9,4.4,3.3,2.675,0.06097355826040778,-0.023826697614668685,0.979524380302488,-0.011610244224270847,-0.162899,-31.533479
11.185,2.0,1.0,1.0,34.6,33.9,33.9,4.4,3.3,2.6775,0.048356141964491235,-0.02410371880549452,0.9799190759411593,-0.012140715598830886,-0.165633,-31.376383
11.185,2.0,1.0,1.0,34.6,33.9,33.9,4.4,3.3,2.68,0.035633509637176174,-0.024380857659554646,0.9801471737801736,-0.012688796467913726,-0.168438,-31.218048
11.185,2.0,1.0,1.0,34.6,33.9,33.9,4.4,3.3,2.6825,0.02280651664473429,-0.024657918339218828,0.9802043849822516,-0.013255121158731027,-0.171317,-31.05844
11.185,2.0,1.0,1.0,34.6,33.9,33.9,4.4,3.3,2.685,0.009876114622077352,-0.02493469071045117,0.9800863287503887,-0.01384035287281886,-0.174272,-30.897523
11.185,2.0,1.0,1.0,34.6,33.9,33.9,4.4,3.3,2.6875,-0.00315664398275119,-0.0252109493256087,0.979788530828695,-0.0144451854659114,-0.177308,-30.735262
11.185,2.0,1.0,1.0,34.6,33.9,33.9,4.4,3.3,2.69,-0.016290601181856615,-0.025486452317396283,0.9793064219626499,-0.015070345371907988,-0.180426,-30.571616
11.185,2.0,1.0,1.0,34.6,33.9,33.9,4.4,3.3,2.6925,-0.029524488529338384,-0.02576094019416556,0.9786353363108319,-0.01571659368498857,-0.183631,-30.406545
11.185,2.0,1.0,1.0,34.6,33.9,33.9,4.4,3.3,2.695,-0.04285692200148486,-0.026034134525456408,0.9777705097988488,-0.01638472841547956,-0.186926,-30.240008
11.185,2.0,1.0,1.0,34.6,33.9,33.9,4.4,3.3,2.6975,-0.05628639666398416,-0.026305736505201453,0.9767070784045383,-0.017075586936815657,-0.190314,-30.071959
11.185,2.0,1.0,1.0,34.6,33.9,33.9,4.4,3.3,2.7,-0.06981128111334492,-0.0265754253783155,0.9754400763617092,-0.017790048642890768,-0.1938,-29.902352
11.185,2.0,1.0,1.0,34.6,33.9,33.9,4.4,3.3,2.7025,-0.08342981167829146,-0.02684285671443366,0.9739644342676287,-0.01852903783729015,-0.197387,-29.731138
11.185,2.0,1.0,1.0,34.6,33.9,33.9,4.4,3.3,2.705,-0.09714008636480388,-0.02710766051030546,0.9722749770770014,-0.01929352687836212,-0.201081,-29.558267
11.185,2.0,1.0,1.0,34.6,33.9,33.9,4.4,3.3,2.7075,-0.11094005852647353,-0.02736943909974481,0.9703664219625457,-0.020084539606871586,-0.204886,-29.383685
11.185,2.0,1.0,1.0,34.6,33.9,33.9,4.4,3.3,2.71,-0.12482753023909647,-0.02762776484701498,0.9682333760191074,-0.020903155086113928,-0.208808,-29.207336
11.185,2.0,1.0,1.0,34.6,33.9,33.9,4.4,3.3,2.7125,-0.13880014535546514,-0.027882177596029283,0.9658703337847225,-0.021750511687911797,-0.212851,-29.029161
11.185,2.0,1.0,1.0,34.6,33.9,33.9,4.4,3.3,2.715,-0.15285538221266334,-0.028132181843676583,0.9632716745479799,-0.022627811561920765,-0.217021,-28.849098
11.185,2.0,1.0,1.0,34.6,33.9,33.9,4.4,3.3,2.7175,-0.16699054595996218,-0.02837724360084803,0.9604316594064221,-0.023536325530204242,-0.221325,-28.667081
11.185,2.0,1.0,1.0,34.6,33.9,33.9,4.4,3.3,2.72,-0.18120276047032297,-0.028616786899212744,0.9573444280354207,-0.02447739845417168,-0.225769,-28.483043
11.185,2.0,1.0,1.0,34.6,33.9,33.9,4.4,3.3,2.7225,-0.19548895979270148,-0.02885018989533299,0.95400399512096,-0.02545245512680483,-0.230361,-28.296911
11.185,2.0,1.0,1.0,34.6,33.9,33.9,4.4,3.3,2.725,-0.20984587909516994,-0.02907678051614004,0.9504042464028672,-0.026463006749709514,-0.235108,-28.108608
11.185,2.0,1.0,1.0,34.6,33.9,33.9,4.4,3.3,2.7275,-0.22427004504063397,-0.029295831580906827,0.9465389342671315,-0.027510658062062265,-0.240019,-27.918054
11.185,2.0,1.0,1.0,34.6,33.9,33.9,4.4,3.3,2.73,-0.23875776552697126,-0.02950655532439472,0.942401672817005,-0.02859711519708187,-0.245102,-27.725165
11.185,2.0,1.0,1.0,34.6,33.9,33.9,4.4,3.3,2.7325,-0.2533051187116885,-0.029708097233514925,0.9379859323422679,-0.029724194351425325,-0.250367,-27.52985
11.185,2.0,1.0,1.0,34.6,33.9,33.9,4.4,3.3,2.735,-0.2679079412269901,-0.029899529095255263,0.9332850330942325,-0.03089383136404158,-0.255824,-27.332015
11.185,2.0,1.0,1.0,34.6,33.9,33.9,4.4,3.3,2.7375,-0.28256181547465664,-0.030079841136325974,0.928292138260674,-0.03210809231374188,-0.261486,-27.13156
11.185,2.0,1.0,1.0,34.6,33.9,33.9,4.4,3.3,2.74,-0.2972620558697806,-0.0302479331144164,0.9230002460193405,-0.0333691852592823,-0.267363,-26.928378
11.185,2.0,1.0,1.0,34.6,33.9,33.9,4.4,3.3,2.7425,-0.31200369387855353,-0.030402604196449714,0.9174021805310708,-0.03467947326239174,-0.273469,-26.722357
11.185,2.0,1.0,1.0,34.6,33.9,33.9,4.4,3.3,2.745,-0.3267814616663918,-0.030542541429930885,0.9114905817132588,-0.03604148885321925,-0.279818,-26.513378
11.185,2.0,1.0,1.0,34.6,33.9,33.9,4.4,3.3,2.7475,-0.341589774137816,-0.030666306578373322,0.9052578936111567,-0.03745795011948698,-0.286428,-26.301313
11.185,2.0,1.0,1.0,34.6,33.9,33.9,4.4,3.3,2.75,-0.356422709107646,-0.0307723210495823,0.898696351157839,-0.0389317786256256,-0.293313,-26.086028
11.185,2.0,1.0,1.0,34.6,33.9,33.9,4.4,3.3,2.7525,-0.3712739852922218,-0.03085884859466699,0.8917979650831215,-0.04046611939680257,-0.300495,-25.867379
11.185,2.0,1.0,1.0,34.6,33.9,33.9,4.4,3.3,2.755,-0.3861369377476613,-0.030923975394075577,0.8845545046966587,-0.04206436323555383,-0.307992,-25.645215
11.185,2.0,1.0,1.0,34.6,33.9,33.9,4.4,3.3,2.7575,-0.401004490307316,-0.030965587072204655,0.8769574782303248,-0.04373017167628001,-0.315829,-25.419372
11.185,2.0,1.0,1.0,34.6,33.9,33.9,4.4,3.3,2.76,-0.41586912447878316,-0.030981342091108977,0.8689981103790909,-0.04546750492578712,-0.32403,-25.189678
11.185,2.0,1.0,1.0,34.6,33.9,33.9,4.4,3.3,2.7625,-0.4307228441489208,-0.03096864086259602,0.8606673166271511,-0.04728065318704096,-0.332622,-24.955948
11.185,2.0,1.0,1.0,34.6,33.9,33.9,4.4,3.3,2.765,-0.44555713530734914,-0.030924589781548856,0.8519556738863598,-0.049174271819024756,-0.341637,-24.717984
11.185,2.0,1.0,1.0,34.6,33.9,33.9,4.4,3.3,2.7675,-0.46036291982918537,-0.03084595921535402,0.8428533869062622,-0.05115342084873866,-0.351109,-24.475574
11.185,2.0,1.0,1.0,34.6,33.9,33.9,4.4,3.3,2.77,-0.4751305021474564,-0.03072913427673443,0.8333502498384959,-0.0532236094225134,-0.361076,-24.228493
11.185,2.0,1.0,1.0,34.6,33.9,33.9,4.4,3.3,2.7725,-0.4898495073846878,-0.030570056949758954,0.823435602252687,-0.05539084586329209,-0.371579,-23.976498
11.185,2.0,1.0,1.0,34.6,33.9,33.9,4.4,3.3,2.775,-0.5045088091875186,-0.030364157817988808,0.8130982788058606,-0.05766169408832891,-0.382667,-23.719328
11.185,2.0,1.0,1.0,34.6,33.9,33.9,4.4,3.3,2.7775,-0.5190964451007313,-0.030106275242423656,0.8023265516636384,-0.060043337237123115,-0.394393,-23.456704
11.185,2.0,1.0,1.0,34.6,33.9,33.9,4.4,3.3,2.78,-0.5335995168047984,-0.029790559332773286,0.7911080646605472,-0.0625436494604754,-0.406817,-23.188325
11.185,2.0,1.0,1.0,34.6,33.9,33.9,4.4,3.3,2.7825,-0.5480040718940734,-0.029410357419488872,0.7794297580722336,-0.0651712769245722,-0.420006,-22.913867
11.185,2.0,1.0,1.0,34.6,33.9,33.9,4.4,3.3,2.785,-0.5622949630526523,-0.02895807692780275,0.7672777827605478,-0.06793572918232152,-0.434038,-22.632981
11.185,2.0,1.0,1.0,34.6,33.9,33.9,4.4,3.3,2.7875,-0.5764556794399421,-0.028425020528623644,0.754637402354437,-0.07084748214643492,-0.449,-22.345291
11.185,2.0,1.0,1.0,34.6,33.9,33.9,4.4,3.3,2.79,-0.5904681437608463,-0.027801187128329134,0.7414928820632489,-0.07391809394653678,-0.464992,-22.050388
11.185,2.0,1.0,1.0,34.6,33.9,33.9,4.4,3.3,2.7925,-0.6043124667766093,-0.027075030572578925,0.727827362713936,-0.07716033493614374,-0.482128,-21.747833
11.185,2.0,1.0,1.0,34.6,33.9,33.9,4.4,3.3,2.795,-0.617966648792049,-0.02623316576156719,0.7136227187061026,-0.08058833298774186,-0.50054,-21.437148
11.185,2.0,1.0,1.0,34.6,33.9,33.9,4.4,3.3,2.7975,-0.6314062147743512,-0.02526000904995211,0.698859398862715,-0.08421773490141755,-0.520381,-21.117815
11.185,2.0,1.0,1.0,34.6,33.9,33.9,4.4,3.3,2.8,-0.6446037660038985,-0.024137336125773946,0.6835162497348252,-0.08806588413896642,-0.541827,-20.789271
11.185,2.0,1.0,1.0,34.6,33.9,33.9,4.4,3.3,2.8025,-0.6575284262434477,-0.022843735749949676,0.6675703219772209,-0.09215201400024962,-0.565086,-20.450906
11.185,2.0,1.0,1.0,34.6,33.9,33.9,4.4,3.3,2.805,-0.6701451539536013,-0.021353931417459164,0.6509966622320005,-0.09649745349929882,-0.590399,-20.102055
11.185,2.0,1.0,1.0,34.6,33.9,33.9,4.4,3.3,2.8075,-0.6824138835671549,-0.019637934672883772,0.6337680959836824,-0.10112584013191608,-0.618053,-19.741993
11.185,2.0,1.0,1.0,34.6,33.9,33.9,4.4,3.3,2.81,-0.694288447575893,-0.017659982810651138,0.6158550117827557,-0.106063328759785,-0.648386,-19.369932
11.185,2.0,1.0,1.0,34.6,33.9,33.9,4.4,3.3,2.8125,-0.705715216276676,-0.0153771991362165,0.597225165179045,-0.111338777874101,-0.681803,-18.98501
11.185,2.0,1.0,1.0,34.6,33.9,33.9,4.4,3.3,2.815,-0.716631372291144,-0.012737894720542835,0.5778435334129357,-0.11698388181293912,-0.718789,-18.586292
11.185,2.0,1.0,1.0,34.6,33.9,33.9,4.4,3.3,2.8175,-0.7269627109304028,-0.00967940521608385,0.5576722721677518,-0.12303319733889453,-0.759932,-18.172756
11.185,2.0,1.0,1.0,34.6,33.9,33.9,4.4,3.3,2.82,-0.7366208233451387,-0.006125323117930305,0.5366708579451563,-0.1295239809438025,-0.805946,-17.743294
11.185,2.0,1.0,1.0,34.6,33.9,33.9,4.4,3.3,2.8225,-0.7454994752787654,-0.0019819430516783924,0.5147965510349009,-0.13649570229602892,-0.857706,-17.296705
11.185,2.0,1.0,1.0,34.6,33.9,33.9,4.4,3.3,2.825,-0.7534699386143269,0.0028663161184528615,0.4920053961093042,-0.14398901807388856,-0.916296,-16.831692
11.185,2.0,1.0,1.0,34.6,33.9,33.9,4.4,3.3,2.8275,-0.7603749659679413,0.00856281296393101,0.46825410868785494,-0.1520438608619484,-0.983063,-16.346869
