1,w,sub_t,h,l1,l2,l3,g1,g2,Freq,S11_re,S21_re,S11_img,S21_img,S11_dB,S21_dB
11.185,2.0,1.0,1.0,34.0,33.2,33.2,1.6,3.3,2.5,0.778820125649517,-0.0132613657337008,0.614862723761108,0.00926054639239672,-0.067327,-35.823265
11.185,2.0,1.0,1.0,34.0,33.2,33.2,1.6,3.3,2.5025,0.7741020504124749,-0.013517608592262146,0.6206610269564904,0.009274366422403115,-0.068045,-35.706683
11.185,2.0,1.0,1.0,34.0,33.2,33.2,1.6,3.3,2.505,0.7693156233325468,-0.013778275228087306,0.6264517429175362,0.009286129606990405,-0.068777,-35.58976
11.185,2.0,1.0,1.0,34.0,33.2,33.2,1.6,3.3,2.5075,0.7644601082952881,-0.014043444202076193,0.6322343648834519,0.009295752575173531,-0.069521,-35.472488
11.185,2.0,1.0,1.0,34.0,33.2,33.2,1.6,3.3,2.51,0.7595347587975132,-0.01431319547044898,0.6380083704203736,0.009303148937155344,-0.07028,-35.354864
11.185,2.0,1.0,1.0,34.0,33.2,33.2,1.6,3.3,2.5125,0.7545388178553121,-0.014587610400156688,0.6437732209221732,0.009308229170548339,-0.071052,-35.23688
11.185,2.0,1.0,1.0,34.0,33.2,33.2,1.6,3.3,2.515,0.7494715179152384,-0.014866771783623799,0.6495283610952314,0.009310900502077037,-0.071838,-35.118531
11.185,2.0,1.0,1.0,34.0,33.2,33.2,1.6,3.3,2.5175,0.744332080769015,-0.015150763852739692,0.6552732184266437,0.009311066784572315,-0.07264,-34.99981
11.185,2.0,1.0,1.0,34.0,33.2,33.2,1.6,3.3,2.52,0.739119717472066,-0.015439672292010934,0.6610072026353231,0.00930862836906172,-0.073456,-34.880712
11.185,2.0,1.0,1.0,34.0,33.2,33.2,1.6,3.3,2.5225,0.7338336282662697,-0.015733584250777248,0.6667297051054322,0.009303481971750923,-0.074287,-34.761229
11.185,2.0,1.0,1.0,34.0,33.2,33.2,1.6,3.3,2.525,0.7284730025072944,-0.016032588354389265,0.6724400983015785,0.009295520535682996,-0.075134,-34.641357
11.185,2.0,1.0,1.0,34.0,33.2,33.2,1.6,3.3,2.5275,0.7230370185969354,-0.01633677471423682,0.6781377351651796,0.009284633086852125,-0.075997,-34.521089
11.185,2.0,1.0,1.0,34.0,33.2,33.2,1.6,3.3,2.53,0.7175248439208877,-0.016646234936507964,0.6838219484913737,0.009270704584540563,-0.076876,-34.400418
11.185,2.0,1.0,1.0,34.0,33.2,33.2,1.6,3.3,2.5325,0.7119356347924116,-0.016961062129551237,0.6894920502858509,0.009253615765635293,-0.077772,-34.279338
11.185,2.0,1.0,1.0,34.0,33.2,33.2,1.6,3.3,2.535,0.706268536402387,-0.0172813509097029,0.6951473311009633,0.009233242982672628,-0.078686,-34.157843
11.185,2.0,1.0,1.0,34.0,33.2,33.2,1.6,3.3,2.5375,0.700522682776267,-0.017607197405430947,0.7007870593504155,0.009209458035346724,-0.079617,-34.035926
11.185,2.0,1.0,1.0,34.0,33.2,33.2,1.6,3.3,2.54,0.6946971967384951,-0.01793869925963731,0.7064104806018736,0.009182127995206905,-0.080566,-33.91358
11.185,2.0,1.0,1.0,34.0,33.2,33.2,1.6,3.3,2.5425,0.688791189884953,-0.018275955629946876,0.7120168168467591,0.009151115023257834,-0.081534,-33.790799
11.185,2.0,1.0,1.0,34.0,33.2,33.2,1.6,3.3,2.545,0.6828037625640756,-0.018619067186800495,0.7176052657465013,0.009116276180162497,-0.082521,-33.667577
11.185,2.0,1.0,1.0,34.0,33.2,33.2,1.6,3.3,2.5475,0.6767340038672819,-0.018968136109154276,0.7231749998544815,0.009077463228737141,-0.083527,-33.543906
11.185,2.0,1.0,1.0,34.0,33.2,33.2,1.6,3.3,2.55,0.6705809916294178,-0.01932326607757521,0.7287251658129114,0.00903452242841203,-0.084553,-33.419779
11.185,2.0,1.0,1.0,34.0,33.2,33.2,1.6,3.3,2.5525,0.6643437924399618,-0.019684562264504792,0.7342548835238093,0.008987294321319941,-0.0856,-33.29519
11.185,2.0,1.0,1.0,34.0,33.2,33.2,1.6,3.3,2.555,0.6580214616657589,-0.02005213132144886,0.7397632452932782,0.00893561350965795,-0.086667,-33.170132
11.185,2.0,1.0,1.0,34.0,33.2,33.2,1.6,3.3,2.5575,0.651613043486127,-0.02042608136283241,0.7452493149482241,0.008879308423954216,-0.087757,-33.044597
11.185,2.0,1.0,1.0,34.0,33.2,33.2,1.6,3.3,2.56,0.6451175709412071,-0.020806521946239123,0.7507121269246335,0.008818201081855768,-0.088868,-32.918579
11.185,2.0,1.0,1.0,34.0,33.2,33.2,1.6,3.3,2.5625,0.6385340659944966,-0.021193564048736395,0.7561506853265223,0.008752106837035804,-0.090002,-32.792071
11.185,2.0,1.0,1.0,34.0,33.2,33.2,1.6,3.3,2.565,0.6318615396105419,-0.02158732003896408,0.7615639629546267,0.008680834117803841,-0.091159,-32.665064
11.185,2.0,1.0,1.0,34.0,33.2,33.2,1.6,3.3,2.5675,0.6250989918488475,-0.021987903644641604,0.7669509003038827,0.008604184154982649,-0.09234,-32.537552
11.185,2.0,1.0,1.0,34.0,33.2,33.2,1.6,3.3,2.57,0.6182454119751017,-0.022395429915124762,0.7723104045287249,0.008521950698598816,-0.093545,-32.409528
11.185,2.0,1.0,1.0,34.0,33.2,33.2,1.6,3.3,2.5725,0.6112997785908928,-0.022810015178615525,0.7776413483752033,0.008433919722914138,-0.094776,-32.280983
11.185,2.0,1.0,1.0,34.0,33.2,33.2,1.6,3.3,2.575,0.6042610597831518,-0.023231776993600413,0.7829425690788787,0.00833986911930524,-0.096032,-32.15191
11.185,2.0,1.0,1.0,34.0,33.2,33.2,1.6,3.3,2.5775,0.5971282132946498,-0.02366083409406249,0.7882128672274624,0.008239568376478447,-0.097315,-32.022302
11.185,2.0,1.0,1.0,34.0,33.2,33.2,1.6,3.3,2.58,0.5899001867169262,-0.024097306327979195,0.7934510055870926,0.008132778247485985,-0.098625,-31.89215
11.185,2.0,1.0,1.0,34.0,33.2,33.2,1.6,3.3,2.5825,0.5825759177071302,-0.024541314588583937,0.7986557078911668,0.008019250402986065,-0.099963,-31.761448
11.185,2.0,1.0,1.0,34.0,33.2,33.2,1.6,3.3,2.585,0.5751543342303279,-0.024992980737831048,0.8038256575905719,0.007898727070168799,-0.101329,-31.630186
11.185,2.0,1.0,1.0,34.0,33.2,33.2,1.6,3.3,2.5875,0.5676343548289318,-0.02545242752146491,0.8089594965641699,0.007770940656743685,-0.102725,-31.498357
11.185,2.0,1.0,1.0,34.0,33.2,33.2,1.6,3.3,2.59,0.5600148889209886,-0.025919778475049605,0.8140558237883325,0.007635613359361647,-0.104151,-31.365953
11.185,2.0,1.0,1.0,34.0,33.2,33.2,1.6,3.3,2.5925,0.5522948371291839,-0.026395157820271558,0.819113193964328,0.007492456755818437,-0.105609,-31.232966
11.185,2.0,1.0,1.0,34.0,33.2,33.2,1.6,3.3,2.595,0.5444730916425202,-0.026878690350775836,0.8241301161023019,0.00734117138036005,-0.107098,-31.099386
11.185,2.0,1.0,1.0,34.0,33.2,33.2,1.6,3.3,2.5975,0.5365485366127184,-0.027370501306746977,0.8291050520606009,0.007181446281383712,-0.10862,-30.965207
11.185,2.0,1.0,1.0,34.0,33.2,33.2,1.6,3.3,2.6,0.5285200485875522,-0.02787071623738653,0.8340364150391424,0.0070129585607998255,-0.110176,-30.830418
11.185,2.0,1.0,1.0,34.0,33.2,33.2,1.6,3.3,2.6025,0.5203864969834299,-0.028379460850379574,0.8389225680255054,0.006835372894292293,-0.111766,-30.695012
11.185,2.0,1.0,1.0,34.0,33.2,33.2,1.6,3.3,2.605,0.5121467445996564,-0.028896860847378452,0.8437618221924249,0.006648341031683338,-0.113393,-30.55898
11.185,2.0,1.0,1.0,34.0,33.2,33.2,1.6,3.3,2.6075,0.5037996481769886,-0.02942304174446114,0.848552435245306,0.006451501276580185,-0.115056,-30.422313
11.185,2.0,1.0,1.0,34.0,33.2,33.2,1.6,3.3,2.61,0.4953440590032169,-0.02995812867644793,0.8532926097183892,0.0062444779444487545,-0.116756,-30.285001
11.185,2.0,1.0,1.0,34.0,33.2,33.2,1.6,3.3,2.6125,0.4867788235686805,-0.03050224618388006,0.8579804912181636,0.006026880798226995,-0.118496,-30.147036
11.185,2.0,1.0,1.0,34.0,33.2,33.2,1.6,3.3,2.615,0.47810278427476743,-0.031055517981378632,0.8626141666126032,0.005798304460558609,-0.120276,-30.008409
11.185,2.0,1.0,1.0,34.0,33.2,33.2,1.6,3.3,2.6175,0.4693147801986761,-0.03161806670600878,0.8671916621647958,0.005558327801693839,-0.122097,-29.869111
11.185,2.0,1.0,1.0,34.0,33.2,33.2,1.6,3.3,2.62,0.4604136479178484,-0.032190013644177645,0.8717109416095133,0.00530651330206943,-0.12396,-29.729131
11.185,2.0,1.0,1.0,34.0,33.2,33.2,1.6,3.3,2.6225,0.4513982223977139,-0.03277147843548772,0.8761699041712641,0.005042406388545621,-0.125867,-29.58846
11.185,2.0,1.0,1.0,34.0,33.2,33.2,1.6,3.3,2.625,0.442267337946605,-0.0333625787518528,0.880566382522353,0.00476553474324273,-0.127819,-29.447088
11.185,2.0,1.0,1.0,34.0,33.2,33.2,1.6,3.3,2.6275,0.4330198292418786,-0.033963429950064856,0.8848981406794909,0.0044754075838828195,-0.129817,-29.305007
11.185,2.0,1.0,1.0,34.0,33.2,33.2,1.6,3.3,2.63,0.4236545324315694,-0.03457414469586644,0.8891628718374589,0.0041715149145086705,-0.131863,-29.162205
11.185,2.0,1.0,1.0,34.0,33.2,33.2,1.6,3.3,2.6325,0.4141702863161157,-0.03519483255744528,0.8933581961383706,0.0038533267454119377,-0.133958,-29.018672
11.185,2.0,1.0,1.0,34.0,33.2,33.2,1.6,3.3,2.635,0.4045659336149639,-0.03582559956611567,0.8974816583750679,0.0035202922810712817,-0.136104,-28.874399
11.185,2.0,1.0,1.0,34.0,33.2,33.2,1.6,3.3,2.6375,0.3948403223231636,-0.03646654774179015,0.9015307256271815,0.003171839074860289,-0.138302,-28.729374
11.185,2.0,1.0,1.0,34.0,33.2,33.2,1.6,3.3,2.64,0.38499230716330807,-0.03711777458067263,0.9055027848284513,0.0028073721492524436,-0.140554,-28.583588
11.185,2.0,1.0,1.0,34.0,33.2,33.2,1.6,3.3,2.6425,0.37502075113853894,-0.03777937250241473,0.9093951402638735,0.0024262730802148075,-0.142861,-28.43703
11.185,2.0,1.0,1.0,34.0,33.2,33.2,1.6,3.3,2.645,0.36492452719264334,-0.03845142825378023,0.9132050109953123,0.002027899044446953,-0.145226,-28.289688
11.185,2.0,1.0,1.0,34.0,33.2,33.2,1.6,3.3,2.6475,0.35470251998360447,-0.03913402226564371,0.9169295282142368,0.0016115818280905345,-0.147651,-28.141551
11.185,2.0,1.0,1.0,34.0,33.2,33.2,1.6,3.3,2.65,0.3443536277773634,-0.03982722795992247,0.9205657325202963,0.001176626795501554,-0.150136,-27.99261
11.185,2.0,1.0,1.0,34.0,33.2,33.2,1.6,3.3,2.6525,0.3338767644689367,-0.040531111002785995,0.9241105711245046,0.0007223118166509614,-0.152684,-27.842851
11.185,2.0,1.0,1.0,34.0,33.2,33.2,1.6,3.3,2.655,0.3232708617384227,-0.041245728500226904,0.9275608949758751,0.0002478861516898195,-0.155297,-27.692264
11.185,2.0,1.0,1.0,34.0,33.2,33.2,1.6,3.3,2.6575,0.3125348713499152,-0.04197112813178334,0.930913455810426,-0.0002474307088063404,-0.157978,-27.540836
11.185,2.0,1.0,1.0,34.0,33.2,33.2,1.6,3.3,2.66,0.30166776760175307,-0.042707347217897915,0.9341649031215786,-0.0007644502494199145,-0.160728,-27.388557
11.185,2.0,1.0,1.0,34.0,33.2,33.2,1.6,3.3,2.6625,0.2906685499370974,-0.04345441171606187,0.9373117810510648,-0.0013040161828209668,-0.16355,-27.235413
11.185,2.0,1.0,1.0,34.0,33.2,33.2,1.6,3.3,2.665,0.27953624572425806,-0.04421233514053839,0.9403505251995986,-0.001867005751576669,-0.166446,-27.081393
11.185,2.0,1.0,1.0,34.0,33.2,33.2,1.6,3.3,2.6675,0.26826991321686294,-0.04498111740006925,0.9432774593567024,-0.0024543310803732295,-0.169418,-26.926485
11.185,2.0,1.0,1.0,34.0,33.2,33.2,1.6,3.3,2.67,0.256868644704425,-0.04576074354755757,0.9460887921492412,-0.0030669405801838205,-0.17247,-26.770674
11.185,2.0,1.0,1.0,34.0,33.2,33.2,1.6,3.3,2.6725,0.24533156986459453,-0.046551182435269935,0.9487806136084012,-0.0037058204059011073,-0.175604,-26.61395
11.185,2.0,1.0,1.0,34.0,33.2,33.2,1.6,3.3,2.675,0.23365785932897326,-0.04735238526861886,0.9513488916550578,-0.004371995968931569,-0.178823,-26.456298
11.185,2.0,1.0,1.0,34.0,33.2,33.2,1.6,3.3,2.6775,0.22184672847511033,-0.04816428405106941,0.9537894685037032,-0.005066533506217121,-0.182129,-26.297705
11.185,2.0,1.0,1.0,34.0,33.2,33.2,1.6,3.3,2.68,0.20989744145801495,-0.04898678991215253,0.9560980569853803,-0.005790541707101938,-0.185527,-26.138158
11.185,2.0,1.0,1.0,34.0,33.2,33.2,1.6,3.3,2.6825,0.19780931549534886,-0.049819791309964,0.9582702367903392,-0.0065451733994006285,-0.189019,-25.977643
11.185,2.0,1.0,1.0,34.0,33.2,33.2,1.6,3.3,2.685,0.18558172542126114,-0.05066315209887865,0.9603014506314821,-0.007331627295946874,-0.192608,-25.816146
11.185,2.0,1.0,1.0,34.0,33.2,33.2,1.6,3.3,2.6875,0.17321410852475183,-0.051516709452506596,0.9621870003300184,-0.008151149802801712,-0.196298,-25.653652
11.185,2.0,1.0,1.0,34.0,33.2,33.2,1.6,3.3,2.69,0.16070596968939907,-0.05238027163115944,0.9639220428251523,-0.009005036890177886,-0.200093,-25.490148
11.185,2.0,1.0,1.0,34.0,33.2,33.2,1.6,3.3,2.6925,0.1480568868522584,-0.05325361558228038,0.965501586110088,-0.009894636026993664,-0.203997,-25.325619
11.185,2.0,1.0,1.0,34.0,33.2,33.2,1.6,3.3,2.695,0.1352665168008942,-0.05413648436140367,0.9669204850971508,-0.010821348179785062,-0.208013,-25.160049
11.185,2.0,1.0,1.0,34.0,33.2,33.2,1.6,3.3,2.6975,0.1223346013285368,-0.055028584360262346,0.9681734374153528,-0.011786629876502605,-0.212146,-24.993424
11.185,2.0,1.0,1.0,34.0,33.2,33.2,1.6,3.3,2.7,0.1092609737687129,-0.05592958232762616,0.9692549791444006,-0.012791995335460903,-0.2164,-24.825727
11.185,2.0,1.0,1.0,34.0,33.2,33.2,1.6,3.3,2.7025,0.09604556593184413,-0.05683910216734354,0.9701594804897914,-0.01383901865942145,-0.22078,-24.656944
11.185,2.0,1.0,1.0,34.0,33.2,33.2,1.6,3.3,2.705,0.08268841546784404,-0.05775672149685524,0.9708811414044471,-0.014929336094440075,-0.22529,-24.487057
11.185,2.0,1.0,1.0,34.0,33.2,33.2,1.6,3.3,2.7075,0.06918967368008765,-0.05868196794814724,0.9714139871631652,-0.016064648352712856,-0.229936,-24.316051
11.185,2.0,1.0,1.0,34.0,33.2,33.2,1.6,3.3,2.71,0.05554961381781031,-0.059614315191701725,0.9717518638971371,-0.01724672299818355,-0.234724,-24.143908
11.185,2.0,1.0,1.0,34.0,33.2,33.2,1.6,3.3,2.7125,0.04176863987557657,-0.06055317866248445,0.9718884340967981,-0.018477396893140093,-0.239658,-23.970613
11.185,2.0,1.0,1.0,34.0,33.2,33.2,1.6,3.3,2.715,0.02784729593035729,-0.0614979109653556,0.971817172092497,-0.01975857870339731,-0.244744,-23.796146
11.185,2.0,1.0,1.0,34.0,33.2,33.2,1.6,3.3,2.7175,0.013786276048568262,-0.06244779693550945,0.9715313595236978,-0.021092251458946505,-0.249989,-23.620492
11.185,2.0,1.0,1.0,34.0,33.2,33.2,1.6,3.3,2.72,-0.0004135652024128784,-0.06340204832761384,0.971024080808926,-0.022480475166119132,-0.255399,-23.44363
11.185,2.0,1.0,1.0,34.0,33.2,33.2,1.6,3.3,2.7225,-0.014751201601650145,-0.06435979810523028,0.9702882186302194,-0.023925389466362582,-0.260981,-23.265544
11.185,2.0,1.0,1.0,34.0,33.2,33.2,1.6,3.3,2.725,-0.02922542344190246,-0.0653200942998244,0.9693164494476532,-0.025429216335621726,-0.266742,-23.086214
11.185,2.0,1.0,1.0,34.0,33.2,33.2,1.6,3.3,2.7275,-0.043834824975237774,-0.06628189340622381,0.9681012390614482,-0.02699426281707593,-0.27269,-22.905622
11.185,2.0,1.0,1.0,34.0,33.2,33.2,1.6,3.3,2.73,-0.058577791092737475,-0.06724405327871291,0.966634838241377,-0.02862292377852858,-0.278832,-22.723746
11.185,2.0,1.0,1.0,34.0,33.2,33.2,1.6,3.3,2.7325,-0.07345248319116722,-0.06820532548907085,0.964909278445617,-0.03031768468410719,-0.285176,-22.540568
11.185,2.0,1.0,1.0,34.0,33.2,33.2,1.6,3.3,2.735,-0.08845682417633173,-0.06916434710472592,0.9629163676539305,-0.032081124368038984,-0.291733,-22.356067
11.185,2.0,1.0,1.0,34.0,33.2,33.2,1.6,3.3,2.7375,-0.10358848254954665,-0.07011963184180849,0.9606476863430349,-0.03391591779611312,-0.29851,-22.170223
11.185,2.0,1.0,1.0,34.0,33.2,33.2,1.6,3.3,2.74,-0.1188448555199943,-0.07106956054420142,0.9580945836354552,-0.035824838797966684,-0.305518,-21.983013
11.185,2.0,1.0,1.0,34.0,33.2,33.2,1.6,3.3,2.7425,-0.1342230510819264,-0.07201237093569986,0.955248173656891,-0.03781076275051634,-0.312767,-21.794416
11.185,2.0,1.0,1.0,34.0,33.2,33.2,1.6,3.3,2.745,-0.14971986899148904,-0.07294614658806266,0.9520993321413497,-0.039876669189623626,-0.320267,-21.604409
11.185,2.0,1.0,1.0,34.0,33.2,33.2,1.6,3.3,2.7475,-0.1653317805734801,-0.07386880504304867,0.9486386933280304,-0.04202564432339897,-0.328032,-21.412971
11.185,2.0,1.0,1.0,34.0,33.2,33.2,1.6,3.3,2.75,-0.181054907283537,-0.0747780850214482,0.944856647199216,-0.0442608834163281,-0.336072,-21.220077
11.185,2.0,1.0,1.0,34.0,33.2,33.2,1.6,3.3,2.7525,-0.19688499794610978,-0.07567153264660935,0.9407433371143695,-0.046585693008584936,-0.3444,-21.025704
11.185,2.0,1.0,1.0,34.0,33.2,33.2,1.6,3.3,2.755,-0.21281740458291104,-0.07654648660399685,0.9362886579023123,-0.04900349292937635,-0.353031,-20.829828
11.185,2.0,1.0,1.0,34.0,33.2,33.2,1.6,3.3,2.7575,-0.22884705674069097,-0.07740006215186471,0.9314822544808136,-0.05151781805686032,-0.361979,-20.632423
11.185,2.0,1.0,1.0,34.0,33.2,33.2,1.6,3.3,2.76,-0.24496843422057202,-0.07822913389114058,0.9263135210814328,-0.05413231976994983,-0.37126,-20.433464
11.185,2.0,1.0,1.0,34.0,33.2,33.2,1.6,3.3,2.7625,-0.2611755381043882,-0.07903031719507987,0.9207716011669157,-0.05685076702905659,-0.380889,-20.232924
11.185,2.0,1.0,1.0,34.0,33.2,33.2,1.6,3.3,2.765,-0.27746185996594863,-0.07979994819110538,0.9148453881392367,-0.05967704701335672,-0.390884,-20.030778
11.185,2.0,1.0,1.0,34.0,33.2,33.2,1.6,3.3,2.7675,-0.29382034914719146,-0.08053406217847918,0.9085235269485408,-0.0626151652313111,-0.401264,-19.826997
11.185,2.0,1.0,1.0,34.0,33.2,33.2,1.6,3.3,2.77,-0.31024337797065854,-0.08122837035602065,0.9017944167270227,-0.06566924500874496,-0.412049,-19.621554
11.185,2.0,1.0,1.0,34.0,33.2,33.2,1.6,3.3,2.7725,-0.3267227047505644,-0.08187823472395972,0.8946462145873745,-0.06884352624451993,-0.423259,-19.41442
11.185,2.0,1.0,1.0,34.0,33.2,33.2,1.6,3.3,2.775,-0.3432494344550047,-0.08247864101318075,0.8870668407432339,-0.07214236330747138,-0.434917,-19.205566
11.185,2.0,1.0,1.0,34.0,33.2,33.2,1.6,3.3,2.7775,-0.35981397686146915,-0.08302416948355264,0.8790439851292221,-0.07557022192949017,-0.447047,-18.99496
11.185,2.0,1.0,1.0,34.0,33.2,33.2,1.6,3.3,2.78,-0.3764060020369648,-0.0835089634207597,0.8705651157211045,-0.07913167492804457,-0.459674,-18.782574
11.185,2.0,1.0,1.0,34.0,33.2,33.2,1.6,3.3,2.7825,-0.39301439296234925,-0.08392669514806206,0.8616174887829399,-0.08283139656661863,-0.472826,-18.568374
11.185,2.0,1.0,1.0,34.0,33.2,33.2,1.6,3.3,2.785,-0.4096271951086457,-0.08427052935577231,0.852188161297831,-0.08667415533303204,-0.486532,-18.352329
11.185,2.0,1.0,1.0,34.0,33.2,33.2,1.6,3.3,2.7875,-0.4262315627603784,-0.08453308353700285,0.8422640058732679,-0.09066480488275533,-0.500823,-18.134406
11.185,2.0,1.0,1.0,34.0,33.2,33.2,1.6,3.3,2.79,-0.4428137018683148,-0.08470638530354944,0.8318317284510761,-0.09480827285657514,-0.515733,-17.914571
11.185,2.0,1.0,1.0,34.0,33.2,33.2,1.6,3.3,2.7925,-0.45935880920092864,-0.0847818263407904,0.8208778891968491,-0.09910954723842914,-0.531298,-17.692788
11.185,2.0,1.0,1.0,34.0,33.2,33.2,1.6,3.3,2.795,-0.4758510075510967,-0.08475011274546057,0.8093889269951845,-0.10357365986912889,-0.547557,-17.469024
11.185,2.0,1.0,1.0,34.0,33.2,33.2,1.6,3.3,2.7975,-0.49227327674209836,-0.0846012114754351,0.7973511880359998,-0.10820566667389073,-0.564551,-17.243241
11.185,2.0,1.0,1.0,34.0,33.2,33.2,1.6,3.3,2.8,-0.5086073801655742,-0.08432429262669938,0.7847509590449864,-0.11301062409504398,-0.582325,-17.015402
11.185,2.0,1.0,1.0,34.0,33.2,33.2,1.6,3.3,2.8025,-0.5248337865741425,-0.08390766724010891,0.7715745057890625,-0.11799356114449822,-0.600927,-16.78547
11.185,2.0,1.0,1.0,34.0,33.2,33.2,1.6,3.3,2.805,-0.540931586843816,-0.08333872033016373,0.7578081175773189,-0.1231594464020486,-0.62041,-16.553407
11.185,2.0,1.0,1.0,34.0,33.2,33.2,1.6,3.3,2.8075,-0.556878405417288,-0.08260383882091474,0.7434381585807452,-0.12851314918357803,-0.640829,-16.319173
11.185,2.0,1.0,1.0,34.0,33.2,33.2,1.6,3.3,2.81,-0.5726503061398774,-0.0816883340716594,0.728451126912554,-0.13405939398560868,-0.662246,-16.082729
11.185,2.0,1.0,1.0,34.0,33.2,33.2,1.6,3.3,2.8125,-0.588221692207253,-0.080576358679072,0.712833722546993,-0.139802707177159,-0.684726,-15.844033
11.185,2.0,1.0,1.0,34.0,33.2,33.2,1.6,3.3,2.815,-0.6035651999603867,-0.07925081725513454,0.6965729253111698,-0.1457473547538833,-0.708342,-15.603045
11.185,2.0,1.0,1.0,34.0,33.2,33.2,1.6,3.3,2.8175,-0.6186515862913559,-0.07769327090463729,0.6796560843641312,-0.15189726978999235,-0.73317,-15.359723
11.185,2.0,1.0,1.0,34.0,33.2,33.2,1.6,3.3,2.82,-0.6334496094673852,-0.07588383516584009,0.6620710207839873,-0.15825596801725766,-0.759294,-15.114026
11.185,2.0,1.0,1.0,34.0,33.2,33.2,1.6,3.3,2.8225,-0.6479259032447752,-0.07380107123787025,0.6438061451203966,-0.16482644972382424,-0.786807,-14.865912
11.185,2.0,1.0,1.0,34.0,33.2,33.2,1.6,3.3,2.825,-0.6620448442349176,-0.07142187040459506,0.6248505920404408,-0.17161108589467408,-0.815808,-14.615337
11.185,2.0,1.0,1.0,34.0,33.2,33.2,1.6,3.3,2.8275,-0.6757684126092917,-0.0687213316845978,0.6051943745048751,-0.17861148620620568,-0.846407,-14.362261
