1,w,sub_t,h,l1,l2,l3,g1,g2,Freq,S11_re,S21_re,S11_img,S21_img,S11_dB,S21_dB
11.185,2.0,1.0,1.0,34.5,34.8,34.8,2.8,4.2,2.5,0.694417927919228,-0.012986258263614,0.706956168921931,0.00498509519352779,-0.078871,-37.133323
11.185,2.0,1.0,1.0,34.5,34.8,34.8,2.8,4.2,2.5025,0.6884867650084815,-0.013242786618735543,0.7125724889040607,0.00494889947296934,-0.079887,-36.992676
11.185,2.0,1.0,1.0,34.5,34.8,34.8,2.8,4.2,2.505,0.682474461716114,-0.01350469744431407,0.718169417553921,0.004909744840997991,-0.080926,-36.851169
11.185,2.0,1.0,1.0,34.5,34.8,34.8,2.8,4.2,2.5075,0.6763801022273451,-0.013772139460414211,0.7237461240413688,0.004867506248037294,-0.081989,-36.70878
11.185,2.0,1.0,1.0,34.5,34.8,34.8,2.8,4.2,2.51,0.6702027562788574,-0.014045267067943398,0.7293017515764684,0.004822052715054406,-0.083076,-36.565486
11.185,2.0,1.0,1.0,34.5,34.8,34.8,2.8,4.2,2.5125,0.6639414788747942,-0.014324240632377779,0.7348354164918439,0.00477324699312595,-0.084189,-36.421266
11.185,2.0,1.0,1.0,34.5,34.8,34.8,2.8,4.2,2.515,0.6575953099914298,-0.014609226785071368,0.7403462072849585,0.004720945199446297,-0.085329,-36.276094
11.185,2.0,1.0,1.0,34.5,34.8,34.8,2.8,4.2,2.5175,0.6511632742696151,-0.014900398743439486,0.74583318361792,0.004664996427848309,-0.086495,-36.129947
11.185,2.0,1.0,1.0,34.5,34.8,34.8,2.8,4.2,2.52,0.6446443806939498,-0.015197936651416647,0.7512953752722141,0.004605242331723997,-0.08769,-35.982798
11.185,2.0,1.0,1.0,34.5,34.8,34.8,2.8,4.2,2.5225,0.6380376222576069,-0.015502027941707386,0.7567317810555446,0.004541516677029702,-0.088914,-35.834623
11.185,2.0,1.0,1.0,34.5,34.8,34.8,2.8,4.2,2.525,0.6313419756115433,-0.015812867721479714,0.7621413676577394,0.0044736448628357375,-0.090168,-35.685393
11.185,2.0,1.0,1.0,34.5,34.8,34.8,2.8,4.2,2.5275,0.6245564006967609,-0.016130659183292668,0.7675230684523915,0.004401443406630703,-0.091453,-35.535081
11.185,2.0,1.0,1.0,34.5,34.8,34.8,2.8,4.2,2.53,0.6176798403581261,-0.016455614043205287,0.772875782240633,0.004324719391313724,-0.09277,-35.383658
11.185,2.0,1.0,1.0,34.5,34.8,34.8,2.8,4.2,2.5325,0.6107112199380983,-0.01678795300818786,0.7781983719331,0.004243269870499015,-0.094121,-35.231094
11.185,2.0,1.0,1.0,34.5,34.8,34.8,2.8,4.2,2.535,0.6036494468485488,-0.017127906275142206,0.7834896631657979,0.004156881228413113,-0.095507,-35.077359
11.185,2.0,1.0,1.0,34.5,34.8,34.8,2.8,4.2,2.5375,0.5964934101186835,-0.017475714064047455,0.7887484428451635,0.004065328490282161,-0.096929,-34.92242
11.185,2.0,1.0,1.0,34.5,34.8,34.8,2.8,4.2,2.54,0.5892419799168457,-0.017831627187973757,0.7939734576171842,0.003968374578677313,-0.098388,-34.766244
11.185,2.0,1.0,1.0,34.5,34.8,34.8,2.8,4.2,2.5425,0.5818940070437639,-0.018195907662958272,0.7991634122549357,0.0038657695108076044,-0.099886,-34.608797
11.185,2.0,1.0,1.0,34.5,34.8,34.8,2.8,4.2,2.545,0.5744483223945496,-0.01856882936101381,0.8043169679583312,0.003757249531212771,-0.101425,-34.450043
11.185,2.0,1.0,1.0,34.5,34.8,34.8,2.8,4.2,2.5475,0.566903736386474,-0.018950678709845445,0.8094327405592655,0.00364253617370644,-0.103005,-34.289947
11.185,2.0,1.0,1.0,34.5,34.8,34.8,2.8,4.2,2.55,0.5592590383492121,-0.01934175544318677,0.8145092986246436,0.003521335245743794,-0.104629,-34.128468
11.185,2.0,1.0,1.0,34.5,34.8,34.8,2.8,4.2,2.5525,0.5515129958739385,-0.01974237340603767,0.8195451614489729,0.0033933357276281,-0.106299,-33.965568
11.185,2.0,1.0,1.0,34.5,34.8,34.8,2.8,4.2,2.555,0.5436643541172184,-0.020152861419498038,0.8245387969273533,0.0032582085781131297,-0.108016,-33.801205
11.185,2.0,1.0,1.0,34.5,34.8,34.8,2.8,4.2,2.5575,0.5357118350552438,-0.020573564210344095,0.8294886192986882,0.003115605436992921,-0.109782,-33.635336
11.185,2.0,1.0,1.0,34.5,34.8,34.8,2.8,4.2,2.56,0.5276541366834742,-0.021004843410995778,0.8343929867478197,0.0029651572141787923,-0.1116,-33.467917
11.185,2.0,1.0,1.0,34.5,34.8,34.8,2.8,4.2,2.5625,0.519489932156197,-0.0214470786360822,0.839250198854031,0.00280647255352806,-0.113471,-33.298901
11.185,2.0,1.0,1.0,34.5,34.8,34.8,2.8,4.2,2.565,0.5112178688599324,-0.02190066864242666,0.8440584938719474,0.0026391361582890805,-0.115398,-33.12824
11.185,2.0,1.0,1.0,34.5,34.8,34.8,2.8,4.2,2.5675,0.5028365674139621,-0.02236603257995747,0.8488160458291962,0.0024627069634383684,-0.117384,-32.955884
11.185,2.0,1.0,1.0,34.5,34.8,34.8,2.8,4.2,2.57,0.4943446205904917,-0.02284361134180977,0.8535209614234139,0.002276716138377282,-0.119431,-32.781778
11.185,2.0,1.0,1.0,34.5,34.8,34.8,2.8,4.2,2.5725,0.4857405921461481,-0.023333869022726994,0.8581712766990265,0.002080664901397513,-0.121542,-32.60587
11.185,2.0,1.0,1.0,34.5,34.8,34.8,2.8,4.2,2.575,0.4770230155556055,-0.023837294495804854,0.8627649534818828,0.0018740221249744966,-0.12372,-32.428101
11.185,2.0,1.0,1.0,34.5,34.8,34.8,2.8,4.2,2.5775,0.46819039263708345,-0.024354403118665404,0.8672998755470714,0.0016562217082610258,-0.125968,-32.248412
11.185,2.0,1.0,1.0,34.5,34.8,34.8,2.8,4.2,2.58,0.459241192058347,-0.02488573858130208,0.8717738444921325,0.0014266596900762512,-0.12829,-32.066739
11.185,2.0,1.0,1.0,34.5,34.8,34.8,2.8,4.2,2.5825,0.4501738477105253,-0.025431874909129133,0.8761845752842912,0.001184691072151956,-0.130689,-31.883019
11.185,2.0,1.0,1.0,34.5,34.8,34.8,2.8,4.2,2.585,0.4409867569356782,-0.025993418636197495,0.8805296914462236,0.0009296263183368494,-0.13317,-31.697181
11.185,2.0,1.0,1.0,34.5,34.8,34.8,2.8,4.2,2.5875,0.4316782785924164,-0.026571011165139387,0.8848067198401272,0.0006607274907772671,-0.135736,-31.509154
11.185,2.0,1.0,1.0,34.5,34.8,34.8,2.8,4.2,2.59,0.42224673094213355,-0.027165331332172596,0.8890130850043773,0.0003772039786873812,-0.138391,-31.318863
11.185,2.0,1.0,1.0,34.5,34.8,34.8,2.8,4.2,2.5925,0.4126903893363996,-0.027777098197477874,0.8931461029907523,7.820776906442155e-05,-0.141142,-31.126228
11.185,2.0,1.0,1.0,34.5,34.8,34.8,2.8,4.2,2.595,0.4030074836838873,-0.028407074083451566,0.8972029746428316,-0.00023717179855154073,-0.143992,-30.931167
11.185,2.0,1.0,1.0,34.5,34.8,34.8,2.8,4.2,2.5975,0.3931961956727056,-0.029056067885784635,0.9011807782476797,-0.0005699138596124405,-0.146948,-30.733593
11.185,2.0,1.0,1.0,34.5,34.8,34.8,2.8,4.2,2.6,0.3832546557212998,-0.029724938685022753,0.9050764614829728,-0.0009210725105616826,-0.150015,-30.533413
11.185,2.0,1.0,1.0,34.5,34.8,34.8,2.8,4.2,2.6025,0.3731809396280287,-0.030414599689272348,0.908886832570124,-0.0012917840409540724,-0.1532,-30.330531
11.185,2.0,1.0,1.0,34.5,34.8,34.8,2.8,4.2,2.605,0.3629730648861235,-0.031126022542039326,0.9126085505304018,-0.001683275012803764,-0.15651,-30.124845
11.185,2.0,1.0,1.0,34.5,34.8,34.8,2.8,4.2,2.6075,0.3526289866270252,-0.03186024203286032,0.9162381144250764,-0.0020968713040602,-0.159953,-29.916247
11.185,2.0,1.0,1.0,34.5,34.8,34.8,2.8,4.2,2.61,0.3421465931509503,-0.03261836125241854,0.9197718514418823,-0.0025340082517053756,-0.163536,-29.704625
11.185,2.0,1.0,1.0,34.5,34.8,34.8,2.8,4.2,2.6125,0.331523700998993,-0.03340155723826281,0.9232059036679379,-0.002996242051915701,-0.167269,-29.489859
11.185,2.0,1.0,1.0,34.5,34.8,34.8,2.8,4.2,2.615,0.3207580495161259,-0.03421108716205599,0.9265362133630772,-0.0034852626007167375,-0.171162,-29.271821
11.185,2.0,1.0,1.0,34.5,34.8,34.8,2.8,4.2,2.6175,0.30984729484909007,-0.03504829511447887,0.9297585065164189,-0.004002907989411997,-0.175224,-29.050378
11.185,2.0,1.0,1.0,34.5,34.8,34.8,2.8,4.2,2.62,0.29878900331738645,-0.035914619549471186,0.9328682744319842,-0.004551180905811332,-0.179468,-28.825387
11.185,2.0,1.0,1.0,34.5,34.8,34.8,2.8,4.2,2.6225,0.287580644089452,-0.036811601455346045,0.9358607530449393,-0.005132267236180601,-0.183907,-28.596698
11.185,2.0,1.0,1.0,34.5,34.8,34.8,2.8,4.2,2.625,0.276219581089765,-0.0377408933263533,0.938730899617015,-0.00574855721544023,-0.188553,-28.36415
11.185,2.0,1.0,1.0,34.5,34.8,34.8,2.8,4.2,2.6275,0.2647030640561436,-0.038704269014326484,0.941473366395956,-0.006402669536404178,-0.193424,-28.127573
11.185,2.0,1.0,1.0,34.5,34.8,34.8,2.8,4.2,2.63,0.2530282186602492,-0.03970363454582945,0.944082470746944,-0.007097478905176147,-0.198534,-27.886784
11.185,2.0,1.0,1.0,34.5,34.8,34.8,2.8,4.2,2.6325,0.24119203559864766,-0.040741039995315774,0.9465521611708706,-0.007836147622248553,-0.203904,-27.641592
11.185,2.0,1.0,1.0,34.5,34.8,34.8,2.8,4.2,2.635,0.22919135855725958,-0.04181869250858657,0.9488759785111995,-0.008622161881174213,-0.209553,-27.391789
11.185,2.0,1.0,1.0,34.5,34.8,34.8,2.8,4.2,2.6375,0.21702287094969458,-0.04293897057235449,0.9510470115131858,-0.009459373613708202,-0.215504,-27.137154
11.185,2.0,1.0,1.0,34.5,34.8,34.8,2.8,4.2,2.64,0.20468308133093455,-0.0441044396236488,0.9530578457302332,-0.01035204887813214,-0.221784,-26.877451
11.185,2.0,1.0,1.0,34.5,34.8,34.8,2.8,4.2,2.6425,0.19216830739423948,-0.045317869085164976,0.9549005045644019,-0.01130492399381366,-0.22842,-26.612427
11.185,2.0,1.0,1.0,34.5,34.8,34.8,2.8,4.2,2.645,0.17947465847354216,-0.046582250896665796,0.956566380971532,-0.012323270879829266,-0.235444,-26.34181
11.185,2.0,1.0,1.0,34.5,34.8,34.8,2.8,4.2,2.6475,0.1665980165001492,-0.04790081958411234,0.9580461580433532,-0.01341297337139613,-0.242892,-26.065307
11.185,2.0,1.0,1.0,34.5,34.8,34.8,2.8,4.2,2.65,0.15353401540689476,-0.04927707386150273,0.9593297162827301,-0.014580616681322626,-0.250804,-25.782605
11.185,2.0,1.0,1.0,34.5,34.8,34.8,2.8,4.2,2.6525,0.14027801904349949,-0.05071479968700365,0.9604060248924656,-0.015833592665946826,-0.259225,-25.493363
11.185,2.0,1.0,1.0,34.5,34.8,34.8,2.8,4.2,2.655,0.12682509777547657,-0.05221809458272843,0.96126301377493,-0.017180224173775807,-0.268208,-25.197214
11.185,2.0,1.0,1.0,34.5,34.8,34.8,2.8,4.2,2.6575,0.11317000410341692,-0.05379139285883018,0.9618874221527226,-0.018629912536441962,-0.27781,-24.893762
11.185,2.0,1.0,1.0,34.5,34.8,34.8,2.8,4.2,2.66,0.09930714788475888,-0.05543949113187948,0.962264618721591,-0.020193313253238046,-0.288099,-24.582577
11.185,2.0,1.0,1.0,34.5,34.8,34.8,2.8,4.2,2.6625,0.08523057210366466,-0.057167573157446715,0.9623783869726281,-0.02188254618514415,-0.299153,-24.263189
11.185,2.0,1.0,1.0,34.5,34.8,34.8,2.8,4.2,2.665,0.07093393067067319,-0.058981232452640475,0.9622106676873206,-0.023711448195131466,-0.311058,-23.935092
11.185,2.0,1.0,1.0,34.5,34.8,34.8,2.8,4.2,2.6675,0.05641047052291447,-0.06088649038526786,0.9617412485045069,-0.02569587825931931,-0.32392,-23.597728
11.185,2.0,1.0,1.0,34.5,34.8,34.8,2.8,4.2,2.67,0.04165302145738932,-0.06288980623229715,0.9609473877334173,-0.027854087776110207,-0.337856,-23.250491
11.185,2.0,1.0,1.0,34.5,34.8,34.8,2.8,4.2,2.6725,0.0266539988430611,-0.06499807398204119,0.9598033560415349,-0.03020717231557283,-0.353007,-22.892716
11.185,2.0,1.0,1.0,34.5,34.8,34.8,2.8,4.2,2.675,0.011405426892112078,-0.06721859810173843,0.9582798750117988,-0.03277962564433561,-0.369537,-22.523673
11.185,2.0,1.0,1.0,34.5,34.8,34.8,2.8,4.2,2.6775,-0.004101006063622132,-0.06955903670476245,0.9563434254805329,-0.035600022887562775,-0.387643,-22.142559
11.185,2.0,1.0,1.0,34.5,34.8,34.8,2.8,4.2,2.68,-0.019873843220040127,-0.07202729490133739,0.9539553905538891,-0.038701867624210885,-0.407554,-21.748488
11.185,2.0,1.0,1.0,34.5,34.8,34.8,2.8,4.2,2.6825,-0.035921680345784746,-0.07463134263287918,0.9510709876164651,-0.042124648185074984,-0.42955,-21.340482
11.185,2.0,1.0,1.0,34.5,34.8,34.8,2.8,4.2,2.685,-0.052252873897909106,-0.07737891845954924,0.947637929651488,-0.04591516226040241,-0.453967,-20.917456
11.185,2.0,1.0,1.0,34.5,34.8,34.8,2.8,4.2,2.6875,-0.0688750783476769,-0.0802770612107334,0.943594737712532,-0.0501291871787668,-0.481213,-20.478208
11.185,2.0,1.0,1.0,34.5,34.8,34.8,2.8,4.2,2.69,-0.08579452479204396,-0.08333138133137821,0.9388686021064004,-0.054833597175155034,-0.511789,-20.021401
11.185,2.0,1.0,1.0,34.5,34.8,34.8,2.8,4.2,2.6925,-0.10301490623243492,-0.08654493708430834,0.933372658297148,-0.06010906004406548,-0.546316,-19.545548
11.185,2.0,1.0,1.0,34.5,34.8,34.8,2.8,4.2,2.695,-0.12053566169061349,-0.0899165076526261,0.9270025034263183,-0.06605348499588021,-0.585569,-19.04899
11.185,2.0,1.0,1.0,34.5,34.8,34.8,2.8,4.2,2.6975,-0.13834933544119138,-0.09343793954528705,0.9196317304295514,-0.07278644142699761,-0.630527,-18.529883
11.185,2.0,1.0,1.0,34.5,34.8,34.8,2.8,4.2,2.7,-0.15643750248703805,-0.09709005811182422,0.911106202020222,-0.08045482150707997,-0.682436,-17.986177
11.185,2.0,1.0,1.0,34.5,34.8,34.8,2.8,4.2,2.7025,-0.17476445311976466,-0.10083633884654018,0.9012367376343136,-0.0892400664144267,-0.742908,-17.415601
11.185,2.0,1.0,1.0,34.5,34.8,34.8,2.8,4.2,2.705,-0.19326734579212945,-0.1046130518806049,0.8897898739916315,-0.09936728517941343,-0.814045,-16.815663
11.185,2.0,1.0,1.0,34.5,34.8,34.8,2.8,4.2,2.7075,-0.2118407513123992,-0.10831381146007389,0.8764764612019914,-0.11111648904810427,-0.898627,-16.18366
11.185,2.0,1.0,1.0,34.5,34.8,34.8,2.8,4.2,2.71,-0.2303122384213054,-0.111765198301575,0.860938251517745,-0.12483576253512586,-1.000382,-15.516736
11.185,2.0,1.0,1.0,34.5,34.8,34.8,2.8,4.2,2.7125,-0.24840362432591923,-0.11468811381157357,0.84273373609357,-0.14095508597976417,-1.124364,-14.812006
11.185,2.0,1.0,1.0,34.5,34.8,34.8,2.8,4.2,2.715,-0.26566942320944903,-0.11663646842121275,0.8213271936785655,-0.15999680874652333,-1.277513,-14.066802
11.185,2.0,1.0,1.0,34.5,34.8,34.8,2.8,4.2,2.7175,-0.2813997812425619,-0.11690062550777904,0.796091186132553,-0.18257250447517534,-1.469427,-13.279162
11.185,2.0,1.0,1.0,34.5,34.8,34.8,2.8,4.2,2.72,-0.2944709394930902,-0.1143588898766575,0.7663465516162368,-0.2093421656048882,-1.7134,-12.448717
11.185,2.0,1.0,1.0,34.5,34.8,34.8,2.8,4.2,2.7225,-0.3031276597989218,-0.10726190882861796,0.7314925413477887,-0.2408832551675976,-2.027548,-11.578286
11.185,2.0,1.0,1.0,34.5,34.8,34.8,2.8,4.2,2.725,-0.3047080752252655,-0.09296110168717399,0.6913325476370433,-0.277364779313586,-2.435254,-10.676633
11.185,2.0,1.0,1.0,34.5,34.8,34.8,2.8,4.2,2.7275,-0.29542305326976764,-0.06769382678416831,0.646774344006915,-0.317849135730273,-2.962,-9.762928
11.185,2.0,1.0,1.0,34.5,34.8,34.8,2.8,4.2,2.73,-0.2705768752660627,-0.026811351973910727,0.6010955894688889,-0.3590345674200773,-3.619825,-8.873123
11.185,2.0,1.0,1.0,34.5,34.8,34.8,2.8,4.2,2.7325,-0.22610088421202712,0.033684514741303816,0.5615916630983526,-0.3936260065370931,-4.35918,-8.066637
11.185,2.0,1.0,1.0,34.5,34.8,34.8,2.8,4.2,2.735,-0.16237709770501593,0.11333445058853685,0.5400757513931624,-0.40986276335316785,-4.975071,-7.427243
11.185,2.0,1.0,1.0,34.5,34.8,34.8,2.8,4.2,2.7375,-0.08907744766540027,0.20243347058971445,0.5489421080636282,-0.39546623391910785,-5.096591,-7.047126
11.185,2.0,1.0,1.0,34.5,34.8,34.8,2.8,4.2,2.74,-0.024802560233242243,0.28244942017436786,0.5920237993258117,-0.34673174676989477,-4.545601,-6.989687
11.185,2.0,1.0,1.0,34.5,34.8,34.8,2.8,4.2,2.7425,0.013106505064403634,0.3361946909069042,0.6588264751563039,-0.2741992411693563,-3.622861,-7.253525
11.185,2.0,1.0,1.0,34.5,34.8,34.8,2.8,4.2,2.745,0.019418717085278064,0.35857790451673094,0.7311715978382157,-0.19597589662673892,-2.716552,-7.773234
11.185,2.0,1.0,1.0,34.5,34.8,34.8,2.8,4.2,2.7475,0.0005235616346518598,0.3560438621883401,0.7948213675930555,-0.12617441670627894,-1.994607,-8.456149
11.185,2.0,1.0,1.0,34.5,34.8,34.8,2.8,4.2,2.75,-0.0334399637098229,0.338714999507718,0.843933020476357,-0.0705306518367229,-1.467027,-9.218971
11.185,2.0,1.0,1.0,34.5,34.8,34.8,2.8,4.2,2.7525,-0.07421823656774856,0.3148001785967116,0.8786189362024007,-0.028866182872524883,-1.09311,-10.002936
11.185,2.0,1.0,1.0,34.5,34.8,34.8,2.8,4.2,2.755,-0.1167535850329787,0.28931275411337243,0.9013953991735154,0.0013700978964194574,-0.829437,-10.772551
11.185,2.0,1.0,1.0,34.5,34.8,34.8,2.8,4.2,2.7575,-0.15846215100507813,0.26480212018010524,0.9150972908383117,0.023031573558675626,-0.642342,-11.50884
11.185,2.0,1.0,1.0,34.5,34.8,34.8,2.8,4.2,2.76,-0.19824273283486554,0.24234483329998782,0.9221018003488354,0.03850770326797591,-0.508189,-12.203035
11.185,2.0,1.0,1.0,34.5,34.8,34.8,2.8,4.2,2.7625,-0.23576990762055455,0.22224886512731917,0.9241925990041039,0.04959338495917974,-0.410925,-12.852172
11.185,2.0,1.0,1.0,34.5,34.8,34.8,2.8,4.2,2.765,-0.27108432856040804,0.20446074954352472,0.9226444290253519,0.05757581324326917,-0.339712,-13.456389
11.185,2.0,1.0,1.0,34.5,34.8,34.8,2.8,4.2,2.7675,-0.30437814269879426,0.1887782909440081,0.9183493062969963,0.06336153934831712,-0.287188,-14.017357
11.185,2.0,1.0,1.0,34.5,34.8,34.8,2.8,4.2,2.77,-0.3358898296058186,0.1749544777017628,0.91192641561211,0.067586629396606,-0.248294,-14.537409
11.185,2.0,1.0,1.0,34.5,34.8,34.8,2.8,4.2,2.7725,-0.3658559901882569,0.16274488677320192,0.9038044932009685,0.07069910111722827,-0.219505,-15.019065
11.185,2.0,1.0,1.0,34.5,34.8,34.8,2.8,4.2,2.775,-0.3944914767266445,0.15192702806158118,0.8942799819950396,0.0730170913631555,-0.198329,-15.464781
11.185,2.0,1.0,1.0,34.5,34.8,34.8,2.8,4.2,2.7775,-0.42198308515165606,0.14230629584663704,0.8835570598780358,0.07476892195323154,-0.182979,-15.876827
11.185,2.0,1.0,1.0,34.5,34.8,34.8,2.8,4.2,2.78,-0.4484894010339079,0.1337158634636771,0.8717749431298487,0.07612049098554562,-0.172159,-16.257236
11.185,2.0,1.0,1.0,34.5,34.8,34.8,2.8,4.2,2.7825,-0.47414317041086274,0.12601410396379176,0.8590264902751792,0.0771940233292505,-0.164918,-16.607778
11.185,2.0,1.0,1.0,34.5,34.8,34.8,2.8,4.2,2.785,-0.49905446647737267,0.11908123560726018,0.8453709097710067,0.07808098700682821,-0.160548,-16.929967
11.185,2.0,1.0,1.0,34.5,34.8,34.8,2.8,4.2,2.7875,-0.5233138649883915,0.11281595843309913,0.83084246776744,0.07885107448905941,-0.158524,-17.225069
11.185,2.0,1.0,1.0,34.5,34.8,34.8,2.8,4.2,2.79,-0.5469953006794509,0.10713239352488231,0.8154564634774313,0.07955852069216486,-0.15845,-17.494115
11.185,2.0,1.0,1.0,34.5,34.8,34.8,2.8,4.2,2.7925,-0.5701584952305395,0.10195742034222603,0.7992133166703174,0.08024660875406568,-0.160029,-17.737912
11.185,2.0,1.0,1.0,34.5,34.8,34.8,2.8,4.2,2.795,-0.5928509456253184,0.09722840911768728,0.7821013302714949,0.08095093589413405,-0.163039,-17.957059
11.185,2.0,1.0,1.0,34.5,34.8,34.8,2.8,4.2,2.7975,-0.6151095010504617,0.09289130437674277,0.7640985037984426,0.08170182754669043,-0.167318,-18.151955
11.185,2.0,1.0,1.0,34.5,34.8,34.8,2.8,4.2,2.8,-0.6369615671320525,0.08889900183121427,0.7451736480448042,0.08252616622208649,-0.172749,-18.32281
11.185,2.0,1.0,1.0,34.5,34.8,34.8,2.8,4.2,2.8025,-0.658425973325515,0.08520995907698564,0.7252869665509565,0.08344882083525577,-0.179252,-18.469647
11.185,2.0,1.0,1.0,34.5,34.8,34.8,2.8,4.2,2.805,-0.6795135298614405,0.08178698313787125,0.7043902108689898,0.08449380861811308,-0.186779,-18.592308
11.185,2.0,1.0,1.0,34.5,34.8,34.8,2.8,4.2,2.8075,-0.7002272879900009,0.07859614114815608,0.6824264752010982,0.0856852861532981,-0.195311,-18.690451
11.185,2.0,1.0,1.0,34.5,34.8,34.8,2.8,4.2,2.81,-0.7205625024310105,0.07560574237481246,0.6593296655771264,0.08704844265541367,-0.204853,-18.763554
11.185,2.0,1.0,1.0,34.5,34.8,34.8,2.8,4.2,2.8125,-0.740506277788667,0.0727853391472778,0.635023655294562,0.0886103535423144,-0.215435,-18.810907
11.185,2.0,1.0,1.0,34.5,34.8,34.8,2.8,4.2,2.815,-0.7600368602794376,0.07010469009841223,0.6094211191646587,0.0904008430360013,-0.227108,-18.831606
11.185,2.0,1.0,1.0,34.5,34.8,34.8,2.8,4.2,2.8175,-0.7791225107762914,0.06753262027757208,0.5824220223940979,0.0924533992489777,-0.239953,-18.824541
11.185,2.0,1.0,1.0,34.5,34.8,34.8,2.8,4.2,2.82,-0.79771986238549,0.06503569756578806,0.5539117245754971,0.09480618259263346,-0.254076,-18.78839
11.185,2.0,1.0,1.0,34.5,34.8,34.8,2.8,4.2,2.8225,-0.8157716219023619,0.06257662099576915,0.5237586448053636,0.09750316709462643,-0.269616,-18.721601
11.185,2.0,1.0,1.0,34.5,34.8,34.8,2.8,4.2,2.825,-0.8332034142517728,0.06011218040082155,0.49181142075272744,0.1005954526838617,-0.286748,-18.622371
11.185,2.0,1.0,1.0,34.5,34.8,34.8,2.8,4.2,2.8275,-0.8499194846664925,0.05759059273189118,0.4578954842034349,0.10414278206826497,-0.305695,-18.488633
11.185,2.0,1.0,1.0,34.5,34.8,34.8,2.8,4.2,2.83,-0.8657968534720004,0.054947939962944344,0.42180897209226187,0.10821528381491566,-0.326734,-18.318024
