1,w,sub_t,h,l1,l2,l3,g1,g2,Freq,S11_re,S21_re,S11_img,S21_img,S11_dB,S21_dB
11.185,2.0,1.0,1.0,33.4,33.2,33.2,2.4,2.3,2.5,0.857778955162998,-0.00919287770157516,0.50130766581966,0.00897526252874632,-0.056414,-37.823467
11.185,2.0,1.0,1.0,33.4,33.2,33.2,2.4,2.3,2.5025,0.8544005767745314,-0.009384509075439576,0.5069232613715531,0.009027850313378842,-0.056954,-37.706482
11.185,2.0,1.0,1.0,33.4,33.2,33.2,2.4,2.3,2.505,0.8509704344983806,-0.009579690184190817,0.5125389251360626,0.009079844821409593,-0.057502,-37.589168
11.185,2.0,1.0,1.0,33.4,33.2,33.2,2.4,2.3,2.5075,0.8474880093901187,-0.009778493848123794,0.518154427306271,0.009131210218401159,-0.058061,-37.47152
11.185,2.0,1.0,1.0,33.4,33.2,33.2,2.4,2.3,2.51,0.84395277399384,-0.009980994700214085,0.5237695309299153,0.009181909216241133,-0.058629,-37.353528
11.185,2.0,1.0,1.0,33.4,33.2,33.2,2.4,2.3,2.5125,0.840364192194614,-0.010187269238376291,0.5293839916697511,0.00923190301183653,-0.059208,-37.235187
11.185,2.0,1.0,1.0,33.4,33.2,33.2,2.4,2.3,2.515,0.8367217190685226,-0.010397395879409964,0.534997557555698,0.009281151223008155,-0.059797,-37.116488
11.185,2.0,1.0,1.0,33.4,33.2,33.2,2.4,2.3,2.5175,0.8330248007302801,-0.010611455014692713,0.5406099687284457,0.009329611821443802,-0.060396,-36.997424
11.185,2.0,1.0,1.0,33.4,33.2,33.2,2.4,2.3,2.52,0.8292728741783911,-0.01082952906768244,0.5462209571742129,0.009377241062562259,-0.061007,-36.877986
11.185,2.0,1.0,1.0,33.4,33.2,33.2,2.4,2.3,2.5225,0.8254653671378466,-0.011051702553292601,0.5518302464503021,0.009423993412130727,-0.061629,-36.758168
11.185,2.0,1.0,1.0,33.4,33.2,33.2,2.4,2.3,2.525,0.8216016979003229,-0.01127806213920744,0.557437551401118,0.00946982146947041,-0.062262,-36.637961
11.185,2.0,1.0,1.0,33.4,33.2,33.2,2.4,2.3,2.5275,0.817681275161869,-0.011508696709206201,0.5630425778642767,0.009514675887074886,-0.062907,-36.517357
11.185,2.0,1.0,1.0,33.4,33.2,33.2,2.4,2.3,2.53,0.8137034978580703,-0.011743697428567589,0.568645022366418,0.009558505286456725,-0.063564,-36.396349
11.185,2.0,1.0,1.0,33.4,33.2,33.2,2.4,2.3,2.5325,0.8096677549966682,-0.011983157811629072,0.5742445718083313,0.009601256170026185,-0.064233,-36.274927
11.185,2.0,1.0,1.0,33.4,33.2,33.2,2.4,2.3,2.535,0.8055734254876199,-0.012227173791578025,0.5798409031389737,0.009642872828795885,-0.064915,-36.153084
11.185,2.0,1.0,1.0,33.4,33.2,33.2,2.4,2.3,2.5375,0.8014198779705962,-0.012475843792553988,0.5854336830179453,0.009683297245692191,-0.065609,-36.03081
11.185,2.0,1.0,1.0,33.4,33.2,33.2,2.4,2.3,2.54,0.797206470639898,-0.012729268804145493,0.5910225674659679,0.009722468994242148,-0.066317,-35.908099
11.185,2.0,1.0,1.0,33.4,33.2,33.2,2.4,2.3,2.5425,0.7929325510667877,-0.0129875524583666,0.5966072015028971,0.009760325132390986,-0.067039,-35.78494
11.185,2.0,1.0,1.0,33.4,33.2,33.2,2.4,2.3,2.545,0.7885974560192316,-0.013250801109202372,0.6021872187727664,0.009796800091190484,-0.067775,-35.661326
11.185,2.0,1.0,1.0,33.4,33.2,33.2,2.4,2.3,2.5475,0.7842005112790557,-0.01351912391481488,0.6077622411553426,0.009831825558083958,-0.068525,-35.537246
11.185,2.0,1.0,1.0,33.4,33.2,33.2,2.4,2.3,2.55,0.7797410314565022,-0.01379263292250566,0.6133318783636629,0.00986533035449641,-0.06929,-35.412693
11.185,2.0,1.0,1.0,33.4,33.2,33.2,2.4,2.3,2.5525,0.7752183198022122,-0.014071443156532443,0.6188957275269664,0.009897240307421338,-0.070069,-35.287657
11.185,2.0,1.0,1.0,33.4,33.2,33.2,2.4,2.3,2.555,0.7706316680166239,-0.014355672708883315,0.6244533727584409,0.00992747811467727,-0.070865,-35.162128
11.185,2.0,1.0,1.0,33.4,33.2,33.2,2.4,2.3,2.5575,0.7659803560568049,-0.014645442833113306,0.6300043847071626,0.00995596320348691,-0.071676,-35.036098
11.185,2.0,1.0,1.0,33.4,33.2,33.2,2.4,2.3,2.56,0.7612636519407414,-0.014940878041353179,0.6355483200935669,0.009982611582010898,-0.072504,-34.909557
11.185,2.0,1.0,1.0,33.4,33.2,33.2,2.4,2.3,2.5625,0.7564808115490925,-0.01524210620460332,0.6410847212277758,0.010007335683445237,-0.073348,-34.782494
11.185,2.0,1.0,1.0,33.4,33.2,33.2,2.4,2.3,2.565,0.7516310784244447,-0.01554925865642994,0.6466131155100675,0.010030044202267935,-0.074209,-34.654901
11.185,2.0,1.0,1.0,33.4,33.2,33.2,2.4,2.3,2.5675,0.7467136835680952,-0.01586247030018404,0.6521330149127291,0.010050641922193612,-0.075089,-34.526766
11.185,2.0,1.0,1.0,33.4,33.2,33.2,2.4,2.3,2.57,0.7417278452343988,-0.016181879719868206,0.6576439154425127,0.010069029535368503,-0.075986,-34.39808
11.185,2.0,1.0,1.0,33.4,33.2,33.2,2.4,2.3,2.5725,0.7366727687227211,-0.01650762929477991,0.6631452965828692,0.010085103452307592,-0.076902,-34.268833
11.185,2.0,1.0,1.0,33.4,33.2,33.2,2.4,2.3,2.575,0.7315476461670505,-0.016839865318064248,0.6686366207150867,0.010098755602044786,-0.077838,-34.139014
11.185,2.0,1.0,1.0,33.4,33.2,33.2,2.4,2.3,2.5775,0.7263516563233223,-0.01717873811931271,0.6741173325174271,0.010109873221933166,-0.078793,-34.008611
11.185,2.0,1.0,1.0,33.4,33.2,33.2,2.4,2.3,2.58,0.7210839643545253,-0.017524402191349132,0.6795868583412997,0.010118338636495805,-0.079768,-33.877615
11.185,2.0,1.0,1.0,33.4,33.2,33.2,2.4,2.3,2.5825,0.7157437216136564,-0.017877016321348076,0.6850446055634705,0.010124029024689268,-0.080764,-33.746014
11.185,2.0,1.0,1.0,33.4,33.2,33.2,2.4,2.3,2.585,0.7103300654246135,-0.01823674372643421,0.690489961913236,0.010126816174900284,-0.081782,-33.613797
11.185,2.0,1.0,1.0,33.4,33.2,33.2,2.4,2.3,2.5875,0.7048421188611114,-0.018603752193916502,0.6959222947734717,0.010126566226951152,-0.082822,-33.480953
11.185,2.0,1.0,1.0,33.4,33.2,33.2,2.4,2.3,2.59,0.6992789905237347,-0.018978214226313427,0.7013409504543466,0.010123139400342325,-0.083884,-33.347469
11.185,2.0,1.0,1.0,33.4,33.2,33.2,2.4,2.3,2.5925,0.6936397743152278,-0.01936030719133072,0.7067452534385057,0.010116389707908308,-0.08497,-33.213334
11.185,2.0,1.0,1.0,33.4,33.2,33.2,2.4,2.3,2.595,0.6879235492141709,-0.019750213476955217,0.7121345055963828,0.010106164654008912,-0.086081,-33.078535
11.185,2.0,1.0,1.0,33.4,33.2,33.2,2.4,2.3,2.5975,0.6821293790471616,-0.02014812065183332,0.7175079853702949,0.010092304916317898,-0.087215,-32.943061
11.185,2.0,1.0,1.0,33.4,33.2,33.2,2.4,2.3,2.6,0.6762563122596722,-0.020554221631104763,0.7228649469258608,0.01007464401020766,-0.088376,-32.806899
11.185,2.0,1.0,1.0,33.4,33.2,33.2,2.4,2.3,2.6025,0.6703033816857562,-0.020968714847864823,0.7282046192692014,0.010053007934659892,-0.089563,-32.670035
11.185,2.0,1.0,1.0,33.4,33.2,33.2,2.4,2.3,2.605,0.6642696043167864,-0.021391804430432086,0.7335262053283288,0.010027214798558705,-0.090777,-32.532457
11.185,2.0,1.0,1.0,33.4,33.2,33.2,2.4,2.3,2.6075,0.6581539810694407,-0.021823700385598784,0.7388288809969914,0.009997074426143098,-0.092019,-32.394151
11.185,2.0,1.0,1.0,33.4,33.2,33.2,2.4,2.3,2.61,0.6519554965531678,-0.022264618788043374,0.7441117941391832,0.009962387940309904,-0.09329,-32.255105
11.185,2.0,1.0,1.0,33.4,33.2,33.2,2.4,2.3,2.6125,0.6456731188373834,-0.022714781976085213,0.7493740635523926,0.009922947322366543,-0.09459,-32.115303
11.185,2.0,1.0,1.0,33.4,33.2,33.2,2.4,2.3,2.615,0.6393057992186725,-0.023174418753960938,0.7546147778875827,0.009878534946733039,-0.095922,-31.974731
11.185,2.0,1.0,1.0,33.4,33.2,33.2,2.4,2.3,2.6175,0.6328524719883105,-0.023643764600800823,0.7598329945237319,0.009828923088985728,-0.097285,-31.833376
11.185,2.0,1.0,1.0,33.4,33.2,33.2,2.4,2.3,2.62,0.6263120542004361,-0.024123061886480935,0.7650277383946816,0.009773873405518775,-0.09868,-31.691223
11.185,2.0,1.0,1.0,33.4,33.2,33.2,2.4,2.3,2.6225,0.6196834454412344,-0.02461256009452408,0.7701980007658616,0.009713136382974738,-0.10011,-31.548256
11.185,2.0,1.0,1.0,33.4,33.2,33.2,2.4,2.3,2.625,0.612965527599555,-0.0251125160522153,0.77534273795833,0.00964645075545975,-0.101574,-31.404459
11.185,2.0,1.0,1.0,33.4,33.2,33.2,2.4,2.3,2.6275,0.6061571646393771,-0.02562319416809294,0.780460870017414,0.009573542887412849,-0.103074,-31.259818
11.185,2.0,1.0,1.0,33.4,33.2,33.2,2.4,2.3,2.63,0.5992572023746322,-0.02614486667696535,0.785551279323033,0.009494126119839439,-0.104612,-31.114316
11.185,2.0,1.0,1.0,33.4,33.2,33.2,2.4,2.3,2.6325,0.5922644682468966,-0.026677813892592092,0.7906128091386453,0.009407900077448822,-0.106188,-30.967937
11.185,2.0,1.0,1.0,33.4,33.2,33.2,2.4,2.3,2.635,0.5851777711065442,-0.027222324468154483,0.795644262095505,0.009314549934048066,-0.107804,-30.820663
11.185,2.0,1.0,1.0,33.4,33.2,33.2,2.4,2.3,2.6375,0.5779959009980014,-0.027778695664621312,0.8006443986087587,0.009213745633343642,-0.109461,-30.672478
11.185,2.0,1.0,1.0,33.4,33.2,33.2,2.4,2.3,2.64,0.5707176289497872,-0.028347233627096114,0.8056119352216248,0.00910514106208341,-0.11116,-30.523363
11.185,2.0,1.0,1.0,33.4,33.2,33.2,2.4,2.3,2.6425,0.5633417067701253,-0.028928253669204103,0.810545542873683,0.008988373172233352,-0.112904,-30.373302
11.185,2.0,1.0,1.0,33.4,33.2,33.2,2.4,2.3,2.645,0.5558668668489594,-0.029522080565547795,0.815443845089012,0.00886306104862553,-0.114693,-30.222274
11.185,2.0,1.0,1.0,33.4,33.2,33.2,2.4,2.3,2.6475,0.5482918219673081,-0.03012904885222269,0.8203054160796176,0.008728804918233525,-0.116529,-30.070263
11.185,2.0,1.0,1.0,33.4,33.2,33.2,2.4,2.3,2.65,0.5406152651149606,-0.030749503135342682,0.8251287787592959,0.008585185096925121,-0.118415,-29.917247
11.185,2.0,1.0,1.0,33.4,33.2,33.2,2.4,2.3,2.6525,0.5328358693176646,-0.03138379840747091,0.8299124026626805,0.008431760869210941,-0.120351,-29.763207
11.185,2.0,1.0,1.0,33.4,33.2,33.2,2.4,2.3,2.655,0.5249522874750076,-0.03203230037179696,0.8346547017639243,0.008268069296144563,-0.122339,-29.608123
11.185,2.0,1.0,1.0,33.4,33.2,33.2,2.4,2.3,2.6575,0.516963152210376,-0.032695385773827544,0.839354032188973,0.008093623946135522,-0.124383,-29.451974
11.185,2.0,1.0,1.0,33.4,33.2,33.2,2.4,2.3,2.66,0.5088670757344838,-0.033373442740279244,0.8440086898150021,0.007907913543005744,-0.126482,-29.294739
11.185,2.0,1.0,1.0,33.4,33.2,33.2,2.4,2.3,2.6625,0.5006626497241335,-0.03406687112476667,0.8486169077500954,0.007710400525150435,-0.128641,-29.136395
11.185,2.0,1.0,1.0,33.4,33.2,33.2,2.4,2.3,2.665,0.4923484452180317,-0.03477608285977149,0.8531768536857036,0.007500519509149663,-0.13086,-28.97692
11.185,2.0,1.0,1.0,33.4,33.2,33.2,2.4,2.3,2.6675,0.4839230125317036,-0.0355015023142482,0.8576866271138438,0.007277675650617834,-0.133143,-28.81629
11.185,2.0,1.0,1.0,33.4,33.2,33.2,2.4,2.3,2.67,0.4753848811937429,-0.03624356665607938,0.8621442564004134,0.007041242894462095,-0.135492,-28.654483
11.185,2.0,1.0,1.0,33.4,33.2,33.2,2.4,2.3,2.6725,0.4667325599058821,-0.03700272621842078,0.8665476957052716,0.006790562106049324,-0.137909,-28.491474
11.185,2.0,1.0,1.0,33.4,33.2,33.2,2.4,2.3,2.675,0.45796453652967034,-0.03777944486878151,0.8708948217389966,0.006524939074045596,-0.140397,-28.327236
11.185,2.0,1.0,1.0,33.4,33.2,33.2,2.4,2.3,2.6775,0.4490792781028156,-0.038574200379457156,0.8751834303454449,0.006243642374883559,-0.14296,-28.161746
11.185,2.0,1.0,1.0,33.4,33.2,33.2,2.4,2.3,2.68,0.4400752308886275,-0.039387484797674156,0.8794112328983004,0.005945901087927327,-0.145599,-27.994976
11.185,2.0,1.0,1.0,33.4,33.2,33.2,2.4,2.3,2.6825,0.4309508204623756,-0.04021980481349855,0.8835758524988649,0.005630902349433215,-0.148319,-27.826899
11.185,2.0,1.0,1.0,33.4,33.2,33.2,2.4,2.3,2.685,0.421704451838822,-0.041071682123217094,0.8876748199612244,0.005297788732333432,-0.151122,-27.657486
11.185,2.0,1.0,1.0,33.4,33.2,33.2,2.4,2.3,2.6875,0.412334509645695,-0.0419436537854957,0.891705569569777,0.00494565543769617,-0.154013,-27.48671
11.185,2.0,1.0,1.0,33.4,33.2,33.2,2.4,2.3,2.69,0.4028393583484391,-0.04283627256715511,0.8956654345928043,0.004573547282421516,-0.156995,-27.31454
11.185,2.0,1.0,1.0,33.4,33.2,33.2,2.4,2.3,2.6925,0.3932173425321981,-0.043750107274872566,0.8995516425343308,0.004180455466307,-0.160072,-27.140945
11.185,2.0,1.0,1.0,33.4,33.2,33.2,2.4,2.3,2.695,0.38346678724777555,-0.044685743068496514,0.9033613101049505,0.0037653141000477167,-0.163248,-26.965894
11.185,2.0,1.0,1.0,33.4,33.2,33.2,2.4,2.3,2.6975,0.3735859984290665,-0.04564378175095431,0.9070914378905841,0.0033269964740015715,-0.166528,-26.789355
11.185,2.0,1.0,1.0,33.4,33.2,33.2,2.4,2.3,2.7,0.3635732633904974,-0.04662484202890555,0.9107389046961801,0.00286431104564022,-0.169916,-26.611293
11.185,2.0,1.0,1.0,33.4,33.2,33.2,2.4,2.3,2.7025,0.35342685141400143,-0.04762955973734873,0.9143004615393318,0.0023759971214918994,-0.173418,-26.431675
11.185,2.0,1.0,1.0,33.4,33.2,33.2,2.4,2.3,2.705,0.34314501443637574,-0.048658588020287,0.9177727252663642,0.0018607202070472632,-0.177038,-26.250464
11.185,2.0,1.0,1.0,33.4,33.2,33.2,2.4,2.3,2.7075,0.33272598784920815,-0.04971259745829404,0.9211521717609714,0.0013170669955157382,-0.180782,-26.067624
11.185,2.0,1.0,1.0,33.4,33.2,33.2,2.4,2.3,2.71,0.3221679914252466,-0.050792276132349656,0.9244351287125295,0.0007435399634574773,-0.184656,-25.883116
11.185,2.0,1.0,1.0,33.4,33.2,33.2,2.4,2.3,2.7125,0.3114692303868852,-0.05189832961161841,0.9276177679081477,0.0001385515381461026,-0.188667,-25.696901
11.185,2.0,1.0,1.0,33.4,33.2,33.2,2.4,2.3,2.715,0.300627896634628,-0.05303148085087365,0.9306960970089492,-0.0004995822019979702,-0.192822,-25.50894
11.185,2.0,1.0,1.0,33.4,33.2,33.2,2.4,2.3,2.7175,0.2896421701558099,-0.05419246998098893,0.9336659507672307,-0.0011726483364651913,-0.197126,-25.319188
11.185,2.0,1.0,1.0,33.4,33.2,33.2,2.4,2.3,2.72,0.27851022063672354,-0.05538205397326789,0.9365229816368215,-0.001882544468097554,-0.201589,-25.127604
11.185,2.0,1.0,1.0,33.4,33.2,33.2,2.4,2.3,2.7225,0.2672302093045367,-0.0566010061553131,0.939262649724173,-0.0026312866966184453,-0.206218,-24.934141
11.185,2.0,1.0,1.0,33.4,33.2,33.2,2.4,2.3,2.725,0.2558002910292047,-0.05785011555255107,0.9418802120223999,-0.003421018257304684,-0.211021,-24.738754
11.185,2.0,1.0,1.0,33.4,33.2,33.2,2.4,2.3,2.7275,0.24421861671991374,-0.05913018602538103,0.9443707108645484,-0.004254018887810091,-0.216009,-24.541395
11.185,2.0,1.0,1.0,33.4,33.2,33.2,2.4,2.3,2.73,0.23248333605571841,-0.060442035167058906,0.9467289615257847,-0.005132714992767815,-0.221191,-24.342012
11.185,2.0,1.0,1.0,33.4,33.2,33.2,2.4,2.3,2.7325,0.22059260059587094,-0.06178649292178651,0.9489495388968673,-0.006059690683180195,-0.226577,-24.140555
11.185,2.0,1.0,1.0,33.4,33.2,33.2,2.4,2.3,2.735,0.20854456732225188,-0.06316439987587412,0.9510267631430538,-0.007037699775815442,-0.232179,-23.93697
11.185,2.0,1.0,1.0,33.4,33.2,33.2,2.4,2.3,2.7375,0.19633740267424532,-0.06457660516714092,0.9529546842534988,-0.008069678846990825,-0.238009,-23.731202
11.185,2.0,1.0,1.0,33.4,33.2,33.2,2.4,2.3,2.74,0.18396928714572963,-0.06602396394869241,0.954727065376046,-0.009158761445322135,-0.244081,-23.523191
11.185,2.0,1.0,1.0,33.4,33.2,33.2,2.4,2.3,2.7425,0.17143842052474328,-0.06750733433265302,0.9563373648209377,-0.010308293579398312,-0.250408,-23.312879
11.185,2.0,1.0,1.0,33.4,33.2,33.2,2.4,2.3,2.745,0.15874302786908878,-0.06902757372702893,0.9577787166043802,-0.011521850609019248,-0.257005,-23.100203
11.185,2.0,1.0,1.0,33.4,33.2,33.2,2.4,2.3,2.7475,0.14588136632606372,-0.0705855344643169,0.9590439093887902,-0.012803255682769262,-0.263889,-22.885099
11.185,2.0,1.0,1.0,33.4,33.2,33.2,2.4,2.3,2.75,0.132851732922048,-0.0721820586033452,0.960125363660818,-0.0141565998804489,-0.271077,-22.667498
11.185,2.0,1.0,1.0,33.4,33.2,33.2,2.4,2.3,2.7525,0.11965247346818966,-0.07381797176565431,0.9610151069708267,-0.015586264236425335,-0.278589,-22.447332
11.185,2.0,1.0,1.0,33.4,33.2,33.2,2.4,2.3,2.755,0.10628199275279117,-0.07549407584392158,0.9617047470379491,-0.01709694383947923,-0.286444,-22.224528
11.185,2.0,1.0,1.0,33.4,33.2,33.2,2.4,2.3,2.7575,0.09273876621949517,-0.07721114039182193,0.9621854425032547,-0.01869367422642275,-0.294666,-21.999009
11.185,2.0,1.0,1.0,33.4,33.2,33.2,2.4,2.3,2.76,0.07902135336423156,-0.07896989247143672,0.9624478710895347,-0.020381860310834988,-0.303277,-21.770697
11.185,2.0,1.0,1.0,33.4,33.2,33.2,2.4,2.3,2.7625,0.06512841312390001,-0.08077100469491356,0.962482194899542,-0.02216730811494086,-0.312306,-21.53951
11.185,2.0,1.0,1.0,33.4,33.2,33.2,2.4,2.3,2.765,0.05105872157715103,-0.08261508115028582,0.9622780225551576,-0.02405625960212308,-0.321779,-21.305362
11.185,2.0,1.0,1.0,33.4,33.2,33.2,2.4,2.3,2.7675,0.03681119233401772,-0.08450264084575311,0.96182436784752,-0.02605543094001488,-0.331728,-21.068165
11.185,2.0,1.0,1.0,33.4,33.2,33.2,2.4,2.3,2.77,0.02238490005809026,-0.08643409824051954,0.9611096045326394,-0.02817205455971544,-0.342186,-20.827825
11.185,2.0,1.0,1.0,33.4,33.2,33.2,2.4,2.3,2.7725,0.007779107644868449,-0.08840974035133632,0.9601214168682164,-0.030413925415489568,-0.353192,-20.584245
11.185,2.0,1.0,1.0,33.4,33.2,33.2,2.4,2.3,2.775,-0.0070067023248431785,-0.09042969982960875,0.9588467454454509,-0.03278945189136316,-0.364784,-20.337325
11.185,2.0,1.0,1.0,33.4,33.2,33.2,2.4,2.3,2.7775,-0.021972791123632002,-0.09249392329113763,0.9572717278245554,-0.03530771184614851,-0.377008,-20.086959
11.185,2.0,1.0,1.0,33.4,33.2,33.2,2.4,2.3,2.78,-0.037119121538954275,-0.09460213404543064,0.9553816334349594,-0.037978514336267324,-0.389911,-19.833037
11.185,2.0,1.0,1.0,33.4,33.2,33.2,2.4,2.3,2.7825,-0.05244530862435071,-0.09675378820935626,0.9531607921514592,-0.04081246760558846,-0.403548,-19.575445
11.185,2.0,1.0,1.0,33.4,33.2,33.2,2.4,2.3,2.785,-0.06795056231080869,-0.09894802299504782,0.9505925159069999,-0.04382105398226158,-0.417977,-19.314062
11.185,2.0,1.0,1.0,33.4,33.2,33.2,2.4,2.3,2.7875,-0.08363362041198695,-0.10118359572741689,0.947659012653136,-0.04701671237238703,-0.433264,-19.048763
11.185,2.0,1.0,1.0,33.4,33.2,33.2,2.4,2.3,2.79,-0.09949267027205551,-0.10345881186399404,0.9443412919331821,-0.05041292908671262,-0.449479,-18.779418
11.185,2.0,1.0,1.0,33.4,33.2,33.2,2.4,2.3,2.7925,-0.1155252569609707,-0.10577143994873293,0.9406190612946764,-0.05402433777541948,-0.466703,-18.505891
11.185,2.0,1.0,1.0,33.4,33.2,33.2,2.4,2.3,2.795,-0.131728175506787,-0.10811861101938955,0.936470612742603,-0.05786682927186526,-0.485024,-18.22804
11.185,2.0,1.0,1.0,33.4,33.2,33.2,2.4,2.3,2.7975,-0.1480973441523332,-0.1104966994898342,0.9318726984310697,-0.06195767215077947,-0.504541,-17.945717
11.185,2.0,1.0,1.0,33.4,33.2,33.2,2.4,2.3,2.8,-0.16462765501627205,-0.1129011819257407,0.9268003948202417,-0.06631564477858994,-0.525363,-17.658767
11.185,2.0,1.0,1.0,33.4,33.2,33.2,2.4,2.3,2.8025,-0.1813127978030414,-0.1153264694021261,0.9212269546033051,-0.07096117955728802,-0.547612,-17.367029
11.185,2.0,1.0,1.0,33.4,33.2,33.2,2.4,2.3,2.805,-0.19814505131598492,-0.11776570824735884,0.915123645857517,-0.07591651991640433,-0.571427,-17.070337
11.185,2.0,1.0,1.0,33.4,33.2,33.2,2.4,2.3,2.8075,-0.21511503645050242,-0.1202105429084037,0.9084595781249372,-0.08120589035946,-0.596961,-16.768517
11.185,2.0,1.0,1.0,33.4,33.2,33.2,2.4,2.3,2.81,-0.23221142304124207,-0.12265083337824137,0.9012015155251929,-0.08685567947909643,-0.624388,-16.461388
11.185,2.0,1.0,1.0,33.4,33.2,33.2,2.4,2.3,2.8125,-0.249420581364526,-0.125074318064246,0.893313677603798,-0.0928946352602748,-0.653905,-16.148766
11.185,2.0,1.0,1.0,33.4,33.2,33.2,2.4,2.3,2.815,-0.26672616720345305,-0.12746621109505632,0.8847575295063627,-0.09935407111276191,-0.685733,-15.830457
11.185,2.0,1.0,1.0,33.4,33.2,33.2,2.4,2.3,2.8175,-0.28410862711148616,-0.12980872080658645,0.875491564353235,-0.10626807980177432,-0.720124,-15.506264
11.185,2.0,1.0,1.0,33.4,33.2,33.2,2.4,2.3,2.82,-0.3015446078006398,-0.13208047345518556,0.8654710825233219,-0.11367375062760837,-0.757366,-15.175985
11.185,2.0,1.0,1.0,33.4,33.2,33.2,2.4,2.3,2.8225,-0.31900625037310343,-0.1342558230184177,0.8546479751483097,-0.12161138263451605,-0.797785,-14.839414
11.185,2.0,1.0,1.0,33.4,33.2,33.2,2.4,2.3,2.825,-0.3364603463610188,-0.13630402421197807,0.8429705227525911,-0.13012468302481728,-0.841756,-14.496344
11.185,2.0,1.0,1.0,33.4,33.2,33.2,2.4,2.3,2.8275,-0.3538673282136886,-0.13818824155037193,0.8303832250329988,-0.13926093493565342,-0.889712,-14.146566
11.185,2.0,1.0,1.0,33.4,33.2,33.2,2.4,2.3,2.83,-0.3711800620021602,-0.13986436243564282,0.8168266847719188,-0.1490711117906028,-0.942147,-13.789875
