1,w,sub_t,h,l1,l2,l3,g1,g2,Freq,S11_re,S21_re,S11_img,S21_img,S11_dB,S21_dB
11.185,2.0,1.0,1.0,33.1,33.4,33.4,4.4,3.9,2.5,0.892322203313306,-0.00354844037855078,0.439360592068968,0.00261541806580954,-0.046822,-47.114861
11.185,2.0,1.0,1.0,33.1,33.4,33.4,4.4,3.9,2.5025,0.8895542967007637,-0.003617428177417305,0.4448431288468034,0.0026228785285511355,-0.047193,-46.997246
11.185,2.0,1.0,1.0,33.1,33.4,33.4,4.4,3.9,2.505,0.8867421725782226,-0.003687458100607687,0.450327557543013,0.0026298934236202295,-0.047569,-46.879563
11.185,2.0,1.0,1.0,33.1,33.4,33.4,4.4,3.9,2.5075,0.8838854404209792,-0.0037585465631593136,0.45581372141591814,0.0026364483406535293,-0.047951,-46.761802
11.185,2.0,1.0,1.0,33.1,33.4,33.4,4.4,3.9,2.51,0.8809837038221493,-0.0038307103101055994,0.4613014592077664,0.002642528436489107,-0.048339,-46.643957
11.185,2.0,1.0,1.0,33.1,33.4,33.4,4.4,3.9,2.5125,0.8780365604048573,-0.003903966424365895,0.4667906050018881,0.0026481184204724026,-0.048732,-46.52602
11.185,2.0,1.0,1.0,33.1,33.4,33.4,4.4,3.9,2.515,0.8750436017334535,-0.003978332334855514,0.47228098807550456,0.002653202539201997,-0.049132,-46.407982
11.185,2.0,1.0,1.0,33.1,33.4,33.4,4.4,3.9,2.5175,0.8720044132237789,-0.0040538258248222795,0.47777243274803405,0.0026577645606909043,-0.049538,-46.289836
11.185,2.0,1.0,1.0,33.1,33.4,33.4,4.4,3.9,2.52,0.8689185740524814,-0.004130465040417745,0.4832647582247726,0.002661787757917961,-0.049951,-46.171574
11.185,2.0,1.0,1.0,33.1,33.4,33.4,4.4,3.9,2.5225,0.8657856570654063,-0.004208268499510551,0.48875777843577456,0.002665254891742751,-0.05037,-46.053188
11.185,2.0,1.0,1.0,33.1,33.4,33.4,4.4,3.9,2.525,0.8626052286850684,-0.004287255100750402,0.4942513018698038,0.0026681481931558966,-0.050795,-45.934671
11.185,2.0,1.0,1.0,33.1,33.4,33.4,4.4,3.9,2.5275,0.8593768488172273,-0.004367444132891127,0.49974513140318794,0.0026704493448355807,-0.051227,-45.816015
11.185,2.0,1.0,1.0,33.1,33.4,33.4,4.4,3.9,2.53,0.8561000707565866,-0.004448855284381452,0.5052390641234081,0.0026721394619791776,-0.051666,-45.69721
11.185,2.0,1.0,1.0,33.1,33.4,33.4,4.4,3.9,2.5325,0.8527744410916358,-0.00453150865323308,0.5107328911472591,0.0026731990723776852,-0.052113,-45.578251
11.185,2.0,1.0,1.0,33.1,33.4,33.4,4.4,3.9,2.535,0.8493994996086598,-0.004615424757175471,0.5162263974334099,0.002673608095698935,-0.052566,-45.459128
11.185,2.0,1.0,1.0,33.1,33.4,33.4,4.4,3.9,2.5375,0.8459747791949436,-0.0047006245441073725,0.5217193615891705,0.0026733458219435134,-0.053027,-45.339833
11.185,2.0,1.0,1.0,33.1,33.4,33.4,4.4,3.9,2.54,0.8424998057412019,-0.0047871294028556605,0.5272115556712903,0.0026723908890358998,-0.053495,-45.220359
11.185,2.0,1.0,1.0,33.1,33.4,33.4,4.4,3.9,2.5425,0.8389740980432595,-0.0048749611742522295,0.5327027449805891,0.0026707212595110203,-0.05397,-45.100697
11.185,2.0,1.0,1.0,33.1,33.4,33.4,4.4,3.9,2.545,0.8353971677030231,-0.004964142162540532,0.5381926878502238,0.002668314196254497,-0.054454,-44.980838
11.185,2.0,1.0,1.0,33.1,33.4,33.4,4.4,3.9,2.5475,0.8317685190287812,-0.005054695147123239,0.5436811354273734,0.002665146237252647,-0.054945,-44.860776
11.185,2.0,1.0,1.0,33.1,33.4,33.4,4.4,3.9,2.55,0.8280876489348648,-0.00514664339466399,0.5491678314481483,0.002661193169305886,-0.055445,-44.740501
11.185,2.0,1.0,1.0,33.1,33.4,33.4,4.4,3.9,2.5525,0.8243540468407276,-0.005240010671555451,0.5546525120054763,0.002656430000656724,-0.055953,-44.620005
11.185,2.0,1.0,1.0,33.1,33.4,33.4,4.4,3.9,2.555,0.8205671945694766,-0.005334821256767746,0.5601349053097563,0.002650830932480999,-0.056469,-44.49928
11.185,2.0,1.0,1.0,33.1,33.4,33.4,4.4,3.9,2.5575,0.8167265662459147,-0.005431099955091066,0.5656147314420379,0.0026443693291880377,-0.056994,-44.378317
11.185,2.0,1.0,1.0,33.1,33.4,33.4,4.4,3.9,2.56,0.8128316281941462,-0.005528872110787398,0.571091702099471,0.002637017687472609,-0.057528,-44.257107
11.185,2.0,1.0,1.0,33.1,33.4,33.4,4.4,3.9,2.5625,0.808881838834806,-0.00562816362166644,0.5765655203327837,0.0026287476040581866,-0.058071,-44.135642
11.185,2.0,1.0,1.0,33.1,33.4,33.4,4.4,3.9,2.565,0.80487664858197,-0.005729000953602266,0.5820358802755208,0.002619529742067967,-0.058623,-44.013913
11.185,2.0,1.0,1.0,33.1,33.4,33.4,4.4,3.9,2.5675,0.8008154997398266,-0.0058314111555071305,0.5875024668647633,0.00260933379595624,-0.059185,-43.891911
11.185,2.0,1.0,1.0,33.1,33.4,33.4,4.4,3.9,2.57,0.7966978263991673,-0.005935421874780466,0.5929649555530572,0.002598128454928975,-0.059756,-43.769627
11.185,2.0,1.0,1.0,33.1,33.4,33.4,4.4,3.9,2.5725,0.7925230543337839,-0.006041061373251204,0.5984230120112538,0.002585881364778595,-0.060337,-43.647052
11.185,2.0,1.0,1.0,33.1,33.4,33.4,4.4,3.9,2.575,0.7882906008968491,-0.006148358543632995,0.603876291821958,0.0025725590880533956,-0.060928,-43.524178
11.185,2.0,1.0,1.0,33.1,33.4,33.4,4.4,3.9,2.5775,0.7839998749173753,-0.006257342926512462,0.6093244401632738,0.002558127062477576,-0.06153,-43.400994
11.185,2.0,1.0,1.0,33.1,33.4,33.4,4.4,3.9,2.58,0.7796502765968389,-0.006368044727891653,0.6147670914825143,0.0025425495575329402,-0.062142,-43.277492
11.185,2.0,1.0,1.0,33.1,33.4,33.4,4.4,3.9,2.5825,0.7752411974060758,-0.006480494837307093,0.6202038691595497,0.0025257896291080747,-0.062765,-43.153662
11.185,2.0,1.0,1.0,33.1,33.4,33.4,4.4,3.9,2.585,0.7707720199825504,-0.006594724846548708,0.6256343851594349,0.0025078090721152952,-0.063399,-43.029495
11.185,2.0,1.0,1.0,33.1,33.4,33.4,4.4,3.9,2.5875,0.7662421180281148,-0.0067107670690030674,0.6310582396739609,0.0024885683709695637,-0.064044,-42.90498
11.185,2.0,1.0,1.0,33.1,33.4,33.4,4.4,3.9,2.59,0.7616508562073784,-0.0068286545596465435,0.6364750207517453,0.002468026647817434,-0.064701,-42.780108
11.185,2.0,1.0,1.0,33.1,33.4,33.4,4.4,3.9,2.5925,0.7569975900468112,-0.0069484211357155904,0.641884303916486,0.0024461416083969996,-0.06537,-42.654869
11.185,2.0,1.0,1.0,33.1,33.4,33.4,4.4,3.9,2.595,0.7522816658347294,-0.007070101398082102,0.6472856517729535,0.002422869485402845,-0.06605,-42.529253
11.185,2.0,1.0,1.0,33.1,33.4,33.4,4.4,3.9,2.5975,0.7475024205222894,-0.007193730753364001,0.652678613600324,0.002398164979222015,-0.066743,-42.403249
11.185,2.0,1.0,1.0,33.1,33.4,33.4,4.4,3.9,2.6,0.7426591816256563,-0.0073193454368017455,0.6580627249324033,0.0023719811958986627,-0.067449,-42.276848
11.185,2.0,1.0,1.0,33.1,33.4,33.4,4.4,3.9,2.6025,0.7377512671295061,-0.0074469825359341265,0.6634375071242881,0.0023442695821763635,-0.068168,-42.150039
11.185,2.0,1.0,1.0,33.1,33.4,33.4,4.4,3.9,2.605,0.7327779853920284,-0.007576680015107514,0.6688024669050068,0.0023149798574571456,-0.0689,-42.02281
11.185,2.0,1.0,1.0,33.1,33.4,33.4,4.4,3.9,2.6075,0.7277386350516136,-0.007708476740854935,0.6741570959156385,0.0022840599425063865,-0.069646,-41.895152
11.185,2.0,1.0,1.0,33.1,33.4,33.4,4.4,3.9,2.61,0.72263250493542,-0.007842412508183119,0.6795008702324089,0.0022514558847214023,-0.070406,-41.767052
11.185,2.0,1.0,1.0,33.1,33.4,33.4,4.4,3.9,2.6125,0.7174588739700141,-0.007978528067807703,0.6848332498742313,0.0022171117797699816,-0.07118,-41.6385
11.185,2.0,1.0,1.0,33.1,33.4,33.4,4.4,3.9,2.615,0.7122170110943059,-0.008116865154378953,0.6901536782941533,0.0021809696893922434,-0.071969,-41.509485
11.185,2.0,1.0,1.0,33.1,33.4,33.4,4.4,3.9,2.6175,0.7069061751750007,-0.008257466515742225,0.6954615818541235,0.002142969555145593,-0.072772,-41.379995
11.185,2.0,1.0,1.0,33.1,33.4,33.4,4.4,3.9,2.62,0.7015256149248089,-0.008400375943280336,0.7007563692824942,0.0021030491078579063,-0.073592,-41.250017
11.185,2.0,1.0,1.0,33.1,33.4,33.4,4.4,3.9,2.6225,0.6960745688236578,-0.008545638303386935,0.7060374311136394,0.002061143772538167,-0.074427,-41.11954
11.185,2.0,1.0,1.0,33.1,33.4,33.4,4.4,3.9,2.625,0.690552265043183,-0.0086932995701228,0.711304139109035,0.0020171865684768,-0.075278,-40.988551
11.185,2.0,1.0,1.0,33.1,33.4,33.4,4.4,3.9,2.6275,0.6849579213747643,-0.0088434068591102,0.7165558456591411,0.0019711080042496636,-0.076146,-40.857039
11.185,2.0,1.0,1.0,33.1,33.4,33.4,4.4,3.9,2.63,0.6792907451614101,-0.008996008462722563,0.7217918831653747,0.0019228359673195557,-0.077031,-40.724989
11.185,2.0,1.0,1.0,33.1,33.4,33.4,4.4,3.9,2.6325,0.6735499332337935,-0.009151153886630483,0.7270115634014448,0.0018722956079082426,-0.077933,-40.59239
11.185,2.0,1.0,1.0,33.1,33.4,33.4,4.4,3.9,2.635,0.667734671850771,-0.009308893887768158,0.7322141768532878,0.001819409216788399,-0.078853,-40.459228
11.185,2.0,1.0,1.0,33.1,33.4,33.4,4.4,3.9,2.6375,0.6618441366447262,-0.0094692805137876,0.737398992036795,0.0017640960966203256,-0.079792,-40.325489
11.185,2.0,1.0,1.0,33.1,33.4,33.4,4.4,3.9,2.64,0.6558774925720929,-0.009632367144072175,0.7425652547925136,0.0017062724264310597,-0.08075,-40.191159
11.185,2.0,1.0,1.0,33.1,33.4,33.4,4.4,3.9,2.6425,0.6498338938694437,-0.009798208532384268,0.747712187556433,0.0016458511188045186,-0.081727,-40.056225
11.185,2.0,1.0,1.0,33.1,33.4,33.4,4.4,3.9,2.645,0.6437124840155384,-0.009966860851226346,0.7528389886059483,0.0015827416693196066,-0.082724,-39.920672
11.185,2.0,1.0,1.0,33.1,33.4,33.4,4.4,3.9,2.6475,0.6375123956997586,-0.010138381737998648,0.7579448312800436,0.0015168499977390774,-0.083742,-39.784485
11.185,2.0,1.0,1.0,33.1,33.4,33.4,4.4,3.9,2.65,0.6312327507973464,-0.010312830343041838,0.7630288631726944,0.0014480782804145327,-0.084781,-39.647648
11.185,2.0,1.0,1.0,33.1,33.4,33.4,4.4,3.9,2.6525,0.6248726603519418,-0.010490267379656717,0.7680902052984206,0.0013763247733332253,-0.085841,-39.510148
11.185,2.0,1.0,1.0,33.1,33.4,33.4,4.4,3.9,2.655,0.618431224565874,-0.010670755176199273,0.773127951228906,0.001301483625187756,-0.086924,-39.371967
11.185,2.0,1.0,1.0,33.1,33.4,33.4,4.4,3.9,2.6575,0.6119075327987286,-0.010854357730353294,0.778141166199501,0.001223444679803009,-0.08803,-39.23309
11.185,2.0,1.0,1.0,33.1,33.4,33.4,4.4,3.9,2.66,0.605300663574718,-0.011041140765689544,0.7831288861843982,0.001142093267202257,-0.089159,-39.093499
11.185,2.0,1.0,1.0,33.1,33.4,33.4,4.4,3.9,2.6625,0.5986096845994239,-0.011231171790624706,0.7880901169391793,0.0010573099825384818,-0.090312,-38.953179
11.185,2.0,1.0,1.0,33.1,33.4,33.4,4.4,3.9,2.665,0.5918336527864788,-0.011424520159901,0.7930238330093914,0.0009689704520554325,-0.091491,-38.812111
11.185,2.0,1.0,1.0,33.1,33.4,33.4,4.4,3.9,2.6675,0.584971614294821,-0.011621257138711854,0.7979289767036976,0.0008769450851759538,-0.092695,-38.670278
11.185,2.0,1.0,1.0,33.1,33.4,33.4,4.4,3.9,2.67,0.5780226045771525,-0.011821455969606685,0.8028044570301023,0.000781098811742292,-0.093925,-38.527661
11.185,2.0,1.0,1.0,33.1,33.4,33.4,4.4,3.9,2.6725,0.5709856484402749,-0.012025191942313712,0.8076491485936442,0.0006812908033531369,-0.095183,-38.384242
11.185,2.0,1.0,1.0,33.1,33.4,33.4,4.4,3.9,2.675,0.5638597601180152,-0.012232542466627111,0.8124618904538529,0.0005773741776552488,-0.096469,-38.240001
11.185,2.0,1.0,1.0,33.1,33.4,33.4,4.4,3.9,2.6775,0.5566439433574711,-0.012443587148511365,0.8172414849401729,0.00046919568435198556,-0.097783,-38.094918
11.185,2.0,1.0,1.0,33.1,33.4,33.4,4.4,3.9,2.68,0.549337191519354,-0.012658407869583194,0.8219866964234466,0.0003565953715865944,-0.099128,-37.948973
11.185,2.0,1.0,1.0,33.1,33.4,33.4,4.4,3.9,2.6825,0.5419384876932409,-0.012877088870137894,0.8266962500414117,0.00023940623124412455,-0.100503,-37.802145
11.185,2.0,1.0,1.0,33.1,33.4,33.4,4.4,3.9,2.685,0.5344468048285733,-0.01309971683589559,0.8313688303760606,0.00011745382158970948,-0.10191,-37.654413
11.185,2.0,1.0,1.0,33.1,33.4,33.4,4.4,3.9,2.6875,0.526861105882296,-0.0133263809886485,0.836003080080547,-9.44413447635597e-06,-0.10335,-37.505753
11.185,2.0,1.0,1.0,33.1,33.4,33.4,4.4,3.9,2.69,0.5191803439840661,-0.013557173180998148,0.8405975984531703,-0.00014147817741763072,-0.104823,-37.356144
11.185,2.0,1.0,1.0,33.1,33.4,33.4,4.4,3.9,2.6925,0.5114034626199878,-0.013792187995378801,0.8451509399558148,-0.00027884756735279727,-0.106331,-37.205562
11.185,2.0,1.0,1.0,33.1,33.4,33.4,4.4,3.9,2.695,0.5035293958359145,-0.01403152284756792,0.849661612674,-0.00042176077085949627,-0.107875,-37.053982
11.185,2.0,1.0,1.0,33.1,33.4,33.4,4.4,3.9,2.6975,0.49555706846135095,-0.014275278094892575,0.8541280767155356,-0.0005704359807144418,-0.109457,-36.901379
11.185,2.0,1.0,1.0,33.1,33.4,33.4,4.4,3.9,2.7,0.48748539635509974,-0.014523557149343945,0.8585487425445005,-0.0007251016712153056,-0.111077,-36.747728
11.185,2.0,1.0,1.0,33.1,33.4,33.4,4.4,3.9,2.7025,0.47931328667379397,-0.0147764665958163,0.8629219692470659,-0.0008859971919767973,-0.112736,-36.593002
11.185,2.0,1.0,1.0,33.1,33.4,33.4,4.4,3.9,2.705,0.47103963816456096,-0.015034116315690047,0.8672460627253625,-0.0010533734033650035,-0.114437,-36.437174
11.185,2.0,1.0,1.0,33.1,33.4,33.4,4.4,3.9,2.7075,0.4626633414830821,-0.01529661961597848,0.8715192738153291,-0.0012274933570354677,-0.11618,-36.280214
11.185,2.0,1.0,1.0,33.1,33.4,33.4,4.4,3.9,2.71,0.4541832795384153,-0.015564093364255903,0.8757397963241129,-0.001408633025373685,-0.117967,-36.122094
11.185,2.0,1.0,1.0,33.1,33.4,33.4,4.4,3.9,2.7125,0.4455983278659774,-0.015836658129581755,0.8799057649822507,-0.0015970820840070668,-0.1198,-35.962784
11.185,2.0,1.0,1.0,33.1,33.4,33.4,4.4,3.9,2.715,0.4369073550301917,-0.016114438329625894,0.8840152533054242,-0.0017931447519675251,-0.12168,-35.802251
11.185,2.0,1.0,1.0,33.1,33.4,33.4,4.4,3.9,2.7175,0.42810922305835825,-0.016397562384188928,0.888066271360152,-0.0019971406945406734,-0.123609,-35.640464
11.185,2.0,1.0,1.0,33.1,33.4,33.4,4.4,3.9,2.72,0.41920278790741927,-0.016686162875293294,0.8920567634272505,-0.002209405994344987,-0.125589,-35.477389
11.185,2.0,1.0,1.0,33.1,33.4,33.4,4.4,3.9,2.7225,0.4101868999653462,-0.01698037671399706,0.8959846055563556,-0.0024302941967507,-0.127621,-35.31299
11.185,2.0,1.0,1.0,33.1,33.4,33.4,4.4,3.9,2.725,0.4010604045890344,-0.017280345314049372,0.8998476030041466,-0.002660177436378096,-0.129708,-35.147232
11.185,2.0,1.0,1.0,33.1,33.4,33.4,4.4,3.9,2.7275,0.3918221426806456,-0.017586214772465546,0.9036434875482356,-0.002899447652120765,-0.131852,-34.980077
11.185,2.0,1.0,1.0,33.1,33.4,33.4,4.4,3.9,2.73,0.3824709513045239,-0.017898136057045315,0.9073699146678752,-0.0031485178989258014,-0.134055,-34.811487
11.185,2.0,1.0,1.0,33.1,33.4,33.4,4.4,3.9,2.7325,0.37300566434690224,-0.018216265200789488,0.9110244605817778,-0.0034078237654459943,-0.136319,-34.641421
11.185,2.0,1.0,1.0,33.1,33.4,33.4,4.4,3.9,2.735,0.3634251132208276,-0.018540763503085148,0.9146046191323457,-0.0036778249076666303,-0.138648,-34.469836
11.185,2.0,1.0,1.0,33.1,33.4,33.4,4.4,3.9,2.7375,0.35372812761887235,-0.018871797737422587,0.9181077985044995,-0.003959006709719813,-0.141042,-34.29669
11.185,2.0,1.0,1.0,33.1,33.4,33.4,4.4,3.9,2.74,0.3439135363164462,-0.01920954036527513,0.9215313177660501,-0.0042518820843456305,-0.143506,-34.121937
11.185,2.0,1.0,1.0,33.1,33.4,33.4,4.4,3.9,2.7425,0.33398016802872854,-0.019554169755610112,0.9248724032151577,-0.004556993426863577,-0.146042,-33.94553
11.185,2.0,1.0,1.0,33.1,33.4,33.4,4.4,3.9,2.745,0.3239268523245503,-0.0199058704092992,0.928128184518824,-0.0048749147380986735,-0.148653,-33.76742
11.185,2.0,1.0,1.0,33.1,33.4,33.4,4.4,3.9,2.7475,0.3137524206008532,-0.02026483318745158,0.9312956906245852,-0.005206253933492784,-0.151343,-33.587554
11.185,2.0,1.0,1.0,33.1,33.4,33.4,4.4,3.9,2.75,0.30345570712174,-0.0206312555423929,0.934371845425536,-0.00555165535764887,-0.154114,-33.405882
11.185,2.0,1.0,1.0,33.1,33.4,33.4,4.4,3.9,2.7525,0.293035550126563,-0.021005341749650512,0.9373534631565199,-0.005911802525840544,-0.156972,-33.222345
11.185,2.0,1.0,1.0,33.1,33.4,33.4,4.4,3.9,2.755,0.28249079301203156,-0.021387303138857127,0.9402372434967052,-0.006287421116608593,-0.159918,-33.036887
11.185,2.0,1.0,1.0,33.1,33.4,33.4,4.4,3.9,2.7575,0.27182028559389176,-0.021777358320948407,0.9430197663508119,-0.0066792822425075895,-0.162959,-32.849447
11.185,2.0,1.0,1.0,33.1,33.4,33.4,4.4,3.9,2.76,0.26102288545451197,-0.022175733408368977,0.9456974862778473,-0.007088206029408645,-0.166098,-32.659961
11.185,2.0,1.0,1.0,33.1,33.4,33.4,4.4,3.9,2.7625,0.2500974593835115,-0.022582662224205564,0.9482667265323877,-0.007515065538575563,-0.16934,-32.468362
11.185,2.0,1.0,1.0,33.1,33.4,33.4,4.4,3.9,2.765,0.23904288491965106,-0.022998386495193056,0.9507236726789976,-0.007960791070077914,-0.172689,-32.274583
11.185,2.0,1.0,1.0,33.1,33.4,33.4,4.4,3.9,2.7675,0.22785805200340298,-0.023423156022360923,0.9530643657353619,-0.008426374891072992,-0.176152,-32.078549
11.185,2.0,1.0,1.0,33.1,33.4,33.4,4.4,3.9,2.77,0.21654186475111467,-0.023857228821654287,0.9552846947939178,-0.008912876438179257,-0.179735,-31.880185
11.185,2.0,1.0,1.0,33.1,33.4,33.4,4.4,3.9,2.7725,0.2050932433634651,-0.02430087122511957,0.9573803890651204,-0.009421428049687711,-0.183443,-31.679412
11.185,2.0,1.0,1.0,33.1,33.4,33.4,4.4,3.9,2.775,0.19351112618307037,-0.02475435793112279,0.959347009277851,-0.0099532412908576,-0.187282,-31.476144
11.185,2.0,1.0,1.0,33.1,33.4,33.4,4.4,3.9,2.7775,0.18179447191870132,-0.025217971989483095,0.961179938363662,-0.010509613944174774,-0.191261,-31.270295
11.185,2.0,1.0,1.0,33.1,33.4,33.4,4.4,3.9,2.78,0.16994226205674318,-0.025692004704253046,0.96287437134139,-0.011091937746408976,-0.195387,-31.061771
11.185,2.0,1.0,1.0,33.1,33.4,33.4,4.4,3.9,2.7825,0.1579535034844137,-0.026176755433023863,0.9644253043069051,-0.011701706965811508,-0.199669,-30.850476
11.185,2.0,1.0,1.0,33.1,33.4,33.4,4.4,3.9,2.785,0.14582723135389078,-0.026672531256930945,0.9658275224191356,-0.01234052792612176,-0.204114,-30.636308
11.185,2.0,1.0,1.0,33.1,33.4,33.4,4.4,3.9,2.7875,0.13356251222233737,-0.02717964648976506,0.9670755867576867,-0.013010129599506799,-0.208733,-30.419158
11.185,2.0,1.0,1.0,33.1,33.4,33.4,4.4,3.9,2.79,0.12115844750976856,-0.02769842198752505,0.9681638199089418,-0.013712375408534436,-0.213537,-30.198912
11.185,2.0,1.0,1.0,33.1,33.4,33.4,4.4,3.9,2.7925,0.1086141773254289,-0.028229184211051365,0.9690862901160824,-0.014449276398216979,-0.218536,-29.975452
11.185,2.0,1.0,1.0,33.1,33.4,33.4,4.4,3.9,2.795,0.09592888472392412,-0.02877226398367508,0.9698367938033823,-0.015223005963612897,-0.223743,-29.74865
11.185,2.0,1.0,1.0,33.1,33.4,33.4,4.4,3.9,2.7975,0.08310180046558313,-0.029327994872598365,0.9704088362557589,-0.01603591634707144,-0.229172,-29.518372
11.185,2.0,1.0,1.0,33.1,33.4,33.4,4.4,3.9,2.8,0.07013220837169352,-0.029896711106377066,0.9707956102001474,-0.016890557152748918,-0.234837,-29.284478
11.185,2.0,1.0,1.0,33.1,33.4,33.4,4.4,3.9,2.8025,0.05701945138550513,-0.030478744920598055,0.970989971994754,-0.01778969616543218,-0.240755,-29.046817
11.185,2.0,1.0,1.0,33.1,33.4,33.4,4.4,3.9,2.805,0.04376293847497661,-0.031074423198635123,0.9709844150845608,-0.018736342807120242,-0.246942,-28.80523
11.185,2.0,1.0,1.0,33.1,33.4,33.4,4.4,3.9,2.8075,0.030362152544565,-0.0316840632429367,0.9707710403251267,-0.019733774619600315,-0.253418,-28.559548
11.185,2.0,1.0,1.0,33.1,33.4,33.4,4.4,3.9,2.81,0.0168166595625487,-0.032307967472996114,0.9703415227100867,-0.020785567226060384,-0.260203,-28.309594
11.185,2.0,1.0,1.0,33.1,33.4,33.4,4.4,3.9,2.8125,0.00312611915961775,-0.0329464167968598,0.96968707395873,-0.0218956283016093,-0.267323,-28.055176
11.185,2.0,1.0,1.0,33.1,33.4,33.4,4.4,3.9,2.815,-0.010709702983599235,-0.033599662341005594,0.9687984003261243,-0.02306823617386273,-0.274801,-27.796092
11.185,2.0,1.0,1.0,33.1,33.4,33.4,4.4,3.9,2.8175,-0.024690920564075458,-0.03426791514511339,0.9676656548864021,-0.02430808378343706,-0.282667,-27.532127
11.185,2.0,1.0,1.0,33.1,33.4,33.4,4.4,3.9,2.82,-0.038817509403675274,-0.03495133332903858,0.9662783834063788,-0.025620328863865713,-0.290952,-27.263051
11.185,2.0,1.0,1.0,33.1,33.4,33.4,4.4,3.9,2.8225,-0.053089286894495616,-0.03565000611312953,0.964625462767085,-0.027010651355459075,-0.299691,-26.988618
11.185,2.0,1.0,1.0,33.1,33.4,33.4,4.4,3.9,2.825,-0.06750588735904986,-0.03636393391197258,0.9626950306996744,-0.02848531925325285,-0.308923,-26.708566
11.185,2.0,1.0,1.0,33.1,33.4,33.4,4.4,3.9,2.8275,-0.08206673233494026,-0.0370930035152069,0.9604744053728456,-0.030051264311830278,-0.318693,-26.422615
