1,w,sub_t,h,l1,l2,l3,g1,g2,Freq,S11_re,S21_re,S11_img,S21_img,S11_dB,S21_dB
11.185,2.0,1.0,1.0,34.5,34.6,34.6,3.7,2.8,2.5,0.700221164918078,-0.01253380227707,0.702250794775499,0.00532595195416978,-0.072407,-37.317451
11.185,2.0,1.0,1.0,34.5,34.6,34.6,3.7,2.8,2.5025,0.6944680406778968,-0.012770678843915712,0.7078039103827743,0.005295741335602859,-0.073262,-37.186595
11.185,2.0,1.0,1.0,34.5,34.6,34.6,3.7,2.8,2.505,0.6886384477247551,-0.013012065716180795,0.7133383670923543,0.005262913942160697,-0.074136,-37.055071
11.185,2.0,1.0,1.0,34.5,34.6,34.6,3.7,2.8,2.5075,0.6827315998524232,-0.013258070332320872,0.7188534001648058,0.005227367429364781,-0.075028,-36.922862
11.185,2.0,1.0,1.0,34.5,34.6,34.6,3.7,2.8,2.51,0.6767467008663348,-0.01350880356844458,0.724348222682721,0.005188995129333575,-0.075939,-36.789954
11.185,2.0,1.0,1.0,34.5,34.6,34.6,3.7,2.8,2.5125,0.6706829444943918,-0.013764379882194167,0.7298220248526386,0.0051476858340909785,-0.07687,-36.656331
11.185,2.0,1.0,1.0,34.5,34.6,34.6,3.7,2.8,2.515,0.6645395142977988,-0.014024917464175172,0.7352739732817306,0.005103323565873616,-0.077821,-36.521975
11.185,2.0,1.0,1.0,34.5,34.6,34.6,3.7,2.8,2.5175,0.6583155835818676,-0.014290538397406616,0.7407032102280395,0.005055787333514489,-0.078794,-36.386869
11.185,2.0,1.0,1.0,34.5,34.6,34.6,3.7,2.8,2.52,0.6520103153066749,-0.014561368825298392,0.7461088528230154,0.005004950873904502,-0.079788,-36.250996
11.185,2.0,1.0,1.0,34.5,34.6,34.6,3.7,2.8,2.5225,0.6456228619974815,-0.014837539128697189,0.7514899922649656,0.004950682377450607,-0.080805,-36.114338
11.185,2.0,1.0,1.0,34.5,34.6,34.6,3.7,2.8,2.525,0.6391523656547561,-0.015119184112583218,0.756845692981985,0.0048928441963584065,-0.081844,-35.976876
11.185,2.0,1.0,1.0,34.5,34.6,34.6,3.7,2.8,2.5275,0.6325979576636467,-0.015406443203041457,0.7621749917628017,0.004831292534467956,-0.082908,-35.838592
11.185,2.0,1.0,1.0,34.5,34.6,34.6,3.7,2.8,2.53,0.6259587587027178,-0.015699460655176592,0.7674768968538606,0.0047658771172620525,-0.083995,-35.699465
11.185,2.0,1.0,1.0,34.5,34.6,34.6,3.7,2.8,2.5325,0.6192338786517234,-0.015998385772691498,0.772750387020864,0.004696440840547407,-0.085109,-35.559475
11.185,2.0,1.0,1.0,34.5,34.6,34.6,3.7,2.8,2.535,0.6124224164981604,-0.016303373139901482,0.7779944105728361,0.004622819396177279,-0.086248,-35.418603
11.185,2.0,1.0,1.0,34.5,34.6,34.6,3.7,2.8,2.5375,0.6055234602423224,-0.016614582867014675,0.7832078843466332,0.004544840873040107,-0.087415,-35.276825
11.185,2.0,1.0,1.0,34.5,34.6,34.6,3.7,2.8,2.54,0.5985360868005027,-0.016932180849571803,0.788389692649671,0.004462325331379961,-0.088609,-35.134121
11.185,2.0,1.0,1.0,34.5,34.6,34.6,3.7,2.8,2.5425,0.5914593619059719,-0.017256339043006226,0.7935386861584456,0.004375084348339444,-0.089832,-34.990468
11.185,2.0,1.0,1.0,34.5,34.6,34.6,3.7,2.8,2.545,0.5842923400072917,-0.017587235753358053,0.7986536807702465,0.004282920532423406,-0.091085,-34.845842
11.185,2.0,1.0,1.0,34.5,34.6,34.6,3.7,2.8,2.5475,0.5770340641634841,-0.01792505594525573,0.8037334564052221,0.0041856270043686234,-0.092369,-34.700219
11.185,2.0,1.0,1.0,34.5,34.6,34.6,3.7,2.8,2.55,0.5696835659354734,-0.01826999156836538,0.80877675575575,0.00408298684166981,-0.093685,-34.553574
11.185,2.0,1.0,1.0,34.5,34.6,34.6,3.7,2.8,2.5525,0.5622398652732075,-0.01862224190359925,0.813782282979761,0.003974772483752657,-0.095034,-34.405881
11.185,2.0,1.0,1.0,34.5,34.6,34.6,3.7,2.8,2.555,0.5547019703977248,-0.01898201393047834,0.8187487023344172,0.003860745094496447,-0.096417,-34.257115
11.185,2.0,1.0,1.0,34.5,34.6,34.6,3.7,2.8,2.5575,0.5470688776773823,-0.01934952271715167,0.8236746367461968,0.0037406538784903543,-0.097836,-34.107247
11.185,2.0,1.0,1.0,34.5,34.6,34.6,3.7,2.8,2.56,0.5393395714973632,-0.019724991834694297,0.8285586663130715,0.0036142353470538418,-0.099292,-33.956249
11.185,2.0,1.0,1.0,34.5,34.6,34.6,3.7,2.8,2.5625,0.5315130241214643,-0.02010865379743469,0.8333993267341006,0.0034812125296585505,-0.100785,-33.804092
11.185,2.0,1.0,1.0,34.5,34.6,34.6,3.7,2.8,2.565,0.5235881955450462,-0.020500750531202223,0.8381951076612862,0.0033412941259522815,-0.102319,-33.650745
11.185,2.0,1.0,1.0,34.5,34.6,34.6,3.7,2.8,2.5675,0.5155640333379279,-0.02090153387153556,0.8429444509680625,0.0031941735930995775,-0.103893,-33.496178
11.185,2.0,1.0,1.0,34.5,34.6,34.6,3.7,2.8,2.57,0.5074394724758248,-0.021311266094058836,0.8476457489282426,0.0030395281626110337,-0.10551,-33.340357
11.185,2.0,1.0,1.0,34.5,34.6,34.6,3.7,2.8,2.5725,0.4992134351588106,-0.021730220479408882,0.8522973422986242,0.002877017780228773,-0.107172,-33.183249
11.185,2.0,1.0,1.0,34.5,34.6,34.6,3.7,2.8,2.575,0.4908848306150889,-0.022158681915290766,0.8568975182977856,0.0027062839617594276,-0.108879,-33.02482
11.185,2.0,1.0,1.0,34.5,34.6,34.6,3.7,2.8,2.5775,0.4824525548881936,-0.022596947538447407,0.8614445084728177,0.0025269485569899314,-0.110635,-32.865032
11.185,2.0,1.0,1.0,34.5,34.6,34.6,3.7,2.8,2.58,0.47391549060551735,-0.023045327419555707,0.865936486444901,0.0023386124129739197,-0.112441,-32.703848
11.185,2.0,1.0,1.0,34.5,34.6,34.6,3.7,2.8,2.5825,0.46527250672584436,-0.02350414529430754,0.8703715655236545,0.002140853927026225,-0.114298,-32.541229
11.185,2.0,1.0,1.0,34.5,34.6,34.6,3.7,2.8,2.585,0.4565224582633334,-0.023973739344197973,0.8747477961791029,0.0019332274786955054,-0.11621,-32.377135
11.185,2.0,1.0,1.0,34.5,34.6,34.6,3.7,2.8,2.5875,0.4476641859850995,-0.024454463030831368,0.8790631633589076,0.0017152617287836118,-0.118179,-32.211523
11.185,2.0,1.0,1.0,34.5,34.6,34.6,3.7,2.8,2.59,0.43869651607929444,-0.024946685987863617,0.8833155836370918,0.0014864577721279565,-0.120206,-32.044351
11.185,2.0,1.0,1.0,34.5,34.6,34.6,3.7,2.8,2.5925,0.42961825979021573,-0.02545079497503486,0.8875029021789839,0.0012462871293361902,-0.122295,-31.875571
11.185,2.0,1.0,1.0,34.5,34.6,34.6,3.7,2.8,2.595,0.4204282130166853,-0.025967194899102982,0.8916228895052999,0.0009941895609387194,-0.124449,-31.705138
11.185,2.0,1.0,1.0,34.5,34.6,34.6,3.7,2.8,2.5975,0.41112515586950765,-0.02649630990687717,0.8956732380363484,0.0007295706854720046,-0.12667,-31.533001
11.185,2.0,1.0,1.0,34.5,34.6,34.6,3.7,2.8,2.6,0.4017078521834571,-0.027038584555960414,0.89965155839503,0.00045179938079494057,-0.128961,-31.359109
11.185,2.0,1.0,1.0,34.5,34.6,34.6,3.7,2.8,2.6025,0.39217504897879857,-0.02759448506925203,0.9035553754447818,0.000160204945429191,-0.131326,-31.183408
11.185,2.0,1.0,1.0,34.5,34.6,34.6,3.7,2.8,2.605,0.3825254758668559,-0.028164500679729677,0.9073821240356909,-0.00014592600614094433,-0.133769,-31.005842
11.185,2.0,1.0,1.0,34.5,34.6,34.6,3.7,2.8,2.6075,0.3727578443936821,-0.028749145072524445,0.9111291444286531,-0.00046735294352461915,-0.136293,-30.826354
11.185,2.0,1.0,1.0,34.5,34.6,34.6,3.7,2.8,2.61,0.3628708473153336,-0.029348957931823714,0.9147936773636934,-0.0008048851488629999,-0.138902,-30.644881
11.185,2.0,1.0,1.0,34.5,34.6,34.6,3.7,2.8,2.6125,0.3528631577977047,-0.02996450660067941,0.9183728587341854,-0.0011593858109175629,-0.1416,-30.461361
11.185,2.0,1.0,1.0,34.5,34.6,34.6,3.7,2.8,2.615,0.3427334285332898,-0.03059638786235839,0.9218637138237662,-0.001531776526931744,-0.144393,-30.275725
11.185,2.0,1.0,1.0,34.5,34.6,34.6,3.7,2.8,2.6175,0.3324802907666772,-0.031245229852441405,0.9252631510569954,-0.0019230422599602307,-0.147285,-30.087906
11.185,2.0,1.0,1.0,34.5,34.6,34.6,3.7,2.8,2.62,0.3221023532199413,-0.03191169411144661,0.9285679552082537,-0.0023342368057646347,-0.150281,-29.897828
11.185,2.0,1.0,1.0,34.5,34.6,34.6,3.7,2.8,2.6225,0.31159820090851414,-0.03259647778830819,0.9317747800058206,-0.0027664888307494606,-0.153387,-29.705416
11.185,2.0,1.0,1.0,34.5,34.6,34.6,3.7,2.8,2.625,0.300966393837597,-0.0333003160055571,0.934880140059269,-0.00322100855092154,-0.15661,-29.51059
11.185,2.0,1.0,1.0,34.5,34.6,34.6,3.7,2.8,2.6275,0.29020546556856297,-0.03402398439751147,0.9378804020282777,-0.003699095131700578,-0.159956,-29.313264
11.185,2.0,1.0,1.0,34.5,34.6,34.6,3.7,2.8,2.63,0.27931392164446806,-0.034768301833136644,0.9407717749391623,-0.004202144899811276,-0.163431,-29.11335
11.185,2.0,1.0,1.0,34.5,34.6,34.6,3.7,2.8,2.6325,0.26829023786344663,-0.03553413333544749,0.9435502995418223,-0.0047316604717347315,-0.167045,-28.910755
11.185,2.0,1.0,1.0,34.5,34.6,34.6,3.7,2.8,2.635,0.25713285838868377,-0.03632239320931905,0.9462118365839398,-0.005289260918613018,-0.170805,-28.705381
11.185,2.0,1.0,1.0,34.5,34.6,34.6,3.7,2.8,2.6375,0.24584019368387333,-0.037134048389267725,0.9487520538607124,-0.005876693105487742,-0.174719,-28.497125
11.185,2.0,1.0,1.0,34.5,34.6,34.6,3.7,2.8,2.64,0.23441061826362886,-0.0379701220180506,0.9511664118767449,-0.006495844363786663,-0.178799,-28.285877
11.185,2.0,1.0,1.0,34.5,34.6,34.6,3.7,2.8,2.6425,0.22284246824949963,-0.03883169726564563,0.9534501479313089,-0.007148756680624479,-0.183055,-28.071524
11.185,2.0,1.0,1.0,34.5,34.6,34.6,3.7,2.8,2.645,0.21113403872410072,-0.03971992139613821,0.9555982584082999,-0.007837642617456949,-0.187498,-27.853943
11.185,2.0,1.0,1.0,34.5,34.6,34.6,3.7,2.8,2.6475,0.1992835808788009,-0.04063601008697462,0.9576054790169967,-0.008564903204754832,-0.192141,-27.633008
11.185,2.0,1.0,1.0,34.5,34.6,34.6,3.7,2.8,2.65,0.18728929895459986,-0.041581252000620704,0.9594662626881715,-0.009333148099677249,-0.196999,-27.408583
11.185,2.0,1.0,1.0,34.5,34.6,34.6,3.7,2.8,2.6525,0.1751493469819864,-0.04255701360241924,0.9611747547807603,-0.010145218341459102,-0.202085,-27.180524
11.185,2.0,1.0,1.0,34.5,34.6,34.6,3.7,2.8,2.655,0.16286182533391508,-0.043564744209798674,0.962724765195831,-0.011004212095922263,-0.207417,-26.948681
11.185,2.0,1.0,1.0,34.5,34.6,34.6,3.7,2.8,2.6575,0.1504247771178072,-0.04460598124613408,0.964109736924795,-0.011913513848021265,-0.213014,-26.712891
11.185,2.0,1.0,1.0,34.5,34.6,34.6,3.7,2.8,2.66,0.1378361844483433,-0.04568235565648584,0.9653227104755927,-0.01287682758195369,-0.218895,-26.472985
11.185,2.0,1.0,1.0,34.5,34.6,34.6,3.7,2.8,2.6625,0.1250939646644456,-0.04679559742074019,0.9663562835207544,-0.01389821458491331,-0.225082,-26.228781
11.185,2.0,1.0,1.0,34.5,34.6,34.6,3.7,2.8,2.665,0.11219596658290806,-0.047947541070527684,0.9672025649913816,-0.014982136626546252,-0.231602,-25.980085
11.185,2.0,1.0,1.0,34.5,34.6,34.6,3.7,2.8,2.6675,0.0991399669203005,-0.04914013107723208,0.9678531226966318,-0.016133505405901173,-0.23848,-25.726693
11.185,2.0,1.0,1.0,34.5,34.6,34.6,3.7,2.8,2.67,0.08592366706722497,-0.05037542692616404,0.9682989233736341,-0.017357739326541836,-0.245748,-25.468385
11.185,2.0,1.0,1.0,34.5,34.6,34.6,3.7,2.8,2.6725,0.07254469046929507,-0.05165560762213579,0.9685302638610246,-0.018660828865206845,-0.253439,-25.204926
11.185,2.0,1.0,1.0,34.5,34.6,34.6,3.7,2.8,2.675,0.05900058096348685,-0.05298297527830595,0.9685366918316832,-0.020049412048345924,-0.261592,-24.936067
11.185,2.0,1.0,1.0,34.5,34.6,34.6,3.7,2.8,2.6775,0.04528880254472383,-0.05435995731522981,0.9683069142060416,-0.021530861854536093,-0.270249,-24.661539
11.185,2.0,1.0,1.0,34.5,34.6,34.6,3.7,2.8,2.68,0.03140674120718412,-0.05578910662961551,0.9678286909825721,-0.023113387732364144,-0.279459,-24.381055
11.185,2.0,1.0,1.0,34.5,34.6,34.6,3.7,2.8,2.6825,0.017351709732836618,-0.057273098867434355,0.9670887117498621,-0.024806153879435053,-0.289276,-24.094309
11.185,2.0,1.0,1.0,34.5,34.6,34.6,3.7,2.8,2.685,0.003120956607191525,-0.05881472563329304,0.9660724515630293,-0.02661941748962363,-0.299761,-23.800967
11.185,2.0,1.0,1.0,34.5,34.6,34.6,3.7,2.8,2.6875,-0.011288319341977545,-0.0604168820591111,0.9647640021489684,-0.028564690868844455,-0.310984,-23.500676
11.185,2.0,1.0,1.0,34.5,34.6,34.6,3.7,2.8,2.69,-0.025878946422968774,-0.06208254660102533,0.9631458735153641,-0.030654932177664098,-0.323024,-23.193049
11.185,2.0,1.0,1.0,34.5,34.6,34.6,3.7,2.8,2.6925,-0.04065374674727122,-0.06381475017951983,0.9611987599341549,-0.03290477062379373,-0.335974,-22.877674
11.185,2.0,1.0,1.0,34.5,34.6,34.6,3.7,2.8,2.695,-0.0556154881060143,-0.06561653074755353,0.9589012628964254,-0.03533077325126749,-0.349937,-22.554103
11.185,2.0,1.0,1.0,34.5,34.6,34.6,3.7,2.8,2.6975,-0.07076681563209164,-0.06749086795710066,0.9562295619242239,-0.037951762121392466,-0.365036,-22.221852
11.185,2.0,1.0,1.0,34.5,34.6,34.6,3.7,2.8,2.7,-0.08611015582954808,-0.06944059064293291,0.9531570219909259,-0.04078919273417847,-0.381409,-21.880395
11.185,2.0,1.0,1.0,34.5,34.6,34.6,3.7,2.8,2.7025,-0.1016475827825195,-0.07146824713515315,0.9496537236419559,-0.043867607096527685,-0.399221,-21.529164
11.185,2.0,1.0,1.0,34.5,34.6,34.6,3.7,2.8,2.705,-0.11738063248905971,-0.0735759246348225,0.9456858985985099,-0.047215178022109006,-0.418663,-21.167538
11.185,2.0,1.0,1.0,34.5,34.6,34.6,3.7,2.8,2.7075,-0.13331004583408715,-0.07576499858580621,0.9412152495267705,-0.05086436518129624,-0.43996,-20.794844
11.185,2.0,1.0,1.0,34.5,34.6,34.6,3.7,2.8,2.71,-0.14943541303966262,-0.07803578548950656,0.9361981276122651,-0.0548527082491461,-0.46338,-20.410348
11.185,2.0,1.0,1.0,34.5,34.6,34.6,3.7,2.8,2.7125,-0.16575468151387365,-0.08038706196922409,0.9305845354551266,-0.05922378835153676,-0.489238,-20.01325
11.185,2.0,1.0,1.0,34.5,34.6,34.6,3.7,2.8,2.715,-0.18226347339175078,-0.08281539767122575,0.9243169155207506,-0.06402839594577314,-0.517916,-19.602677
11.185,2.0,1.0,1.0,34.5,34.6,34.6,3.7,2.8,2.7175,-0.19895413654671967,-0.08531422767868493,0.9173286760320765,-0.06932595118651529,-0.549873,-19.177675
11.185,2.0,1.0,1.0,34.5,34.6,34.6,3.7,2.8,2.72,-0.21581442020993227,-0.08787255837372178,0.9095423972361846,-0.07518623124525049,-0.585665,-18.737206
11.185,2.0,1.0,1.0,34.5,34.6,34.6,3.7,2.8,2.7225,-0.23282561873798377,-0.09047315443546633,0.9008676526521827,-0.0816914667340181,-0.625973,-18.280137
11.185,2.0,1.0,1.0,34.5,34.6,34.6,3.7,2.8,2.725,-0.24995995731545098,-0.09308998694390619,0.8911983749803968,-0.08893887358060264,-0.671639,-17.805237
11.185,2.0,1.0,1.0,34.5,34.6,34.6,3.7,2.8,2.7275,-0.26717689077861206,-0.09568462304737149,0.880409700593246,-0.0970436817216799,-0.723706,-17.311174
11.185,2.0,1.0,1.0,34.5,34.6,34.6,3.7,2.8,2.73,-0.28441783561621264,-0.09820109122618163,0.8683542514690349,-0.10614269649135767,-0.783486,-16.796517
11.185,2.0,1.0,1.0,34.5,34.6,34.6,3.7,2.8,2.7325,-0.30159863307035245,-0.10055854123797905,0.8548578815877401,-0.1163983605316805,-0.852636,-16.259743
11.185,2.0,1.0,1.0,34.5,34.6,34.6,3.7,2.8,2.735,-0.3185987174211313,-0.10264070495475876,0.8397150694704695,-0.1280031311480545,-0.933275,-15.699263
11.185,2.0,1.0,1.0,34.5,34.6,34.6,3.7,2.8,2.7375,-0.33524550008600307,-0.104280717463801,0.8226844619185353,-0.14118367013980343,-1.028133,-15.113464
11.185,2.0,1.0,1.0,34.5,34.6,34.6,3.7,2.8,2.74,-0.3512918415082138,-0.10523924390667803,0.8034857201706334,-0.15620371037623434,-1.140763,-14.500788
11.185,2.0,1.0,1.0,34.5,34.6,34.6,3.7,2.8,2.7425,-0.3663836693922709,-0.10517307971153243,0.7818000719947893,-0.1733632407502555,-1.275824,-13.859871
11.185,2.0,1.0,1.0,34.5,34.6,34.6,3.7,2.8,2.745,-0.3800139466169015,-0.10359058410049692,0.7572793360751598,-0.1929893503429614,-1.439466,-13.189769
11.185,2.0,1.0,1.0,34.5,34.6,34.6,3.7,2.8,2.7475,-0.3914588085831195,-0.09978997583045579,0.7295725027345593,-0.21540987934383515,-1.639824,-12.490332
11.185,2.0,1.0,1.0,34.5,34.6,34.6,3.7,2.8,2.75,-0.399693256520718,-0.0927781139042124,0.698386465740075,-0.240893751914008,-1.887613,-11.762808
11.185,2.0,1.0,1.0,34.5,34.6,34.6,3.7,2.8,2.7525,-0.40329098951274145,-0.08117448812332365,0.6636094384414627,-0.26953035519019236,-2.196675,-11.01078
11.185,2.0,1.0,1.0,34.5,34.6,34.6,3.7,2.8,2.755,-0.4003337882632485,-0.06312551349300134,0.6255411140433075,-0.30100548089638496,-2.584003,-10.241588
11.185,2.0,1.0,1.0,34.5,34.6,34.6,3.7,2.8,2.7575,-0.38840451180120467,-0.03630151233652877,0.5852830689891588,-0.3342227085938677,-3.067882,-9.468346
11.185,2.0,1.0,1.0,34.5,34.6,34.6,3.7,2.8,2.76,-0.3648288301333025,0.0018632635749413148,0.5453117156136321,-0.36675036250933163,-3.660622,-8.712477
11.185,2.0,1.0,1.0,34.5,34.6,34.6,3.7,2.8,2.7625,-0.3274425431843999,0.05342062590297862,0.5101040269216032,-0.39422288831796826,-4.348316,-8.006139
11.185,2.0,1.0,1.0,34.5,34.6,34.6,3.7,2.8,2.765,-0.2761350079684396,0.11841132421963009,0.4863189818151524,-0.41018111636498894,-5.047934,-7.392853
11.185,2.0,1.0,1.0,34.5,34.6,34.6,3.7,2.8,2.7675,-0.21487694326450746,0.19291421757109073,0.48159361309902904,-0.40725949779605763,-5.55792,-6.92341
11.185,2.0,1.0,1.0,34.5,34.6,34.6,3.7,2.8,2.77,-0.15270824430321317,0.26812467207960633,0.5013129100099154,-0.380322621201856,-5.61245,-6.644696
11.185,2.0,1.0,1.0,34.5,34.6,34.6,3.7,2.8,2.7725,-0.10153691584511082,0.33252434064391284,0.5447415995654222,-0.33018323397051946,-5.127864,-6.583807
11.185,2.0,1.0,1.0,34.5,34.6,34.6,3.7,2.8,2.775,-0.07095392666461538,0.37690317809258805,0.6040640613852017,-0.26447656088335914,-4.31883,-6.736562
11.185,2.0,1.0,1.0,34.5,34.6,34.6,3.7,2.8,2.7775,-0.0640571425789888,0.3983577361462441,0.6680152209444613,-0.1941107220759813,-3.464521,-7.069296
11.185,2.0,1.0,1.0,34.5,34.6,34.6,3.7,2.8,2.78,-0.07765500562485832,0.40004586717681456,0.7269969179869209,-0.1283276591496687,-2.720078,-7.532438
11.185,2.0,1.0,1.0,34.5,34.6,34.6,3.7,2.8,2.7825,-0.10556035456484449,0.3879832168882958,0.7756961033160669,-0.07220475970059456,-2.126476,-8.075873
11.185,2.0,1.0,1.0,34.5,34.6,34.6,3.7,2.8,2.785,-0.1416898915195818,0.3680543571723463,0.8126921183517188,-0.027059896906529338,-1.671435,-8.658349
11.185,2.0,1.0,1.0,34.5,34.6,34.6,3.7,2.8,2.7875,-0.1814896971907309,0.3446491609056893,0.8388514397293972,0.007987694012605968,-1.327622,-9.250123
11.185,2.0,1.0,1.0,34.5,34.6,34.6,3.7,2.8,2.79,-0.2220664248071765,0.32054642712656906,0.8559331310299976,0.034669987395359946,-1.068293,-9.831671
11.185,2.0,1.0,1.0,34.5,34.6,34.6,3.7,2.8,2.7925,-0.2617979989864896,0.2972954475505915,0.865790675658005,0.054802130199717,-0.871768,-10.391115
11.185,2.0,1.0,1.0,34.5,34.6,34.6,3.7,2.8,2.795,-0.2998890922523863,0.27564766122956913,0.8700361176436265,0.06996107689201894,-0.721698,-10.921793
11.185,2.0,1.0,1.0,34.5,34.6,34.6,3.7,2.8,2.7975,-0.3360312596864943,0.2558855783974708,0.869955094297213,0.08140579661110134,-0.606111,-11.420386
11.185,2.0,1.0,1.0,34.5,34.6,34.6,3.7,2.8,2.8,-0.370181453127381,0.23803667472908657,0.8665289108294819,0.09010011776355814,-0.516327,-11.885625
11.185,2.0,1.0,1.0,34.5,34.6,34.6,3.7,2.8,2.8025,-0.40242952554049405,0.22200109989166866,0.8604898237618448,0.09676711264263622,-0.446046,-12.317441
11.185,2.0,1.0,1.0,34.5,34.6,34.6,3.7,2.8,2.805,-0.43292327689353083,0.20762376633361326,0.8523781359491334,0.10194489688294094,-0.390676,-12.71643
11.185,2.0,1.0,1.0,34.5,34.6,34.6,3.7,2.8,2.8075,-0.46182800143713554,0.1947331393383198,0.8425904550382185,0.10603370086833938,-0.346836,-13.083515
11.185,2.0,1.0,1.0,34.5,34.6,34.6,3.7,2.8,2.81,-0.48930582019763924,0.18316095788200024,0.8314172253162031,0.10933247951889953,-0.312021,-13.41974
11.185,2.0,1.0,1.0,34.5,34.6,34.6,3.7,2.8,2.8125,-0.515506002912327,0.172751377903942,0.819070760503139,0.112066304610383,-0.28435,-13.726147
11.185,2.0,1.0,1.0,34.5,34.6,34.6,3.7,2.8,2.815,-0.5405612117160201,0.16336442249126074,0.8057057579724773,0.11440649077245192,-0.262405,-14.003704
11.185,2.0,1.0,1.0,34.5,34.6,34.6,3.7,2.8,2.8175,-0.5645868137468798,0.1548764829237573,0.7914341593562921,0.11648528340720136,-0.245102,-14.253259
11.185,2.0,1.0,1.0,34.5,34.6,34.6,3.7,2.8,2.82,-0.5876816854887879,0.14717938257479934,0.7763358625145667,0.11840658347044342,-0.231609,-14.475522
11.185,2.0,1.0,1.0,34.5,34.6,34.6,3.7,2.8,2.8225,-0.6099296530768343,0.14017881903918297,0.7604664196046876,0.12025382455897338,-0.221286,-14.671045
11.185,2.0,1.0,1.0,34.5,34.6,34.6,3.7,2.8,2.825,-0.6314011154882228,0.1337926104628181,0.743862547578896,0.12209582057225772,-0.213636,-14.840222
11.185,2.0,1.0,1.0,34.5,34.6,34.6,3.7,2.8,2.8275,-0.6521546194047758,0.12794895639314816,0.7265460410565319,0.12399117668993706,-0.208274,-14.983281
11.185,2.0,1.0,1.0,34.5,34.6,34.6,3.7,2.8,2.83,-0.6722382744677623,0.1225848050791436,0.7085265030299474,0.12599169262378931,-0.204907,-15.100283
