1,w,sub_t,h,l1,l2,l3,g1,g2,Freq,S11_re,S21_re,S11_img,S21_img,S11_dB,S21_dB
11.185,2.0,1.0,1.0,33.1,34.7,34.7,2.1,4.0,2.5,0.883956939798798,-0.0073878809390132,0.452681981734818,0.00702509108016744,-0.059906,-39.832478
11.185,2.0,1.0,1.0,33.1,34.7,34.7,2.1,4.0,2.5025,0.8809877581609614,-0.007560040422721433,0.45827281214374066,0.00708307134668035,-0.060555,-39.693027
11.185,2.0,1.0,1.0,33.1,34.7,34.7,2.1,4.0,2.505,0.8779690365929934,-0.007736133700031571,0.4638676539993453,0.007141094642394647,-0.061218,-39.552917
11.185,2.0,1.0,1.0,33.1,34.7,34.7,2.1,4.0,2.5075,0.8749001978342843,-0.007916273895599752,0.46946638443373,0.007199144447226223,-0.061896,-39.412132
11.185,2.0,1.0,1.0,33.1,34.7,34.7,2.1,4.0,2.51,0.8717806514757026,-0.008100578421457331,0.47506887586443713,0.007257203162669066,-0.062588,-39.270653
11.185,2.0,1.0,1.0,33.1,34.7,34.7,2.1,4.0,2.5125,0.8686097935505592,-0.008289169178345386,0.48067499578900874,0.007315252042319071,-0.063295,-39.128462
11.185,2.0,1.0,1.0,33.1,34.7,34.7,2.1,4.0,2.515,0.8653870061080735,-0.008482172768329166,0.48628460656964234,0.0073732711175026775,-0.064018,-38.985541
11.185,2.0,1.0,1.0,33.1,34.7,34.7,2.1,4.0,2.5175,0.862111656768373,-0.008679720719426551,0.4918975652073414,0.007431239117624609,-0.064757,-38.84187
11.185,2.0,1.0,1.0,33.1,34.7,34.7,2.1,4.0,2.52,0.8587830982579702,-0.008881949723040272,0.497513723104939,0.00748913338481674,-0.065513,-38.69743
11.185,2.0,1.0,1.0,33.1,34.7,34.7,2.1,4.0,2.5225,0.8554006679246127,-0.00908900188504139,0.5031329258182852,0.007546929782431143,-0.066286,-38.5522
11.185,2.0,1.0,1.0,33.1,34.7,34.7,2.1,4.0,2.525,0.8519636872302995,-0.009301024991416886,0.5087550127948833,0.007604602596881802,-0.067076,-38.406162
11.185,2.0,1.0,1.0,33.1,34.7,34.7,2.1,4.0,2.5275,0.848471461221193,-0.009518172789462723,0.5143798170991709,0.0076621244322930444,-0.067885,-38.259292
11.185,2.0,1.0,1.0,33.1,34.7,34.7,2.1,4.0,2.53,0.8449232779730521,-0.009740605285579327,0.5200071651235818,0.007719466097364519,-0.068713,-38.111571
11.185,2.0,1.0,1.0,33.1,34.7,34.7,2.1,4.0,2.5325,0.8413184080107254,-0.009968489060808315,0.5256368762844759,0.007776596483808186,-0.06956,-37.962976
11.185,2.0,1.0,1.0,33.1,34.7,34.7,2.1,4.0,2.535,0.8376561037001178,-0.01020199760533836,0.5312687627019335,0.007833482435653037,-0.070428,-37.813484
11.185,2.0,1.0,1.0,33.1,34.7,34.7,2.1,4.0,2.5375,0.8339355986109567,-0.010441311673304636,0.5369026288623295,0.00789008860864791,-0.071316,-37.663073
11.185,2.0,1.0,1.0,33.1,34.7,34.7,2.1,4.0,2.54,0.8301561068485308,-0.010686619659311388,0.5425382712625254,0.007946377318919782,-0.072226,-37.511719
11.185,2.0,1.0,1.0,33.1,34.7,34.7,2.1,4.0,2.5425,0.8263168223524532,-0.010938117998222429,0.5481754780344121,0.00800230837996529,-0.073158,-37.359396
11.185,2.0,1.0,1.0,33.1,34.7,34.7,2.1,4.0,2.545,0.8224169181603544,-0.011196011589888826,0.5538140285484272,0.008057838926964173,-0.074113,-37.206081
11.185,2.0,1.0,1.0,33.1,34.7,34.7,2.1,4.0,2.5475,0.8184555456342434,-0.011460514250618965,0.5594536929945514,0.008112923227305814,-0.075093,-37.051748
11.185,2.0,1.0,1.0,33.1,34.7,34.7,2.1,4.0,2.55,0.8144318336470998,-0.011731849193346475,0.5650942319391812,0.008167512476111098,-0.076097,-36.89637
11.185,2.0,1.0,1.0,33.1,34.7,34.7,2.1,4.0,2.5525,0.8103448877270869,-0.012010249538611574,0.5707353958560863,0.00822155457541192,-0.077127,-36.739919
11.185,2.0,1.0,1.0,33.1,34.7,34.7,2.1,4.0,2.555,0.8061937891565387,-0.012295958858651309,0.5763769246295561,0.008274993895516697,-0.078183,-36.582369
11.185,2.0,1.0,1.0,33.1,34.7,34.7,2.1,4.0,2.5575,0.8019775940226734,-0.01258923175708733,0.58201854702763,0.008327771016942213,-0.079267,-36.42369
11.185,2.0,1.0,1.0,33.1,34.7,34.7,2.1,4.0,2.56,0.7976953322167317,-0.012890334486912321,0.5876599801431175,0.008379822451127113,-0.08038,-36.263853
11.185,2.0,1.0,1.0,33.1,34.7,34.7,2.1,4.0,2.5625,0.7933460063779659,-0.013199545609709908,0.5933009287999228,0.008431080337958573,-0.081522,-36.102828
11.185,2.0,1.0,1.0,33.1,34.7,34.7,2.1,4.0,2.565,0.7889285907786118,-0.013517156699298441,0.5989410849219261,0.008481472117939268,-0.082696,-35.940582
11.185,2.0,1.0,1.0,33.1,34.7,34.7,2.1,4.0,2.5675,0.7844420301456576,-0.013843473093268537,0.6045801268614239,0.008530920176593805,-0.083901,-35.777084
11.185,2.0,1.0,1.0,33.1,34.7,34.7,2.1,4.0,2.57,0.7798852384148728,-0.014178814696193452,0.6102177186838472,0.008579341458457658,-0.08514,-35.612301
11.185,2.0,1.0,1.0,33.1,34.7,34.7,2.1,4.0,2.5725,0.7752570974121589,-0.014523516838629768,0.615853509405137,0.008626647047708696,-0.086414,-35.446197
11.185,2.0,1.0,1.0,33.1,34.7,34.7,2.1,4.0,2.575,0.7705564554568796,-0.014877931196397336,0.6214871321778059,0.008672741712180314,-0.087724,-35.278738
11.185,2.0,1.0,1.0,33.1,34.7,34.7,2.1,4.0,2.5775,0.7657821258813514,-0.015242426775039085,0.6271182034213152,0.008717523407139282,-0.089071,-35.109887
11.185,2.0,1.0,1.0,33.1,34.7,34.7,2.1,4.0,2.58,0.760932885460164,-0.015617390964811765,0.6327463218919268,0.008760882734808973,-0.090458,-34.939607
11.185,2.0,1.0,1.0,33.1,34.7,34.7,2.1,4.0,2.5825,0.75600747274244,-0.016003230672058985,0.6383710676867231,0.008802702355169745,-0.091885,-34.767857
11.185,2.0,1.0,1.0,33.1,34.7,34.7,2.1,4.0,2.585,0.7510045862795193,-0.0164003735333666,0.6439920011758881,0.00884285634305938,-0.093355,-34.594599
11.185,2.0,1.0,1.0,33.1,34.7,34.7,2.1,4.0,2.5875,0.7459228827398766,-0.016809269219509863,0.649608661856735,0.0088812094860278,-0.094869,-34.419789
11.185,2.0,1.0,1.0,33.1,34.7,34.7,2.1,4.0,2.59,0.740760974902324,-0.017230390836873437,0.6552205671222419,0.008917616516754594,-0.09643,-34.243386
11.185,2.0,1.0,1.0,33.1,34.7,34.7,2.1,4.0,2.5925,0.7355174295177073,-0.017664236434770896,0.6608272109360804,0.008951921273112682,-0.098039,-34.065343
11.185,2.0,1.0,1.0,33.1,34.7,34.7,2.1,4.0,2.595,0.7301907650284204,-0.018111330627913085,0.6664280624051855,0.008983955778138462,-0.099699,-33.885616
11.185,2.0,1.0,1.0,33.1,34.7,34.7,2.1,4.0,2.5975,0.7247794491339871,-0.018572226344192474,0.6720225642399447,0.009013539231238111,-0.101412,-33.704156
11.185,2.0,1.0,1.0,33.1,34.7,34.7,2.1,4.0,2.6,0.7192818961898928,-0.019047506708962565,0.6776101310909137,0.0090404769009049,-0.10318,-33.520914
11.185,2.0,1.0,1.0,33.1,34.7,34.7,2.1,4.0,2.6025,0.7136964644255648,-0.019537787078120924,0.6831901477496544,0.009064558908022404,-0.105006,-33.335837
11.185,2.0,1.0,1.0,33.1,34.7,34.7,2.1,4.0,2.605,0.7080214529660122,-0.020043717233558585,0.6887619671998606,0.009085558887466566,-0.106893,-33.148873
11.185,2.0,1.0,1.0,33.1,34.7,34.7,2.1,4.0,2.6075,0.7022550986401289,-0.02056598375593324,0.6943249085032326,0.009103232514164896,-0.108844,-32.959967
11.185,2.0,1.0,1.0,33.1,34.7,34.7,2.1,4.0,2.61,0.6963955725569168,-0.02110531259127899,0.6998782545026622,0.009117315878000203,-0.110861,-32.76906
11.185,2.0,1.0,1.0,33.1,34.7,34.7,2.1,4.0,2.6125,0.6904409764290045,-0.021662471829699725,0.7054212493231479,0.009127523689920375,-0.112949,-32.576093
11.185,2.0,1.0,1.0,33.1,34.7,34.7,2.1,4.0,2.615,0.6843893386207159,-0.02223827471632647,0.7109530956483737,0.009133547299297913,-0.11511,-32.381003
11.185,2.0,1.0,1.0,33.1,34.7,34.7,2.1,4.0,2.6175,0.6782386098955645,-0.022833582916881166,0.7164729517480369,0.00913505249992448,-0.117349,-32.183726
11.185,2.0,1.0,1.0,33.1,34.7,34.7,2.1,4.0,2.62,0.6719866588354471,-0.02344931006260496,0.7219799282278204,0.009131677098972852,-0.11967,-31.984195
11.185,2.0,1.0,1.0,33.1,34.7,34.7,2.1,4.0,2.6225,0.6656312669008122,-0.02408642560201275,0.7274730844701375,0.009123028219745194,-0.122077,-31.78234
11.185,2.0,1.0,1.0,33.1,34.7,34.7,2.1,4.0,2.625,0.659170123097855,-0.0247459589899602,0.732951424729523,0.00910867930497583,-0.124575,-31.578087
11.185,2.0,1.0,1.0,33.1,34.7,34.7,2.1,4.0,2.6275,0.6526008182150423,-0.025429004247906832,0.7384138938416343,0.00908816678278023,-0.127169,-31.37136
11.185,2.0,1.0,1.0,33.1,34.7,34.7,2.1,4.0,2.63,0.64592083858719,-0.026136724933056715,0.7438593724990903,0.00906098635192701,-0.129863,-31.162081
11.185,2.0,1.0,1.0,33.1,34.7,34.7,2.1,4.0,2.6325,0.6391275593406875,-0.026870359558333678,0.749286672040847,0.009026588836835143,-0.132665,-30.950165
11.185,2.0,1.0,1.0,33.1,34.7,34.7,2.1,4.0,2.635,0.6322182370682644,-0.027631227509937645,0.7546945286941245,0.008984375555405075,-0.13558,-30.735527
11.185,2.0,1.0,1.0,33.1,34.7,34.7,2.1,4.0,2.6375,0.6251900018759221,-0.02842073551461727,0.7600815971990645,0.008933693134303616,-0.138616,-30.518076
11.185,2.0,1.0,1.0,33.1,34.7,34.7,2.1,4.0,2.64,0.6180398487380704,-0.02924038471484995,0.7654464437359618,0.008873827696416684,-0.141778,-30.297717
11.185,2.0,1.0,1.0,33.1,34.7,34.7,2.1,4.0,2.6425,0.6107646280896385,-0.030091778416923638,0.7707875380628204,0.008803998333602367,-0.145076,-30.074352
11.185,2.0,1.0,1.0,33.1,34.7,34.7,2.1,4.0,2.645,0.603361035575673,-0.030976630584574335,0.7761032447569386,0.008723349764302942,-0.148517,-29.847876
11.185,2.0,1.0,1.0,33.1,34.7,34.7,2.1,4.0,2.6475,0.5958256008696765,-0.0318967751594373,0.781391813437603,0.008630944059631596,-0.152111,-29.618181
11.185,2.0,1.0,1.0,33.1,34.7,34.7,2.1,4.0,2.65,0.5881546754615739,-0.03285417629925342,0.7866513678275958,0.008525751302776392,-0.155869,-29.385154
11.185,2.0,1.0,1.0,33.1,34.7,34.7,2.1,4.0,2.6525,0.580344419304524,-0.03385093963563837,0.7918798934882092,0.008406639024409376,-0.1598,-29.148673
11.185,2.0,1.0,1.0,33.1,34.7,34.7,2.1,4.0,2.655,0.5723907861966966,-0.03488932466544195,0.7970752240354494,0.008272360230570342,-0.163917,-28.908614
11.185,2.0,1.0,1.0,33.1,34.7,34.7,2.1,4.0,2.6575,0.5642895077594614,-0.035971758403406225,0.8022350256129305,0.008121539808396512,-0.168233,-28.664845
11.185,2.0,1.0,1.0,33.1,34.7,34.7,2.1,4.0,2.66,0.5560360758570241,-0.03710085043916143,0.8073567793588873,0.007952659058078716,-0.172761,-28.417226
11.185,2.0,1.0,1.0,33.1,34.7,34.7,2.1,4.0,2.6625,0.5476257232842008,-0.038279409558704895,0.812437761559245,0.007764038055310324,-0.177518,-28.165612
11.185,2.0,1.0,1.0,33.1,34.7,34.7,2.1,4.0,2.665,0.5390534025285754,-0.03951046210955399,0.8174750211244538,0.007553815495734123,-0.182521,-27.909848
11.185,2.0,1.0,1.0,33.1,34.7,34.7,2.1,4.0,2.6675,0.5303137623906933,-0.04079727230985775,0.8224653539627234,0.007319925609618979,-0.187787,-27.649772
11.185,2.0,1.0,1.0,33.1,34.7,34.7,2.1,4.0,2.67,0.521401122220891,-0.04214336472499413,0.8274052737441332,0.007060071658884069,-0.193338,-27.385212
11.185,2.0,1.0,1.0,33.1,34.7,34.7,2.1,4.0,2.6725,0.5123094435040711,-0.04355254916056977,0.8322909784559173,0.006771695436762286,-0.199197,-27.115986
11.185,2.0,1.0,1.0,33.1,34.7,34.7,2.1,4.0,2.675,0.5030322984940462,-0.04502894824818509,0.8371183120352277,0.006451942079273203,-0.205388,-26.841904
11.185,2.0,1.0,1.0,33.1,34.7,34.7,2.1,4.0,2.6775,0.49356283556733527,-0.04657702802955382,0.841882720227507,0.006097619362771175,-0.211939,-26.562763
11.185,2.0,1.0,1.0,33.1,34.7,34.7,2.1,4.0,2.68,0.4838937409330706,-0.04820163187502116,0.8465791996504066,0.005705150497546204,-0.218882,-26.278347
11.185,2.0,1.0,1.0,33.1,34.7,34.7,2.1,4.0,2.6825,0.4740171963017196,-0.049908018103257984,0.8512022388377048,0.005270519226716074,-0.226251,-25.988428
11.185,2.0,1.0,1.0,33.1,34.7,34.7,2.1,4.0,2.685,0.46392483208228635,-0.051701901698374304,0.8557457497860896,0.00478920579354896,-0.234084,-25.692764
11.185,2.0,1.0,1.0,33.1,34.7,34.7,2.1,4.0,2.6875,0.453607675647858,-0.0535895005464426,0.860202988218109,0.00425611203763614,-0.242424,-25.391098
11.185,2.0,1.0,1.0,33.1,34.7,34.7,2.1,4.0,2.69,0.4430560941865146,-0.0555775866317298,0.864566460392856,0.0036654735066638864,-0.251321,-25.083157
11.185,2.0,1.0,1.0,33.1,34.7,34.7,2.1,4.0,2.6925,0.43225973164425824,-0.05767354263817993,0.8688278138231516,0.0030107560076901778,-0.260827,-24.768648
11.185,2.0,1.0,1.0,33.1,34.7,34.7,2.1,4.0,2.695,0.42120743927716026,-0.05988542438546413,0.8729777086704994,0.0022845334465258016,-0.271005,-24.447262
11.185,2.0,1.0,1.0,33.1,34.7,34.7,2.1,4.0,2.6975,0.40988719937372026,-0.062222029478844317,0.8770056658565637,0.001478343086202578,-0.281925,-24.118666
11.185,2.0,1.0,1.0,33.1,34.7,34.7,2.1,4.0,2.7,0.3982860418037898,-0.06469297244984705,0.8808998870130595,0.0005825134572976371,-0.293666,-23.782506
11.185,2.0,1.0,1.0,33.1,34.7,34.7,2.1,4.0,2.7025,0.3863899532242934,-0.06730876648349741,0.884647040240707,-0.0004140409752478115,-0.306318,-23.438403
11.185,2.0,1.0,1.0,33.1,34.7,34.7,2.1,4.0,2.705,0.374183779064102,-0.07008091152811145,0.8882320041973342,-0.0015240657057231607,-0.319985,-23.085952
11.185,2.0,1.0,1.0,33.1,34.7,34.7,2.1,4.0,2.7075,0.3616511188788559,-0.07302198810751163,0.8916375612015693,-0.002762261755460038,-0.334786,-22.724717
11.185,2.0,1.0,1.0,33.1,34.7,34.7,2.1,4.0,2.71,0.34877421639742556,-0.07614575541779313,0.8948440277142481,-0.004145642306497538,-0.350857,-22.354232
11.185,2.0,1.0,1.0,33.1,34.7,34.7,2.1,4.0,2.7125,0.33553384670122516,-0.07946725116601251,0.8978288076054818,-0.005693964687415878,-0.36836,-21.973997
11.185,2.0,1.0,1.0,33.1,34.7,34.7,2.1,4.0,2.715,0.3219092046731628,-0.08300288891104636,0.9005658498533228,-0.007430255683339664,-0.387477,-21.583472
11.185,2.0,1.0,1.0,33.1,34.7,34.7,2.1,4.0,2.7175,0.3078778014017231,-0.08677054612286692,0.9030249875229616,-0.009381452840505018,-0.408427,-21.182081
11.185,2.0,1.0,1.0,33.1,34.7,34.7,2.1,4.0,2.72,0.29341537904063647,-0.0907896323774101,0.905171128757732,-0.011579190425715412,-0.431464,-20.7692
11.185,2.0,1.0,1.0,33.1,34.7,34.7,2.1,4.0,2.7225,0.27849586032173745,-0.09508112144106681,0.9069632627212415,-0.014060766326481554,-0.456888,-20.344162
11.185,2.0,1.0,1.0,33.1,34.7,34.7,2.1,4.0,2.725,0.26309135742225914,-0.09966752255942962,0.9083532335409872,-0.016870335849475955,-0.485058,-19.906246
11.185,2.0,1.0,1.0,33.1,34.7,34.7,2.1,4.0,2.7275,0.24717227758661317,-0.10457275367858818,0.9092842228381662,-0.02006039055646076,-0.516399,-19.454681
11.185,2.0,1.0,1.0,33.1,34.7,34.7,2.1,4.0,2.73,0.23070758189289373,-0.10982186052764158,0.9096888659006779,-0.02369359543357061,-0.551425,-18.98864
11.185,2.0,1.0,1.0,33.1,34.7,34.7,2.1,4.0,2.7325,0.21366528200287727,-0.11544049735726158,0.9094869075980104,-0.027845076164960236,-0.590757,-18.507237
11.185,2.0,1.0,1.0,33.1,34.7,34.7,2.1,4.0,2.735,0.19601330243300424,-0.12145404294370941,0.9085822817728989,-0.032605270022083396,-0.635149,-18.009531
11.185,2.0,1.0,1.0,33.1,34.7,34.7,2.1,4.0,2.7375,0.1777209000674609,-0.12788616211297407,0.9068594730627801,-0.03808347786932757,-0.685529,-17.494526
11.185,2.0,1.0,1.0,33.1,34.7,34.7,2.1,4.0,2.74,0.15876092917131174,-0.13475652783344447,0.9041789959949854,-0.04441227791694798,-0.74304,-16.96118
11.185,2.0,1.0,1.0,33.1,34.7,34.7,2.1,4.0,2.7425,0.13911338519559463,-0.1420772760168951,0.9003718101824381,-0.05175297672224887,-0.809104,-16.408417
11.185,2.0,1.0,1.0,33.1,34.7,34.7,2.1,4.0,2.745,0.11877087767940643,-0.14984755153172813,0.8952324985279083,-0.060302263649411214,-0.885506,-15.835151
11.185,2.0,1.0,1.0,33.1,34.7,34.7,2.1,4.0,2.7475,0.09774700439982581,-0.15804518741640508,0.8885111001321053,-0.0703001692472783,-0.974497,-15.240327
11.185,2.0,1.0,1.0,33.1,34.7,34.7,2.1,4.0,2.75,0.0760890682201837,-0.166614098301123,0.879903675045052,-0.0820392425734207,-1.078942,-14.622981
11.185,2.0,1.0,1.0,33.1,34.7,34.7,2.1,4.0,2.7525,0.05389724143290984,-0.17544531845116348,0.8690421056928807,-0.09587443738979068,-1.202511,-13.982336
11.185,2.0,1.0,1.0,33.1,34.7,34.7,2.1,4.0,2.755,0.031353166822183545,-0.18434874934531917,0.8554845334820249,-0.11223231194027178,-1.349927,-13.317954
11.185,2.0,1.0,1.0,33.1,34.7,34.7,2.1,4.0,2.7575,0.008762029466769725,-0.1930116634199491,0.8387095828533601,-0.13161641401256896,-1.527294,-12.629953
11.185,2.0,1.0,1.0,33.1,34.7,34.7,2.1,4.0,2.76,-0.013386980637285795,-0.20093915757144717,0.818120786507162,-0.15460250649699714,-1.742489,-11.919344
11.185,2.0,1.0,1.0,33.1,34.7,34.7,2.1,4.0,2.7625,-0.03433712717073825,-0.20737201239298508,0.7930733265792558,-0.18181167683564103,-2.0056,-11.188515
11.185,2.0,1.0,1.0,33.1,34.7,34.7,2.1,4.0,2.765,-0.05295651879841875,-0.2111811095112921,0.7629443003901603,-0.21384044212239028,-2.32927,-10.441911
11.185,2.0,1.0,1.0,33.1,34.7,34.7,2.1,4.0,2.7675,-0.06761751446337685,-0.21074951561783137,0.7272799582300032,-0.2511149833103849,-2.728588,-9.686962
11.185,2.0,1.0,1.0,33.1,34.7,34.7,2.1,4.0,2.77,-0.07610294472450999,-0.2038816808270317,0.6860637214059936,-0.2936266118840384,-3.219598,-8.935224
11.185,2.0,1.0,1.0,33.1,34.7,34.7,2.1,4.0,2.7725,-0.07563297121905982,-0.1878323322944242,0.6401399379301036,-0.34051460801007405,-3.814295,-8.203586
11.185,2.0,1.0,1.0,33.1,34.7,34.7,2.1,4.0,2.775,-0.06317884242021365,-0.1596185658420682,0.5917619038101036,-0.3895284043014496,-4.507837,-7.515106
11.185,2.0,1.0,1.0,33.1,34.7,34.7,2.1,4.0,2.7775,-0.036259307774087556,-0.11680665960842593,0.5450604365560899,-0.436570846606699,-5.25193,-6.898637
11.185,2.0,1.0,1.0,33.1,34.7,34.7,2.1,4.0,2.78,0.005749291942507628,-0.058801415638676385,0.5059748355125049,-0.47577380220624965,-5.916861,-6.386154
11.185,2.0,1.0,1.0,33.1,34.7,34.7,2.1,4.0,2.7825,0.0602551828495161,0.011823923177284297,0.48110560744999104,-0.5006356014222995,-6.287598,-6.007144
11.185,2.0,1.0,1.0,33.1,34.7,34.7,2.1,4.0,2.785,0.12108550714329631,0.08898107597005213,0.4754851639484612,-0.5062178370058649,-6.184376,-5.781097
11.185,2.0,1.0,1.0,33.1,34.7,34.7,2.1,4.0,2.7875,0.17995869538605996,0.16452959288469826,0.49037421246953494,-0.49130586909946694,-5.640729,-5.711343
11.185,2.0,1.0,1.0,33.1,34.7,34.7,2.1,4.0,2.79,0.2292628442094531,0.23101582490568304,0.522688152905393,-0.4589567014557798,-4.870964,-5.783803
11.185,2.0,1.0,1.0,33.1,34.7,34.7,2.1,4.0,2.7925,0.26436269691545233,0.28393538661741446,0.5665061320917447,-0.41499917745701254,-4.080267,-5.97148
11.185,2.0,1.0,1.0,33.1,34.7,34.7,2.1,4.0,2.795,0.28414681617821086,0.3222578990722247,0.6154458261614911,-0.36569227143711386,-3.377022,-6.241883
11.185,2.0,1.0,1.0,33.1,34.7,34.7,2.1,4.0,2.7975,0.2900780078083959,0.3474819760320397,0.6643987625591732,-0.31602178457214836,-2.793686,-6.563679
11.185,2.0,1.0,1.0,33.1,34.7,34.7,2.1,4.0,2.8,0.284813369626363,0.3622734091823392,0.7101075673266449,-0.26913966071195683,-2.325685,-6.910555
11.185,2.0,1.0,1.0,33.1,34.7,34.7,2.1,4.0,2.8025,0.27115707168133085,0.36943574697921294,0.7509370163843367,-0.22659492899543612,-1.955658,-7.262396
11.185,2.0,1.0,1.0,33.1,34.7,34.7,2.1,4.0,2.805,0.2515239829109335,0.3713855026429032,0.7863633042589269,-0.18883889753569708,-1.664503,-7.60482
11.185,2.0,1.0,1.0,33.1,34.7,34.7,2.1,4.0,2.8075,0.2277780779413146,0.3699961367790662,0.8164999303795357,-0.15569190885450826,-1.4354,-7.928044
11.185,2.0,1.0,1.0,33.1,34.7,34.7,2.1,4.0,2.81,0.20126365337059485,0.36663104380856704,0.8417635305904079,-0.12667097435660113,-1.254759,-8.225678
11.185,2.0,1.0,1.0,33.1,34.7,34.7,2.1,4.0,2.8125,0.172905307634627,0.362243451977963,0.862672552738677,-0.101185969735769,-1.112028,-8.493697
11.185,2.0,1.0,1.0,33.1,34.7,34.7,2.1,4.0,2.815,0.14331450988397532,0.35748224450963667,0.8797397467810241,-0.07864312754508007,-0.999164,-8.729655
11.185,2.0,1.0,1.0,33.1,34.7,34.7,2.1,4.0,2.8175,0.11287928029270765,0.35278078597667306,0.8934217725497978,-0.058492021395054765,-0.91009,-8.932123
11.185,2.0,1.0,1.0,33.1,34.7,34.7,2.1,4.0,2.82,0.08183224053479712,0.34842420802185803,0.904100221415501,-0.04024128227250456,-0.840234,-9.100286
11.185,2.0,1.0,1.0,33.1,34.7,34.7,2.1,4.0,2.8225,0.05029952828403236,0.3445976561851644,0.9120783227268127,-0.02345839862936723,-0.786169,-9.233674
11.185,2.0,1.0,1.0,33.1,34.7,34.7,2.1,4.0,2.825,0.01833492731428811,0.3414197635895497,0.9175844570055254,-0.007762162613461354,-0.745345,-9.331983
11.185,2.0,1.0,1.0,33.1,34.7,34.7,2.1,4.0,2.8275,-0.014056663655855508,0.33896533122796585,0.9207777475304827,0.007187802124014937,-0.715892,-9.394942
11.185,2.0,1.0,1.0,33.1,34.7,34.7,2.1,4.0,2.83,-0.04690311839202105,0.33728032036283295,0.921753330086282,0.02170233794459229,-0.696475,-9.422236
