1,w,sub_t,h,l1,l2,l3,g1,g2,Freq,S11_re,S21_re,S11_img,S21_img,S11_dB,S21_dB
11.185,2.0,1.0,1.0,33.0,33.1,33.1,2.3,2.1,2.5,0.896661314545735,-0.00763584955900421,0.428841172357717,0.00924444006153149,-0.052843,-38.423442
11.185,2.0,1.0,1.0,33.0,33.1,33.1,2.3,2.1,2.5025,0.8939594948735928,-0.007805677371526229,0.43432054011269655,0.009315918934466465,-0.053319,-38.305756
11.185,2.0,1.0,1.0,33.0,33.1,33.1,2.3,2.1,2.505,0.8912132534944818,-0.007978777204103397,0.43980292767747636,0.009387351250657459,-0.053804,-38.187762
11.185,2.0,1.0,1.0,33.0,33.1,33.1,2.3,2.1,2.5075,0.8884221635420472,-0.008155218653926209,0.44528820454620854,0.009458717343807509,-0.054297,-38.069452
11.185,2.0,1.0,1.0,33.0,33.1,33.1,2.3,2.1,2.51,0.885585790633237,-0.008335073162853946,0.45077623597746036,0.009529996637577257,-0.054799,-37.95082
11.185,2.0,1.0,1.0,33.0,33.1,33.1,2.3,2.1,2.5125,0.8827036927166912,-0.00851841407571074,0.4562668828411985,0.009601167604070832,-0.055309,-37.831857
11.185,2.0,1.0,1.0,33.0,33.1,33.1,2.3,2.1,2.515,0.8797754199176036,-0.008705316700699864,0.46176000146028157,0.009672207720308532,-0.055829,-37.712555
11.185,2.0,1.0,1.0,33.0,33.1,33.1,2.3,2.1,2.5175,0.8768005143789632,-0.008895858372022964,0.46725544344622233,0.009743093422579003,-0.056359,-37.592906
11.185,2.0,1.0,1.0,33.0,33.1,33.1,2.3,2.1,2.52,0.873778510099071,-0.009090118514796656,0.47275305552901,0.009813800058558841,-0.056897,-37.472903
11.185,2.0,1.0,1.0,33.0,33.1,33.1,2.3,2.1,2.5225,0.8707089327652334,-0.009288178712361244,0.4782526793807266,0.009884301837080143,-0.057446,-37.352537
11.185,2.0,1.0,1.0,33.0,33.1,33.1,2.3,2.1,2.525,0.8675912995835161,-0.009490122776082533,0.48375415143272704,0.009954571775419337,-0.058005,-37.2318
11.185,2.0,1.0,1.0,33.0,33.1,33.1,2.3,2.1,2.5275,0.8644251191044533,-0.009696036817751552,0.48925730268611184,0.010024581643974302,-0.058574,-37.110684
11.185,2.0,1.0,1.0,33.0,33.1,33.1,2.3,2.1,2.53,0.8612098910445924,-0.009906009324691569,0.49476195851520827,0.010094301908186862,-0.059153,-36.98918
11.185,2.0,1.0,1.0,33.0,33.1,33.1,2.3,2.1,2.5325,0.8579451061037603,-0.010120131237688195,0.500267938463782,0.010163701667562051,-0.059743,-36.867279
11.185,2.0,1.0,1.0,33.0,33.1,33.1,2.3,2.1,2.535,0.8546302457779172,-0.01033849603186246,0.5057750560336713,0.010232748591622936,-0.060344,-36.744974
11.185,2.0,1.0,1.0,33.0,33.1,33.1,2.3,2.1,2.5375,0.8512647821674829,-0.010561199800613248,0.5112831184655212,0.01030140885263322,-0.060957,-36.622254
11.185,2.0,1.0,1.0,33.0,33.1,33.1,2.3,2.1,2.54,0.8478481777809911,-0.010788341342761753,0.5167919265112906,0.01036964705490838,-0.061581,-36.499112
11.185,2.0,1.0,1.0,33.0,33.1,33.1,2.3,2.1,2.5425,0.8443798853339389,-0.011020022253036027,0.5223012741981822,0.01043742616052353,-0.062218,-36.375538
11.185,2.0,1.0,1.0,33.0,33.1,33.1,2.3,2.1,2.545,0.84085934754269,-0.011256347016041604,0.5278109485836276,0.010504707411219375,-0.062866,-36.251523
11.185,2.0,1.0,1.0,33.0,33.1,33.1,2.3,2.1,2.5475,0.8372859969132814,-0.011497423103869787,0.5333207295009339,0.010571450246286805,-0.063527,-36.127058
11.185,2.0,1.0,1.0,33.0,33.1,33.1,2.3,2.1,2.55,0.8336592555249772,-0.011743361077504323,0.5388303892952084,0.010637612216206321,-0.064201,-36.002133
11.185,2.0,1.0,1.0,33.0,33.1,33.1,2.3,2.1,2.5525,0.829978534808419,-0.011994274692193026,0.544339692549108,0.010703148891797885,-0.064888,-35.876738
11.185,2.0,1.0,1.0,33.0,33.1,33.1,2.3,2.1,2.555,0.8262432353181988,-0.012250281006961053,0.5498483957979923,0.010768013768623975,-0.065589,-35.750865
11.185,2.0,1.0,1.0,33.0,33.1,33.1,2.3,2.1,2.5575,0.8224527464996838,-0.012511500498449927,0.555356247233999,0.010832158166371664,-0.066303,-35.624503
11.185,2.0,1.0,1.0,33.0,33.1,33.1,2.3,2.1,2.56,0.8186064464499206,-0.012778057179275663,0.5608629863985459,0.01089553112292233,-0.067032,-35.497642
11.185,2.0,1.0,1.0,33.0,33.1,33.1,2.3,2.1,2.5625,0.8147037016724279,-0.013050078721109547,0.5663683438627457,0.0109580792827978,-0.067776,-35.370272
11.185,2.0,1.0,1.0,33.0,33.1,33.1,2.3,2.1,2.565,0.8107438668256848,-0.013327696582695005,0.5718720408951875,0.011019746779653705,-0.068534,-35.242383
11.185,2.0,1.0,1.0,33.0,33.1,33.1,2.3,2.1,2.5675,0.8067262844651222,-0.01361104614302365,0.5773737891164992,0.011080475112466244,-0.069309,-35.113964
11.185,2.0,1.0,1.0,33.0,33.1,33.1,2.3,2.1,2.57,0.8026502847783982,-0.013900266839906724,0.5828732901400944,0.011140203015037889,-0.070099,-34.985004
11.185,2.0,1.0,1.0,33.0,33.1,33.1,2.3,2.1,2.5725,0.7985151853137495,-0.014195502314188521,0.5883702351984604,0.011198866318421527,-0.070905,-34.855494
11.185,2.0,1.0,1.0,33.0,33.1,33.1,2.3,2.1,2.575,0.7943202907011884,-0.014496900559861256,0.5938643047543115,0.011256397805836945,-0.071729,-34.72542
11.185,2.0,1.0,1.0,33.0,33.1,33.1,2.3,2.1,2.5775,0.7900648923663143,-0.014804614080353865,0.5993551680958955,0.011312727059621752,-0.072569,-34.594773
11.185,2.0,1.0,1.0,33.0,33.1,33.1,2.3,2.1,2.58,0.7857482682364954,-0.01511880005128179,0.6048424829157012,0.011367780299734368,-0.073428,-34.463541
11.185,2.0,1.0,1.0,33.0,33.1,33.1,2.3,2.1,2.5825,0.7813696824391615,-0.015439620489958264,0.6103258948717748,0.011421480213285208,-0.074305,-34.331713
11.185,2.0,1.0,1.0,33.0,33.1,33.1,2.3,2.1,2.585,0.7769283849919509,-0.015767242431983786,0.6158050371308035,0.011473745774545017,-0.0752,-34.199276
11.185,2.0,1.0,1.0,33.0,33.1,33.1,2.3,2.1,2.5875,0.7724236114844264,-0.01610183811524706,0.6212795298920833,0.011524492054835115,-0.076115,-34.066219
11.185,2.0,1.0,1.0,33.0,33.1,33.1,2.3,2.1,2.59,0.7678545827510804,-0.016443585171685718,0.6267489798914238,0.011573630021664328,-0.07705,-33.932529
11.185,2.0,1.0,1.0,33.0,33.1,33.1,2.3,2.1,2.5925,0.7632205045353219,-0.01679266682717677,0.6322129798840072,0.011621066326437439,-0.078006,-33.798193
11.185,2.0,1.0,1.0,33.0,33.1,33.1,2.3,2.1,2.595,0.7585205671441416,-0.01714927210994135,0.6376711081051359,0.011666703080004044,-0.078983,-33.6632
11.185,2.0,1.0,1.0,33.0,33.1,33.1,2.3,2.1,2.5975,0.7537539450931166,-0.01751359606787235,0.643122927707766,0.011710437615273439,-0.079982,-33.527536
11.185,2.0,1.0,1.0,33.0,33.1,33.1,2.3,2.1,2.6,0.7489197967414226,-0.017885839995211893,0.6485679861756373,0.01175216223605961,-0.081003,-33.391188
11.185,2.0,1.0,1.0,33.0,33.1,33.1,2.3,2.1,2.6025,0.7440172639164955,-0.018266211669028577,0.6540058147107397,0.011791763951263683,-0.082047,-33.254142
11.185,2.0,1.0,1.0,33.0,33.1,33.1,2.3,2.1,2.605,0.7390454715279688,-0.018654925595968493,0.6594359275937974,0.01182912419343495,-0.083115,-33.116385
11.185,2.0,1.0,1.0,33.0,33.1,33.1,2.3,2.1,2.6075,0.7340035271705003,-0.019052203269777856,0.6648578215163417,0.011864118520682693,-0.084208,-32.977903
11.185,2.0,1.0,1.0,33.0,33.1,33.1,2.3,2.1,2.61,0.7288905207150846,-0.0194582734401201,0.670270974882872,0.011896616300832144,-0.085327,-32.838682
11.185,2.0,1.0,1.0,33.0,33.1,33.1,2.3,2.1,2.6125,0.7237055238884262,-0.019873372393240267,0.6756748470815069,0.01192648037664239,-0.086471,-32.698706
11.185,2.0,1.0,1.0,33.0,33.1,33.1,2.3,2.1,2.615,0.7184475898399291,-0.020297744245054754,0.6810688777214227,0.011953566710808093,-0.087643,-32.557961
11.185,2.0,1.0,1.0,33.0,33.1,33.1,2.3,2.1,2.6175,0.7131157526958457,-0.02073164124727716,0.686452485835254,0.011977724009375062,-0.088842,-32.416432
11.185,2.0,1.0,1.0,33.0,33.1,33.1,2.3,2.1,2.62,0.7077090271001005,-0.02117532410722074,0.6918250690445346,0.011998793322096276,-0.090071,-32.274103
11.185,2.0,1.0,1.0,33.0,33.1,33.1,2.3,2.1,2.6225,0.7022264077412784,-0.021629062321952712,0.6971860026861117,0.012016607618138277,-0.091329,-32.130959
11.185,2.0,1.0,1.0,33.0,33.1,33.1,2.3,2.1,2.625,0.696666868865268,-0.0220931345275085,0.70253463889732,0.0120309913354302,-0.092618,-31.986983
11.185,2.0,1.0,1.0,33.0,33.1,33.1,2.3,2.1,2.6275,0.6910293637729873,-0.02256782886391235,0.7078703056575844,0.012041759901810013,-0.093939,-31.842159
11.185,2.0,1.0,1.0,33.0,33.1,33.1,2.3,2.1,2.63,0.6853128243026347,-0.02305344335678758,0.7131923057839142,0.012048719225983419,-0.095293,-31.696469
11.185,2.0,1.0,1.0,33.0,33.1,33.1,2.3,2.1,2.6325,0.679516160295858,-0.023550286316379395,0.7184999158776172,0.012051665156147168,-0.096681,-31.549897
11.185,2.0,1.0,1.0,33.0,33.1,33.1,2.3,2.1,2.635,0.6736382590472171,-0.024058676754855655,0.7237923852193413,0.012050382903965307,-0.098104,-31.402424
11.185,2.0,1.0,1.0,33.0,33.1,33.1,2.3,2.1,2.6375,0.6676779847362915,-0.02457894482279331,0.7290689346093583,0.012044646431394492,-0.099564,-31.254034
11.185,2.0,1.0,1.0,33.0,33.1,33.1,2.3,2.1,2.64,0.6616341778417424,-0.025111432265804014,0.7343287551497939,0.012034217797656096,-0.101061,-31.104706
11.185,2.0,1.0,1.0,33.0,33.1,33.1,2.3,2.1,2.6425,0.6555056545366307,-0.025656492902297958,0.7395710069652366,0.012018846463428618,-0.102597,-30.954422
11.185,2.0,1.0,1.0,33.0,33.1,33.1,2.3,2.1,2.645,0.6492912060642475,-0.026214493123435264,0.7447948178579225,0.011998268549098134,-0.104174,-30.803164
11.185,2.0,1.0,1.0,33.0,33.1,33.1,2.3,2.1,2.6475,0.6429895980936915,-0.026785812416361066,0.7499992818933926,0.011972206043635303,-0.105793,-30.650909
11.185,2.0,1.0,1.0,33.0,33.1,33.1,2.3,2.1,2.65,0.6365995700543865,-0.027370843911875876,0.7551834579122204,0.011940365960384494,-0.107455,-30.49764
11.185,2.0,1.0,1.0,33.0,33.1,33.1,2.3,2.1,2.6525,0.6301198344487328,-0.02796999495774067,0.7603463679630446,0.011902439435736076,-0.109163,-30.343333
11.185,2.0,1.0,1.0,33.0,33.1,33.1,2.3,2.1,2.655,0.62354907614201,-0.028583687718874158,0.7654869956518114,0.011858100766307743,-0.110917,-30.187969
11.185,2.0,1.0,1.0,33.0,33.1,33.1,2.3,2.1,2.6575,0.6168859516286637,-0.029212359805750945,0.7706042844016943,0.011807006379885611,-0.11272,-30.031525
11.185,2.0,1.0,1.0,33.0,33.1,33.1,2.3,2.1,2.66,0.6101290882740487,-0.029856464932365614,0.7756971356177363,0.011748793734964328,-0.114573,-29.873978
11.185,2.0,1.0,1.0,33.0,33.1,33.1,2.3,2.1,2.6625,0.6032770835307033,-0.030516473605181442,0.7807644067497752,0.011683080143271901,-0.116479,-29.715306
11.185,2.0,1.0,1.0,33.0,33.1,33.1,2.3,2.1,2.665,0.59632850412817,-0.03119287384453815,0.7858049092466988,0.011609461509170521,-0.118438,-29.555484
11.185,2.0,1.0,1.0,33.0,33.1,33.1,2.3,2.1,2.6675,0.5892818852353962,-0.03188617194004242,0.7908174063944743,0.011527510979278946,-0.120455,-29.394489
11.185,2.0,1.0,1.0,33.0,33.1,33.1,2.3,2.1,2.67,0.5821357295947017,-0.032596893241519535,0.7958006110298029,0.011436777495063954,-0.12253,-29.232295
11.185,2.0,1.0,1.0,33.0,33.1,33.1,2.3,2.1,2.6725,0.5748885066262925,-0.033325582987148356,0.8007531831205348,0.011336784240488815,-0.124667,-29.068876
11.185,2.0,1.0,1.0,33.0,33.1,33.1,2.3,2.1,2.675,0.5675386515023144,-0.03407280717044484,0.80567372720322,0.01122702697608228,-0.126867,-28.904207
11.185,2.0,1.0,1.0,33.0,33.1,33.1,2.3,2.1,2.6775,0.5600845641894189,-0.03483915344779729,0.8105607896673607,0.011106972249992731,-0.129134,-28.738259
11.185,2.0,1.0,1.0,33.0,33.1,33.1,2.3,2.1,2.68,0.5525246084588357,-0.03562523208828229,0.815412855874981,0.010976055475709855,-0.13147,-28.571005
11.185,2.0,1.0,1.0,33.0,33.1,33.1,2.3,2.1,2.6825,0.5448571108629795,-0.03643167696750956,0.8202283471031473,0.010833678865163204,-0.133878,-28.402417
11.185,2.0,1.0,1.0,33.0,33.1,33.1,2.3,2.1,2.685,0.5370803596776472,-0.03725914660724875,0.8250056172959412,0.010679209204833347,-0.136361,-28.232464
11.185,2.0,1.0,1.0,33.0,33.1,33.1,2.3,2.1,2.6875,0.5291926038089257,-0.03810832526257918,0.8297429496111693,0.010511975461323594,-0.138922,-28.061116
11.185,2.0,1.0,1.0,33.0,33.1,33.1,2.3,2.1,2.69,0.5211920516640247,-0.03897992405826957,0.8344385527457261,0.010331266201519623,-0.141566,-27.888342
11.185,2.0,1.0,1.0,33.0,33.1,33.1,2.3,2.1,2.6925,0.513076869985333,-0.0398746821760425,0.8390905570220369,0.010136326811015287,-0.144295,-27.714109
11.185,2.0,1.0,1.0,33.0,33.1,33.1,2.3,2.1,2.695,0.5048451826471814,-0.040793368094283015,0.8436970102163326,0.009926356492859771,-0.147113,-27.538385
11.185,2.0,1.0,1.0,33.0,33.1,33.1,2.3,2.1,2.6975,0.4964950694149314,-0.041736780881633996,0.8482558731076865,0.009700505026892915,-0.150025,-27.361134
11.185,2.0,1.0,1.0,33.0,33.1,33.1,2.3,2.1,2.7,0.48802456466629396,-0.042705751545739225,0.8527650147246755,0.009457869267939425,-0.153034,-27.182322
11.185,2.0,1.0,1.0,33.0,33.1,33.1,2.3,2.1,2.7025,0.4794316560750291,-0.0437011444381793,0.8572222072642905,0.009197489358922348,-0.156146,-27.001913
11.185,2.0,1.0,1.0,33.0,33.1,33.1,2.3,2.1,2.705,0.4707142832575785,-0.0447238587163413,0.8616251206551713,0.008918344632486414,-0.159366,-26.819867
11.185,2.0,1.0,1.0,33.0,33.1,33.1,2.3,2.1,2.7075,0.46187033638360536,-0.04577482986259614,0.8659713167344648,0.00861934917197899,-0.162698,-26.636147
11.185,2.0,1.0,1.0,33.0,33.1,33.1,2.3,2.1,2.71,0.4528976547519842,-0.04685503126067838,0.8702582430044614,0.008299346999569336,-0.166147,-26.450712
11.185,2.0,1.0,1.0,33.0,33.1,33.1,2.3,2.1,2.7125,0.44379402533443685,-0.047965475828579726,0.8744832259316928,0.007957106855874854,-0.169721,-26.263521
11.185,2.0,1.0,1.0,33.0,33.1,33.1,2.3,2.1,2.715,0.43455718128984705,-0.04910721770652891,0.8786434637472889,0.007591316531634899,-0.173425,-26.074531
11.185,2.0,1.0,1.0,33.0,33.1,33.1,2.3,2.1,2.7175,0.42518480045326207,-0.050281353997734334,0.8827360187030415,0.007200576707707537,-0.177265,-25.883697
11.185,2.0,1.0,1.0,33.0,33.1,33.1,2.3,2.1,2.72,0.41567450380480886,-0.05148902655845679,0.8867578087327677,0.0067833942548787595,-0.181249,-25.690974
11.185,2.0,1.0,1.0,33.0,33.1,33.1,2.3,2.1,2.7225,0.40602385392517376,-0.052731423832632185,0.8907055984631337,0.006338174939615017,-0.185385,-25.496315
11.185,2.0,1.0,1.0,33.0,33.1,33.1,2.3,2.1,2.725,0.3962303534460943,-0.05400978272461152,0.8945759895119846,0.005863215475875471,-0.18968,-25.299669
11.185,2.0,1.0,1.0,33.0,33.1,33.1,2.3,2.1,2.7275,0.38629144350636235,-0.0553253905015966,0.8983654100054096,0.005356694856355046,-0.194143,-25.100987
11.185,2.0,1.0,1.0,33.0,33.1,33.1,2.3,2.1,2.73,0.3762045022264408,-0.05667958671491476,0.9020701032370609,0.004816664888938207,-0.198783,-24.900216
11.185,2.0,1.0,1.0,33.0,33.1,33.1,2.3,2.1,2.7325,0.3659668432178042,-0.05807376512635056,0.9056861153846284,0.004241039855611583,-0.20361,-24.6973
11.185,2.0,1.0,1.0,33.0,33.1,33.1,2.3,2.1,2.735,0.35557571414683764,-0.0595093756221952,0.9092092821886284,0.003627585201471857,-0.208635,-24.492184
11.185,2.0,1.0,1.0,33.0,33.1,33.1,2.3,2.1,2.7375,0.34502829537751606,-0.06098792609339503,0.9126352144877251,0.0029739051506345606,-0.21387,-24.284809
11.185,2.0,1.0,1.0,33.0,33.1,33.1,2.3,2.1,2.74,0.3343216987224518,-0.06251098425499707,0.9159592824924405,0.0022774291336345506,-0.219326,-24.075113
11.185,2.0,1.0,1.0,33.0,33.1,33.1,2.3,2.1,2.7425,0.32345296633826154,-0.06408017937184751,0.9191765986651754,0.001535396897108561,-0.225016,-23.863033
11.185,2.0,1.0,1.0,33.0,33.1,33.1,2.3,2.1,2.745,0.31241906980894485,-0.06569720384995474,0.9222819990587073,0.0007448421509696034,-0.230956,-23.648504
11.185,2.0,1.0,1.0,33.0,33.1,33.1,2.3,2.1,2.7475,0.30121690947023094,-0.06736381464383336,0.9252700229475334,-9.742540934477349e-05,-0.23716,-23.431457
11.185,2.0,1.0,1.0,33.0,33.1,33.1,2.3,2.1,2.75,0.289843314039019,-0.0690818344191592,0.928134890566285,-0.000994839887915207,-0.243644,-23.211822
11.185,2.0,1.0,1.0,33.0,33.1,33.1,2.3,2.1,2.7525,0.2782950406255224,-0.07085315239680352,0.9308704787466283,-0.0019511009856169315,-0.250427,-22.989524
11.185,2.0,1.0,1.0,33.0,33.1,33.1,2.3,2.1,2.755,0.26656877522197225,-0.07267972478828708,0.9334702942182467,-0.002970198040166365,-0.257529,-22.764487
11.185,2.0,1.0,1.0,33.0,33.1,33.1,2.3,2.1,2.7575,0.25466113378131927,-0.07456357471332642,0.9359274443102208,-0.004056436568465351,-0.264969,-22.536631
11.185,2.0,1.0,1.0,33.0,33.1,33.1,2.3,2.1,2.76,0.24256866402313515,-0.07650679146669191,0.9382346047559283,-0.0052144676036556805,-0.272772,-22.305872
11.185,2.0,1.0,1.0,33.0,33.1,33.1,2.3,2.1,2.7625,0.23028784813253322,-0.07851152897321952,0.9403839842669733,-0.006449320156573775,-0.280961,-22.072124
11.185,2.0,1.0,1.0,33.0,33.1,33.1,2.3,2.1,2.765,0.21781510655269684,-0.08058000323539329,0.9423672854989614,-0.007766437173571807,-0.289564,-21.835297
11.185,2.0,1.0,1.0,33.0,33.1,33.1,2.3,2.1,2.7675,0.20514680311370817,-0.08271448853615446,0.9441756619835875,-0.00917171541058816,-0.298611,-21.595296
11.185,2.0,1.0,1.0,33.0,33.1,33.1,2.3,2.1,2.77,0.19227925179149916,-0.08491731210884974,0.9457996705466883,-0.010671549697650742,-0.308133,-21.352023
11.185,2.0,1.0,1.0,33.0,33.1,33.1,2.3,2.1,2.7725,0.17920872545293282,-0.08719084692449705,0.9472292186698668,-0.012272882129437258,-0.318165,-21.105376
11.185,2.0,1.0,1.0,33.0,33.1,33.1,2.3,2.1,2.775,0.16593146701872505,-0.08953750217134936,0.9484535061831582,-0.013983256787008682,-0.328747,-20.855248
11.185,2.0,1.0,1.0,33.0,33.1,33.1,2.3,2.1,2.7775,0.15244370356821524,-0.09195971091001384,0.9494609605970245,-0.015810880674207505,-0.33992,-20.601528
11.185,2.0,1.0,1.0,33.0,33.1,33.1,2.3,2.1,2.78,0.13874166402271274,-0.09445991427533451,0.9502391652928585,-0.017764691640452836,-0.351731,-20.344098
11.185,2.0,1.0,1.0,33.0,33.1,33.1,2.3,2.1,2.7825,0.1248216011820466,-0.09704054145916506,0.9507747796911521,-0.019854434160638673,-0.364232,-20.082838
11.185,2.0,1.0,1.0,33.0,33.1,33.1,2.3,2.1,2.785,0.11067981905774964,-0.0997039845402292,0.9510534504047631,-0.022090743953374927,-0.377478,-19.817621
11.185,2.0,1.0,1.0,33.0,33.1,33.1,2.3,2.1,2.7875,0.09631270665358926,-0.10245256702117507,0.9510597122606322,-0.02448524254151214,-0.391533,-19.548314
11.185,2.0,1.0,1.0,33.0,33.1,33.1,2.3,2.1,2.79,0.08171677959865412,-0.1052885046797021,0.9507768779365232,-0.02705064299405786,-0.406465,-19.274778
11.185,2.0,1.0,1.0,33.0,33.1,33.1,2.3,2.1,2.7925,0.0668887313516112,-0.1082138570289409,0.950186914810222,-0.02980086823588017,-0.422351,-18.99687
11.185,2.0,1.0,1.0,33.0,33.1,33.1,2.3,2.1,2.795,0.051825496080804494,-0.1112304672981265,0.9492703074582572,-0.032751183469807287,-0.439277,-18.714438
11.185,2.0,1.0,1.0,33.0,33.1,33.1,2.3,2.1,2.7975,0.036524325801610184,-0.11433988837043324,0.948005904072245,-0.03591834442219735,-0.457337,-18.427325
11.185,2.0,1.0,1.0,33.0,33.1,33.1,2.3,2.1,2.8,0.02098288494138763,-0.11754329152887603,0.9463707448880954,-0.039320763293055894,-0.476639,-18.135368
11.185,2.0,1.0,1.0,33.0,33.1,33.1,2.3,2.1,2.8025,0.005199366231312444,-0.12084135413613888,0.9443398705544173,-0.0429786944573501,-0.497302,-17.838394
11.185,2.0,1.0,1.0,33.0,33.1,33.1,2.3,2.1,2.805,-0.010827367272858946,-0.12423412147623511,0.9418861082139922,-0.0469144421128642,-0.519458,-17.536225
11.185,2.0,1.0,1.0,33.0,33.1,33.1,2.3,2.1,2.8075,-0.027097608120052484,-0.12772083687296504,0.9389798329552747,-0.051152592182545115,-0.543259,-17.228677
11.185,2.0,1.0,1.0,33.0,33.1,33.1,2.3,2.1,2.81,-0.043610591034395366,-0.13129973282014204,0.9355887022383368,-0.05572027082699726,-0.568875,-16.915558
11.185,2.0,1.0,1.0,33.0,33.1,33.1,2.3,2.1,2.8125,-0.06036423109727463,-0.13496777414742223,0.9316773609541478,-0.06064743186293016,-0.596496,-16.596667
11.185,2.0,1.0,1.0,33.0,33.1,33.1,2.3,2.1,2.815,-0.07735480237808544,-0.13872034212494225,0.9272071150000565,-0.0659671751536133,-0.626342,-16.2718
11.185,2.0,1.0,1.0,33.0,33.1,33.1,2.3,2.1,2.8175,-0.09457654320983948,-0.14255084578501623,0.9221355717384567,-0.07171609754713548,-0.658659,-15.940744
11.185,2.0,1.0,1.0,33.0,33.1,33.1,2.3,2.1,2.82,-0.11202117104300155,-0.14645024349683808,0.9164162465805794,-0.07793467705723853,-0.693731,-15.603281
11.185,2.0,1.0,1.0,33.0,33.1,33.1,2.3,2.1,2.8225,-0.12967728579309346,-0.15040645383862697,0.9099981363904074,-0.08466768952291517,-0.731881,-15.25919
11.185,2.0,1.0,1.0,33.0,33.1,33.1,2.3,2.1,2.825,-0.14752963567431857,-0.1544036299220471,0.9028252627015472,-0.09196465468103561,-0.77348,-14.908247
11.185,2.0,1.0,1.0,33.0,33.1,33.1,2.3,2.1,2.8275,-0.16555821352136157,-0.15842126537681753,0.8948361912606554,-0.09988030506435835,-0.818955,-14.550225
11.185,2.0,1.0,1.0,33.0,33.1,33.1,2.3,2.1,2.83,-0.18373714438758118,-0.1624330930446081,0.8859635396873852,-0.10847506586485663,-0.868801,-14.184901
