1,w,sub_t,h,l1,l2,l3,g1,g2,Freq,S11_re,S21_re,S11_img,S21_img,S11_dB,S21_dB
11.185,2.0,1.0,1.0,34.6,34.5,34.5,3.5,3.4,2.5,0.68107442730682,-0.0123195767304757,0.720246254791674,0.0044103759425597,-0.076157,-37.664369
11.185,2.0,1.0,1.0,34.6,34.5,34.5,3.5,3.4,2.5025,0.6750294886438474,-0.012543605162441608,0.7257758313746442,0.004364518591602737,-0.077049,-37.535234
11.185,2.0,1.0,1.0,34.6,34.5,34.5,3.5,3.4,2.505,0.6689049456015841,-0.01277164208631827,0.7312836195476785,0.004315775694183263,-0.077958,-37.405477
11.185,2.0,1.0,1.0,34.6,34.5,34.5,3.5,3.4,2.5075,0.662700000977566,-0.013003774365632999,0.736768762832491,0.004264041048925536,-0.078887,-37.275081
11.185,2.0,1.0,1.0,34.6,34.5,34.5,3.5,3.4,2.51,0.6564138489210617,-0.013240091340442038,0.7422303803385629,0.004209204197837194,-0.079836,-37.144035
11.185,2.0,1.0,1.0,34.6,34.5,34.5,3.5,3.4,2.5125,0.6500456749368658,-0.01348068492001984,0.7476675660239911,0.0041511502244863515,-0.080804,-37.012322
11.185,2.0,1.0,1.0,34.6,34.5,34.5,3.5,3.4,2.515,0.6435946558943989,-0.013725649679992336,0.7530793879315655,0.004089759540716775,-0.081793,-36.879929
11.185,2.0,1.0,1.0,34.6,34.5,34.5,3.5,3.4,2.5175,0.6370599600423607,-0.01397508296417141,0.7584648873990149,0.004024907661129127,-0.082804,-36.746838
11.185,2.0,1.0,1.0,34.6,34.5,34.5,3.5,3.4,2.52,0.6304407470291454,-0.01422908499136714,0.763823078242335,0.003956464964492828,-0.083836,-36.613036
11.185,2.0,1.0,1.0,34.6,34.5,34.5,3.5,3.4,2.5225,0.6237361679292898,-0.0144877589674701,0.7691529459110003,0.0038842964411896753,-0.08489,-36.478505
11.185,2.0,1.0,1.0,34.6,34.5,34.5,3.5,3.4,2.525,0.6169453652761544,-0.014751211203118614,0.7744534466138302,0.0038082614257161215,-0.085968,-36.343228
11.185,2.0,1.0,1.0,34.6,34.5,34.5,3.5,3.4,2.5275,0.6100674731010982,-0.01501955123728417,0.7797235064141758,0.0037282133131931786,-0.08707,-36.20719
11.185,2.0,1.0,1.0,34.6,34.5,34.5,3.5,3.4,2.53,0.6031016169793785,-0.01529289196713266,0.784962020293008,0.0036439992587470288,-0.088196,-36.070371
11.185,2.0,1.0,1.0,34.6,34.5,34.5,3.5,3.4,2.5325,0.5960469140830117,-0.015571349784542122,0.7901678511784035,0.0035554598585290924,-0.089348,-35.932755
11.185,2.0,1.0,1.0,34.6,34.5,34.5,3.5,3.4,2.535,0.5889024732408256,-0.01585504471968453,0.7953398289398139,0.0034624288110412537,-0.090525,-35.794323
11.185,2.0,1.0,1.0,34.6,34.5,34.5,3.5,3.4,2.5375,0.5816673950059451,-0.01614410059210557,0.8004767493453923,0.0033647325573199576,-0.09173,-35.655055
11.185,2.0,1.0,1.0,34.6,34.5,34.5,3.5,3.4,2.54,0.5743407717309276,-0.01643864516976784,0.8055773729805277,0.0032621898984084644,-0.092962,-35.514932
11.185,2.0,1.0,1.0,34.6,34.5,34.5,3.5,3.4,2.5425,0.5669216876507679,-0.01673881033655323,0.8106404241256097,0.0031546115884121427,-0.094223,-35.373934
11.185,2.0,1.0,1.0,34.6,34.5,34.5,3.5,3.4,2.545,0.5594092189739891,-0.01704473226875532,0.8156645895908904,0.003041799901281964,-0.095513,-35.232039
11.185,2.0,1.0,1.0,34.6,34.5,34.5,3.5,3.4,2.5475,0.5518024339820281,-0.0173565516211284,0.8206485175061393,0.0029235481693088736,-0.096834,-35.089228
11.185,2.0,1.0,1.0,34.6,34.5,34.5,3.5,3.4,2.55,0.544100393137082,-0.017674413723100205,0.8255908160626451,0.002799640291130888,-0.098186,-34.945476
11.185,2.0,1.0,1.0,34.6,34.5,34.5,3.5,3.4,2.5525,0.5363021491986294,-0.017998468785794957,0.8304900522048629,0.0026698502068580837,-0.099571,-34.800763
11.185,2.0,1.0,1.0,34.6,34.5,34.5,3.5,3.4,2.555,0.5284067473487544,-0.01832887212056073,0.8353447502688547,0.0025339413377010486,-0.10099,-34.655063
11.185,2.0,1.0,1.0,34.6,34.5,34.5,3.5,3.4,2.5575,0.5204132253264274,-0.018665784369741326,0.8401533905643793,0.0023916659872487106,-0.102443,-34.508354
11.185,2.0,1.0,1.0,34.6,34.5,34.5,3.5,3.4,2.56,0.5123206135708693,-0.019009371750483898,0.8449144078972562,0.002242764701274976,-0.103932,-34.360609
11.185,2.0,1.0,1.0,34.6,34.5,34.5,3.5,3.4,2.5625,0.5041279353740861,-0.01935980631242892,0.849626190028318,0.00208696558266021,-0.105459,-34.211803
11.185,2.0,1.0,1.0,34.6,34.5,34.5,3.5,3.4,2.565,0.49583420704263687,-0.01971726621018648,0.8542870760649586,0.0019239835576872937,-0.107024,-34.06191
11.185,2.0,1.0,1.0,34.6,34.5,34.5,3.5,3.4,2.5675,0.48743843806869336,-0.020081935991564482,0.8588953547809126,0.0017535195896129145,-0.108629,-33.910901
11.185,2.0,1.0,1.0,34.6,34.5,34.5,3.5,3.4,2.57,0.4789396313103657,-0.020454006902580424,0.8634492628595084,0.00157525983501395,-0.110275,-33.758749
11.185,2.0,1.0,1.0,34.6,34.5,34.5,3.5,3.4,2.5725,0.47033678318127325,-0.020833677210357976,0.8679469830552042,0.0013888747379648965,-0.111965,-33.605423
11.185,2.0,1.0,1.0,34.6,34.5,34.5,3.5,3.4,2.575,0.46162888384927725,-0.021221152545082216,0.8723866422677112,0.0011940180566096532,-0.113698,-33.450893
11.185,2.0,1.0,1.0,34.6,34.5,34.5,3.5,3.4,2.5775,0.4528149174442446,-0.02161664626226663,0.876766309522463,0.000990325816140729,-0.115478,-33.295128
11.185,2.0,1.0,1.0,34.6,34.5,34.5,3.5,3.4,2.58,0.4438938622746749,-0.022020379826664518,0.8810839938505894,0.0007774151815877397,-0.117306,-33.138094
11.185,2.0,1.0,1.0,34.6,34.5,34.5,3.5,3.4,2.5825,0.4348646910529419,-0.022432583219245298,0.8853376420608507,0.0005548832431335491,-0.119184,-32.979758
11.185,2.0,1.0,1.0,34.6,34.5,34.5,3.5,3.4,2.585,0.4257263711288717,-0.022853495368743332,0.8895251363952427,0.00032230570591429436,-0.121113,-32.820084
11.185,2.0,1.0,1.0,34.6,34.5,34.5,3.5,3.4,2.5875,0.4164778647312878,-0.023283364609381088,0.8936442920591112,7.923547540577818e-05,-0.123096,-32.659035
11.185,2.0,1.0,1.0,34.6,34.5,34.5,3.5,3.4,2.59,0.4071181292171135,-0.02372244916646203,0.8976928546156615,-0.00017479887145587167,-0.125136,-32.496574
11.185,2.0,1.0,1.0,34.6,34.5,34.5,3.5,3.4,2.5925,0.39764611732752214,-0.02417101767162775,0.9016684972336663,-0.00044029474034360655,-0.127233,-32.33266
11.185,2.0,1.0,1.0,34.6,34.5,34.5,3.5,3.4,2.595,0.3880607774505889,-0.024629349709669703,0.9055688177759603,-0.000717777310925701,-0.129391,-32.167254
11.185,2.0,1.0,1.0,34.6,34.5,34.5,3.5,3.4,2.5975,0.3783610538897879,-0.025097736398886253,0.9093913357149411,-0.001007801479048952,-0.131613,-32.000312
11.185,2.0,1.0,1.0,34.6,34.5,34.5,3.5,3.4,2.6,0.36854588713762504,-0.025576481007068514,0.913133488859762,-0.0013109539647224375,-0.1339,-31.831789
11.185,2.0,1.0,1.0,34.6,34.5,34.5,3.5,3.4,2.6025,0.35861421415364053,-0.02606589960529028,0.9167926298781429,-0.0016278556026227229,-0.136256,-31.66164
11.185,2.0,1.0,1.0,34.6,34.5,34.5,3.5,3.4,2.605,0.348564968645912,-0.02656632176175971,0.9203660225937665,-0.001959163833782824,-0.138685,-31.489816
11.185,2.0,1.0,1.0,34.6,34.5,34.5,3.5,3.4,2.6075,0.3383970813551741,-0.027078091278060157,0.9238508380379936,-0.002305575419321361,-0.141188,-31.316267
11.185,2.0,1.0,1.0,34.6,34.5,34.5,3.5,3.4,2.61,0.3281094803406088,-0.02760156697016087,0.9272441502320868,-0.0026678293995544195,-0.143771,-31.140941
11.185,2.0,1.0,1.0,34.6,34.5,34.5,3.5,3.4,2.6125,0.3177010912663363,-0.02813712349660763,0.930542931673266,-0.0030467103246544125,-0.146435,-30.963782
11.185,2.0,1.0,1.0,34.6,34.5,34.5,3.5,3.4,2.615,0.30717083768765585,-0.028685152236300006,0.9337440484946333,-0.003443051786226644,-0.149186,-30.784735
11.185,2.0,1.0,1.0,34.6,34.5,34.5,3.5,3.4,2.6175,0.2965176413361333,-0.029246062218215078,0.9368442552652644,-0.0038577402828231184,-0.152028,-30.603738
11.185,2.0,1.0,1.0,34.6,34.5,34.5,3.5,3.4,2.62,0.28574042240271136,-0.02982028110533537,0.9398401893925153,-0.00429171945657725,-0.154965,-30.42073
11.185,2.0,1.0,1.0,34.6,34.5,34.5,3.5,3.4,2.6225,0.27483809981820606,-0.030408256234862784,0.9427283650836888,-0.004745994742897437,-0.158001,-30.235645
11.185,2.0,1.0,1.0,34.6,34.5,34.5,3.5,3.4,2.625,0.263809591530799,-0.0310104557165272,0.945505166818642,-0.00522163848059812,-0.161142,-30.048415
11.185,2.0,1.0,1.0,34.6,34.5,34.5,3.5,3.4,2.6275,0.2526538147804902,-0.03162736959040874,0.9481668422784716,-0.005719795536087847,-0.164394,-29.858969
11.185,2.0,1.0,1.0,34.6,34.5,34.5,3.5,3.4,2.63,0.24136968637102296,-0.03225951104514029,0.9507094946680621,-0.006241689502398715,-0.167762,-29.667231
11.185,2.0,1.0,1.0,34.6,34.5,34.5,3.5,3.4,2.6325,0.22995612294047033,-0.032907417696611596,0.9531290743617595,-0.006788629542089821,-0.171253,-29.473124
11.185,2.0,1.0,1.0,34.6,34.5,34.5,3.5,3.4,2.635,0.2184120412326501,-0.033571652926294576,0.9554213697916397,-0.0073620179525681305,-0.174873,-29.276563
11.185,2.0,1.0,1.0,34.6,34.5,34.5,3.5,3.4,2.6375,0.20673635837280024,-0.03425280727698671,0.9575819974864815,-0.007963358543360216,-0.178631,-29.077462
11.185,2.0,1.0,1.0,34.6,34.5,34.5,3.5,3.4,2.64,0.19492799215257645,-0.0349514999020432,0.9596063911564093,-0.008594265927593374,-0.182532,-28.875731
11.185,2.0,1.0,1.0,34.6,34.5,34.5,3.5,3.4,2.6425,0.1829858613316641,-0.035668380061918005,0.9614897897029164,-0.009256475844709866,-0.186588,-28.671272
11.185,2.0,1.0,1.0,34.6,34.5,34.5,3.5,3.4,2.645,0.1709088859660631,-0.03640412865893562,0.963227224016184,-0.009951856648609184,-0.190806,-28.463985
11.185,2.0,1.0,1.0,34.6,34.5,34.5,3.5,3.4,2.6475,0.15869598777678476,-0.03715945979748111,0.9648135024009208,-0.010682422115424155,-0.195196,-28.253764
11.185,2.0,1.0,1.0,34.6,34.5,34.5,3.5,3.4,2.65,0.14634609057733994,-0.037935122352009444,0.9662431944477141,-0.01145034574851636,-0.19977,-28.040495
11.185,2.0,1.0,1.0,34.6,34.5,34.5,3.5,3.4,2.6525,0.13385812078451892,-0.03873190151914371,0.9675106131384963,-0.012257976785641821,-0.20454,-27.82406
11.185,2.0,1.0,1.0,34.6,34.5,34.5,3.5,3.4,2.655,0.12123100804456144,-0.039550620322303325,0.9686097949414557,-0.013107858145369473,-0.209518,-27.604334
11.185,2.0,1.0,1.0,34.6,34.5,34.5,3.5,3.4,2.6575,0.10846368601683962,-0.040392141027292425,0.9695344776114596,-0.014002746587625419,-0.214719,-27.381184
11.185,2.0,1.0,1.0,34.6,34.5,34.5,3.5,3.4,2.66,0.09555509336980443,-0.04125736641450334,0.9702780753658009,-0.014945635407815658,-0.220158,-27.154469
11.185,2.0,1.0,1.0,34.6,34.5,34.5,3.5,3.4,2.6625,0.08250417506023568,-0.04214724083706056,0.9708336510503404,-0.01593978003669434,-0.225851,-26.924042
11.185,2.0,1.0,1.0,34.6,34.5,34.5,3.5,3.4,2.665,0.06930988398763327,-0.04306275097336235,0.9711938848461912,-0.016988726980636845,-0.231818,-26.689743
11.185,2.0,1.0,1.0,34.6,34.5,34.5,3.5,3.4,2.6675,0.0559711831424135,-0.044004926155754506,0.9713510389898705,-0.018096346611258512,-0.23808,-26.451406
11.185,2.0,1.0,1.0,34.6,34.5,34.5,3.5,3.4,2.67,0.04248704840085273,-0.04497483812282839,0.9712969178878227,-0.01926687040185677,-0.244658,-26.208852
11.185,2.0,1.0,1.0,34.6,34.5,34.5,3.5,3.4,2.6725,0.028856472163973204,-0.045973599998848695,0.9710228228961636,-0.020504933313957575,-0.251578,-25.961892
11.185,2.0,1.0,1.0,34.6,34.5,34.5,3.5,3.4,2.675,0.015078468094637717,-0.04700236424720998,0.970519500904559,-0.0218156221640383,-0.258866,-25.710325
11.185,2.0,1.0,1.0,34.6,34.5,34.5,3.5,3.4,2.6775,0.001152077280735081,-0.04806231927179114,0.9697770857046147,-0.023204530952860156,-0.266556,-25.453934
11.185,2.0,1.0,1.0,34.6,34.5,34.5,3.5,3.4,2.68,-0.0129236237520586,-0.04915468424559413,0.9687850309319553,-0.024677824323428788,-0.274679,-25.192491
11.185,2.0,1.0,1.0,34.6,34.5,34.5,3.5,3.4,2.6825,-0.027149512630352795,-0.05028070162345538,0.9675320331401518,-0.026242310535422163,-0.283275,-24.925749
11.185,2.0,1.0,1.0,34.6,34.5,34.5,3.5,3.4,2.685,-0.04152640761653772,-0.05144162663601291,0.9660059432846089,-0.027905525612668753,-0.292386,-24.653446
11.185,2.0,1.0,1.0,34.6,34.5,34.5,3.5,3.4,2.6875,-0.0560550500644943,-0.05263871285358478,0.9641936645541912,-0.02967583064669911,-0.302061,-24.3753
11.185,2.0,1.0,1.0,34.6,34.5,34.5,3.5,3.4,2.69,-0.07073608164823159,-0.053873192635131684,0.9620810340737214,-0.03156252463692504,-0.312353,-24.091009
11.185,2.0,1.0,1.0,34.6,34.5,34.5,3.5,3.4,2.6925,-0.08557001479762498,-0.05514625091734496,0.9596526854941091,-0.03357597573324719,-0.323325,-23.800249
11.185,2.0,1.0,1.0,34.6,34.5,34.5,3.5,3.4,2.695,-0.10055719428980534,-0.05645899032258213,0.9568918888669774,-0.03572777434044896,-0.335045,-23.502669
11.185,2.0,1.0,1.0,34.6,34.5,34.5,3.5,3.4,2.6975,-0.11569774729921677,-0.05781238493151775,0.9537803634405951,-0.038030912271120765,-0.347593,-23.197894
11.185,2.0,1.0,1.0,34.6,34.5,34.5,3.5,3.4,2.7,-0.1309915183461092,-0.059207219221399564,0.9502980580803995,-0.04049999302640548,-0.361059,-22.885518
11.185,2.0,1.0,1.0,34.6,34.5,34.5,3.5,3.4,2.7025,-0.14643798442403017,-0.06064400753687497,0.9464228928700277,-0.043151479379920636,-0.375547,-22.565102
11.185,2.0,1.0,1.0,34.6,34.5,34.5,3.5,3.4,2.705,-0.16203614402098004,-0.062122887930449365,0.9421304540383387,-0.046003985785964374,-0.391177,-22.23617
11.185,2.0,1.0,1.0,34.6,34.5,34.5,3.5,3.4,2.7075,-0.17778437162265237,-0.06364348213393001,0.9373936326262137,-0.049078624783278166,-0.408087,-21.89821
11.185,2.0,1.0,1.0,34.6,34.5,34.5,3.5,3.4,2.71,-0.19368022638161178,-0.06520471058948524,0.9321821951864642,-0.05239941858284668,-0.426438,-21.550662
11.185,2.0,1.0,1.0,34.6,34.5,34.5,3.5,3.4,2.7125,-0.20972019964481278,-0.06680454757976226,0.9264622722270037,-0.055993789480514186,-0.446419,-21.19292
11.185,2.0,1.0,1.0,34.6,34.5,34.5,3.5,3.4,2.715,-0.2258993805127186,-0.06843969612352171,0.9201957469878521,-0.0598931456888173,-0.468249,-20.824325
11.185,2.0,1.0,1.0,34.6,34.5,34.5,3.5,3.4,2.7175,-0.24221101092282388,-0.07010515483308928,0.9133395234280915,-0.06413358268649352,-0.492189,-20.444157
11.185,2.0,1.0,1.0,34.6,34.5,34.5,3.5,3.4,2.72,-0.2586458909932179,-0.07179363847698564,0.9058446479778857,-0.0687567242392459,-0.51855,-20.051633
11.185,2.0,1.0,1.0,34.6,34.5,34.5,3.5,3.4,2.7225,-0.27519158019838375,-0.07349479927014835,0.897655254778882,-0.07381073174330369,-0.547701,-19.645899
11.185,2.0,1.0,1.0,34.6,34.5,34.5,3.5,3.4,2.725,-0.29183131843837595,-0.07519417505176645,0.8887072991124635,-0.07935151515279545,-0.580087,-19.22602
11.185,2.0,1.0,1.0,34.6,34.5,34.5,3.5,3.4,2.7275,-0.3085425603635896,-0.076871760767838,0.8789270392570507,-0.08544418270619757,-0.616248,-18.79098
11.185,2.0,1.0,1.0,34.6,34.5,34.5,3.5,3.4,2.73,-0.3252949722654177,-0.07850005704329269,0.8682292247204866,-0.09216476837085895,-0.65684,-18.339667
11.185,2.0,1.0,1.0,34.6,34.5,34.5,3.5,3.4,2.7325,-0.3420476773467211,-0.08004138825282785,0.8565149518376376,-0.0996022722316762,-0.702672,-17.870873
11.185,2.0,1.0,1.0,34.6,34.5,34.5,3.5,3.4,2.735,-0.3587454433940235,-0.08144419389454455,0.8436691622244137,-0.10786103393463826,-0.754747,-17.38329
11.185,2.0,1.0,1.0,34.6,34.5,34.5,3.5,3.4,2.7375,-0.3753133741229577,-0.08263786913116294,0.8295577971018633,-0.11706342141592914,-0.814317,-16.875505
11.185,2.0,1.0,1.0,34.6,34.5,34.5,3.5,3.4,2.74,-0.3916494741841559,-0.08352554636179227,0.8140247026601231,-0.12735273537911918,-0.882963,-16.346012
11.185,2.0,1.0,1.0,34.6,34.5,34.5,3.5,3.4,2.7425,-0.40761418504237695,-0.08397394792826027,0.7968885484872027,-0.13889606528552562,-0.962695,-15.793226
11.185,2.0,1.0,1.0,34.6,34.5,34.5,3.5,3.4,2.745,-0.423015608499549,-0.08379907617391914,0.7779403463611589,-0.15188651336419806,-1.056101,-15.215519
11.185,2.0,1.0,1.0,34.6,34.5,34.5,3.5,3.4,2.7475,-0.4375886272093528,-0.0827460241320637,0.7569427746724452,-0.1665435992218321,-1.166531,-14.611289
11.185,2.0,1.0,1.0,34.6,34.5,34.5,3.5,3.4,2.75,-0.450965515899614,-0.0804606094615608,0.733633664867133,-0.183109536762097,-1.298372,-13.979073
11.185,2.0,1.0,1.0,34.6,34.5,34.5,3.5,3.4,2.7525,-0.46263505376165504,-0.07644999741653948,0.707738107926373,-0.20183703566555358,-1.457399,-13.317745
11.185,2.0,1.0,1.0,34.6,34.5,34.5,3.5,3.4,2.755,-0.47188706649716855,-0.07002944831502295,0.6789973723184256,-0.22296066938845574,-1.65125,-12.626834
11.185,2.0,1.0,1.0,34.6,34.5,34.5,3.5,3.4,2.7575,-0.477741016065616,-0.06025404261511953,0.6472291627222216,-0.24663774805201516,-1.890004,-11.907048
11.185,2.0,1.0,1.0,34.6,34.5,34.5,3.5,3.4,2.76,-0.47886376944287606,-0.045840665384590217,0.6124436199336206,-0.2728351835843616,-2.186772,-11.161092
11.185,2.0,1.0,1.0,34.6,34.5,34.5,3.5,3.4,2.7625,-0.47349953088360036,-0.02510295678520009,0.5750521156058633,-0.30112685673712747,-2.557957,-10.394933
11.185,2.0,1.0,1.0,34.6,34.5,34.5,3.5,3.4,2.765,-0.4594756738439134,0.004038593879307247,0.5362136377713391,-0.33035909409722475,-3.022103,-9.619626
11.185,2.0,1.0,1.0,34.6,34.5,34.5,3.5,3.4,2.7675,-0.43442461149027856,0.04383581897966361,0.4983390759287936,-0.35816660850131005,-3.594524,-8.853727
11.185,2.0,1.0,1.0,34.6,34.5,34.5,3.5,3.4,2.77,-0.39646079373316806,0.09605202127892534,0.46565162822845146,-0.38044052781185755,-4.271138,-8.125893
11.185,2.0,1.0,1.0,34.6,34.5,34.5,3.5,3.4,2.7725,-0.3455541150409448,0.16063428306245908,0.4443936708707995,-0.39114710934761443,-4.990868,-7.476339
11.185,2.0,1.0,1.0,34.6,34.5,34.5,3.5,3.4,2.775,-0.28542757572530525,0.23389695476747505,0.4418460212315303,-0.3832985654186657,-5.579959,-6.954544
11.185,2.0,1.0,1.0,34.6,34.5,34.5,3.5,3.4,2.7775,-0.22471838588404547,0.30744121173048866,0.4634268363578238,-0.3517635498184647,-5.763237,-6.610304
11.185,2.0,1.0,1.0,34.6,34.5,34.5,3.5,3.4,2.78,-0.17527920423196372,0.36984075925061305,0.5088093540448746,-0.2969833210186605,-5.381868,-6.478536
11.185,2.0,1.0,1.0,34.6,34.5,34.5,3.5,3.4,2.7825,-0.14721313221632876,0.41143882412873894,0.5703769037249268,-0.22639684683496805,-4.596686,-6.565177
11.185,2.0,1.0,1.0,34.6,34.5,34.5,3.5,3.4,2.785,-0.14417053317950765,0.4288346715700012,0.6363902617914167,-0.15133878543838677,-3.708171,-6.84444
11.185,2.0,1.0,1.0,34.6,34.5,34.5,3.5,3.4,2.7875,-0.16292676379648094,0.42522955819129943,0.6964226064846452,-0.08180846072952178,-2.911123,-7.269691
11.185,2.0,1.0,1.0,34.6,34.5,34.5,3.5,3.4,2.79,-0.1966984319532967,0.40720456421037443,0.744601093772572,-0.023387055524047753,-2.268567,-7.789445
11.185,2.0,1.0,1.0,34.6,34.5,34.5,3.5,3.4,2.7925,-0.23868162405913376,0.38131951670477277,0.7794452879345295,0.022573110165530395,-1.775025,-8.359027
11.185,2.0,1.0,1.0,34.6,34.5,34.5,3.5,3.4,2.795,-0.2837997522391408,0.3524475137833552,0.8021022434456331,0.0572351960156896,-1.403152,-8.945064
11.185,2.0,1.0,1.0,34.6,34.5,34.5,3.5,3.4,2.7975,-0.32890194800424877,0.3235978495953103,0.8147174109662286,0.08270856536955488,-1.124159,-9.52506
11.185,2.0,1.0,1.0,34.6,34.5,34.5,3.5,3.4,2.8,-0.37230589317974955,0.2963637846369917,0.8194930634656328,0.10114616999758487,-0.914182,-10.084991
11.185,2.0,1.0,1.0,34.6,34.5,34.5,3.5,3.4,2.8025,-0.4132651073962501,0.2714386141362035,0.8183031650550392,0.11437798030216059,-0.755098,-10.616742
11.185,2.0,1.0,1.0,34.6,34.5,34.5,3.5,3.4,2.805,-0.4515651185375366,0.249005347299132,0.8126097071167271,0.12383366933308346,-0.633628,-11.116046
11.185,2.0,1.0,1.0,34.6,34.5,34.5,3.5,3.4,2.8075,-0.48726574194108996,0.22898472403597595,0.8035033706148026,0.1305839626721696,-0.540169,-11.581016
11.185,2.0,1.0,1.0,34.6,34.5,34.5,3.5,3.4,2.81,-0.5205515493378267,0.21117872302705362,0.7917787392619723,0.13541450114933257,-0.467781,-12.011178
11.185,2.0,1.0,1.0,34.6,34.5,34.5,3.5,3.4,2.8125,-0.551650705783202,0.195348175832001,0.778007355601796,0.138897151952644,-0.411429,-12.406848
11.185,2.0,1.0,1.0,34.6,34.5,34.5,3.5,3.4,2.815,-0.5807936219493104,0.18125207463564807,0.7625973064045971,0.14144807845777016,-0.367431,-12.768739
11.185,2.0,1.0,1.0,34.6,34.5,34.5,3.5,3.4,2.8175,-0.6081936342191006,0.1686657198042762,0.7458382868525354,0.14337169213894163,-0.333073,-13.097723
11.185,2.0,1.0,1.0,34.6,34.5,34.5,3.5,3.4,2.82,-0.6340393775929631,0.157387647663448,0.7279344349070043,0.14489278035935715,-0.306333,-13.394685
11.185,2.0,1.0,1.0,34.6,34.5,34.5,3.5,3.4,2.8225,-0.6584930846831504,0.14724086975564854,0.7090277991148963,0.1461796255723537,-0.285694,-13.660434
11.185,2.0,1.0,1.0,34.6,34.5,34.5,3.5,3.4,2.825,-0.6816916821927248,0.13807141127821523,0.6892149402012732,0.1473605660782485,-0.270012,-13.89565
11.185,2.0,1.0,1.0,34.6,34.5,34.5,3.5,3.4,2.8275,-0.7037490295239898,0.12974571614049207,0.6685585983535315,0.14853589375149132,-0.258416,-14.100854
11.185,2.0,1.0,1.0,34.6,34.5,34.5,3.5,3.4,2.83,-0.7247584486896923,0.12214770894777939,0.6470958362949443,0.14978648008068668,-0.250244,-14.27639
