1,w,sub_t,h,l1,l2,l3,g1,g2,Freq,S11_re,S21_re,S11_img,S21_img,S11_dB,S21_dB
11.185,2.0,1.0,1.0,34.2,33.0,33.0,4.3,2.7,2.5,0.757122929394933,-0.0078891513123895,0.642926282696367,0.00371765852306302,-0.058636,-41.188454
11.185,2.0,1.0,1.0,34.2,33.0,33.0,4.3,2.7,2.5025,0.7522698483360732,-0.008020525328971028,0.6485030309079762,0.0036974675695359495,-0.059178,-41.079049
11.185,2.0,1.0,1.0,34.2,33.0,33.0,4.3,2.7,2.505,0.7473521176328517,-0.008153677845880978,0.6540685962040115,0.0036757659869078203,-0.05973,-40.969441
11.185,2.0,1.0,1.0,34.2,33.0,33.0,4.3,2.7,2.5075,0.7423691361603301,-0.008288629953201457,0.6596224641860475,0.003652509364446932,-0.06029,-40.859626
11.185,2.0,1.0,1.0,34.2,33.0,33.0,4.3,2.7,2.51,0.7373202962891514,-0.00842540286862055,0.6651641064781859,0.0036276520185465205,-0.060859,-40.7496
11.185,2.0,1.0,1.0,34.2,33.0,33.0,4.3,2.7,2.5125,0.732204983900347,-0.008564017929110275,0.6706929803424385,0.0036011469541466115,-0.061437,-40.639355
11.185,2.0,1.0,1.0,34.2,33.0,33.0,4.3,2.7,2.515,0.7270225784056059,-0.008704496581944818,0.6762085282841623,0.0035729458249413037,-0.062025,-40.528889
11.185,2.0,1.0,1.0,34.2,33.0,33.0,4.3,2.7,2.5175,0.7217724527733306,-0.008846860375021465,0.6817101776472928,0.0035429988923343114,-0.062622,-40.418196
11.185,2.0,1.0,1.0,34.2,33.0,33.0,4.3,2.7,2.52,0.7164539735607989,-0.00899113094644717,0.6871973401991768,0.0035112549831008886,-0.063229,-40.307269
11.185,2.0,1.0,1.0,34.2,33.0,33.0,4.3,2.7,2.5225,0.7110665009527986,-0.009137330013348698,0.6926694117047387,0.0034776614457149206,-0.063846,-40.196106
11.185,2.0,1.0,1.0,34.2,33.0,33.0,4.3,2.7,2.525,0.7056093888070788,-0.009285479359865451,0.6981257714897812,0.0034421641052978223,-0.064473,-40.084699
11.185,2.0,1.0,1.0,34.2,33.0,33.0,4.3,2.7,2.5275,0.7000819847070058,-0.009435600824279605,0.7035657819931619,0.0034047072171447686,-0.06511,-39.973045
11.185,2.0,1.0,1.0,34.2,33.0,33.0,4.3,2.7,2.53,0.694483630021825,-0.009587716285236672,0.7089887883076196,0.0033652334187820807,-0.065758,-39.861137
11.185,2.0,1.0,1.0,34.2,33.0,33.0,4.3,2.7,2.5325,0.6888136599749397,-0.009741847647007869,0.7143941177090026,0.0033236836805077418,-0.066417,-39.748971
11.185,2.0,1.0,1.0,34.2,33.0,33.0,4.3,2.7,2.535,0.6830714037206383,-0.009898016823741931,0.7197810791736743,0.003279997254366978,-0.067087,-39.636541
11.185,2.0,1.0,1.0,34.2,33.0,33.0,4.3,2.7,2.5375,0.6772561844297327,-0.010056245722652525,0.7251489628838329,0.003234111621510249,-0.067768,-39.523842
11.185,2.0,1.0,1.0,34.2,33.0,33.0,4.3,2.7,2.54,0.6713673193845768,-0.010216556226084,0.7304970397205222,0.0031859624378829626,-0.06846,-39.410869
11.185,2.0,1.0,1.0,34.2,33.0,33.0,4.3,2.7,2.5425,0.6654041200839589,-0.010378970172395917,0.7358245607440836,0.0031354834781912398,-0.069165,-39.297616
11.185,2.0,1.0,1.0,34.2,33.0,33.0,4.3,2.7,2.545,0.6593658923583878,-0.010543509335602828,0.7411307566618099,0.0030826065780880365,-0.069881,-39.184077
11.185,2.0,1.0,1.0,34.2,33.0,33.0,4.3,2.7,2.5475,0.6532519364963221,-0.010710195403703764,0.7464148372825492,0.0030272615745214784,-0.070609,-39.070248
11.185,2.0,1.0,1.0,34.2,33.0,33.0,4.3,2.7,2.55,0.6470615473818835,-0.010879049955631845,0.751675990958041,0.0029693762441855287,-0.071349,-38.956122
11.185,2.0,1.0,1.0,34.2,33.0,33.0,4.3,2.7,2.5525,0.6407940146446769,-0.011050094436750929,0.756913384010715,0.0029088762400105153,-0.072103,-38.841694
11.185,2.0,1.0,1.0,34.2,33.0,33.0,4.3,2.7,2.555,0.6344486228223031,-0.011223350132822671,0.7621261601477408,0.0028456850256295624,-0.072869,-38.726959
11.185,2.0,1.0,1.0,34.2,33.0,33.0,4.3,2.7,2.5575,0.6280246515362171,-0.011398838142364278,0.767313439861086,0.0027797238077543135,-0.073648,-38.611911
11.185,2.0,1.0,1.0,34.2,33.0,33.0,4.3,2.7,2.56,0.6215213756816048,-0.011576579347311317,0.7724743198133464,0.002710911466391074,-0.074441,-38.496543
11.185,2.0,1.0,1.0,34.2,33.0,33.0,4.3,2.7,2.5625,0.6149380656319703,-0.011756594381897755,0.7776078722091214,0.002639164482826377,-0.075248,-38.380851
11.185,2.0,1.0,1.0,34.2,33.0,33.0,4.3,2.7,2.565,0.6082739874591595,-0.01193890359965973,0.7827131441517304,0.0025643968653081485,-0.076068,-38.264829
11.185,2.0,1.0,1.0,34.2,33.0,33.0,4.3,2.7,2.5675,0.6015284031695884,-0.012123527038464968,0.7877891569850187,0.0024865200723460236,-0.076903,-38.14847
11.185,2.0,1.0,1.0,34.2,33.0,33.0,4.3,2.7,2.57,0.5947005709574558,-0.01231048438346546,0.7928349056200753,0.0024054429335519526,-0.077753,-38.031769
11.185,2.0,1.0,1.0,34.2,33.0,33.0,4.3,2.7,2.5725,0.5877897454757653,-0.012499794927864913,0.797849357846642,0.002321071567938847,-0.078618,-37.91472
11.185,2.0,1.0,1.0,34.2,33.0,33.0,4.3,2.7,2.575,0.5807951781260193,-0.012691477531388074,0.8028314536290216,0.0022333092995929444,-0.079498,-37.797316
11.185,2.0,1.0,1.0,34.2,33.0,33.0,4.3,2.7,2.5775,0.5737161173674723,-0.012885550576332165,0.8077801043862989,0.0021420565706308007,-0.080394,-37.679552
11.185,2.0,1.0,1.0,34.2,33.0,33.0,4.3,2.7,2.58,0.5665518090468773,-0.013082031921075779,0.8126941922566987,0.002047210851350985,-0.081306,-37.561422
11.185,2.0,1.0,1.0,34.2,33.0,33.0,4.3,2.7,2.5825,0.5593014967496871,-0.01328093885091347,0.8175725693459164,0.0019486665474838583,-0.082234,-37.442919
11.185,2.0,1.0,1.0,34.2,33.0,33.0,4.3,2.7,2.585,0.5519644221737215,-0.013482288026077654,0.8224140569592712,0.0018463149044431974,-0.083179,-37.324036
11.185,2.0,1.0,1.0,34.2,33.0,33.0,4.3,2.7,2.5875,0.5445398255263408,-0.013686095426803425,0.8272174448175423,0.0017400439084751405,-0.084141,-37.204769
11.185,2.0,1.0,1.0,34.2,33.0,33.0,4.3,2.7,2.59,0.537026945946221,-0.013892376295282569,0.8319814902563611,0.0016297381846004622,-0.08512,-37.085109
11.185,2.0,1.0,1.0,34.2,33.0,33.0,4.3,2.7,2.5925,0.5294250219508516,-0.01410114507434787,0.8367049174090684,0.0015152788912376524,-0.086118,-36.965051
11.185,2.0,1.0,1.0,34.2,33.0,33.0,4.3,2.7,2.595,0.5217332919109469,-0.014312415342717589,0.8413864163729282,0.0013965436113936571,-0.087133,-36.844588
11.185,2.0,1.0,1.0,34.2,33.0,33.0,4.3,2.7,2.5975,0.5139509945529686,-0.014526199746624557,0.8460246423586549,0.0012734062403014239,-0.088168,-36.723713
11.185,2.0,1.0,1.0,34.2,33.0,33.0,4.3,2.7,2.6,0.5060773694910456,-0.014742509927642866,0.8506182148231864,0.0011457368693801905,-0.089221,-36.60242
11.185,2.0,1.0,1.0,34.2,33.0,33.0,4.3,2.7,2.6025,0.4981116577896009,-0.014961356446516418,0.8551657165857044,0.0010134016663886295,-0.090294,-36.480701
11.185,2.0,1.0,1.0,34.2,33.0,33.0,4.3,2.7,2.605,0.4900531025580455,-0.015182748702783846,0.8596656929268843,0.0008762627516349281,-0.091387,-36.35855
11.185,2.0,1.0,1.0,34.2,33.0,33.0,4.3,2.7,2.6075,0.4819009495789583,-0.015406694849983086,0.8641166506714271,0.000734178070103264,-0.092501,-36.235959
11.185,2.0,1.0,1.0,34.2,33.0,33.0,4.3,2.7,2.61,0.47365444797122863,-0.015633201706207703,0.8685170572539183,0.000587001259347023,-0.093635,-36.112923
11.185,2.0,1.0,1.0,34.2,33.0,33.0,4.3,2.7,2.6125,0.4653128508896657,-0.015862274659775574,0.8728653397681265,0.0004345815129967752,-0.094791,-35.989432
11.185,2.0,1.0,1.0,34.2,33.0,33.0,4.3,2.7,2.615,0.45687541626266515,-0.01609391756975784,0.8771598839998509,0.00027676343971897805,-0.095969,-35.86548
11.185,2.0,1.0,1.0,34.2,33.0,33.0,4.3,2.7,2.6175,0.4483414075695599,-0.016328132661102147,0.8813990334435072,0.00011338691745641173,-0.09717,-35.74106
11.185,2.0,1.0,1.0,34.2,33.0,33.0,4.3,2.7,2.62,0.4397100946593501,-0.016564920414071038,0.8855810883026329,-5.5713057226365465e-05,-0.098393,-35.616164
11.185,2.0,1.0,1.0,34.2,33.0,33.0,4.3,2.7,2.6225,0.4309807546125478,-0.016804279447701125,0.8897043044745863,-0.00023070652488048183,-0.09964,-35.490784
11.185,2.0,1.0,1.0,34.2,33.0,33.0,4.3,2.7,2.625,0.422152672647971,-0.017046206396972,0.89376689251971,-0.000411768724188844,-0.100912,-35.364912
11.185,2.0,1.0,1.0,34.2,33.0,33.0,4.3,2.7,2.6275,0.41322514307632635,-0.01729069578335918,0.8977670166153239,-0.0005990802584668222,-0.102207,-35.23854
11.185,2.0,1.0,1.0,34.2,33.0,33.0,4.3,2.7,2.63,0.40419747030253933,-0.017537739878425194,0.9017027934949182,-0.0007928272678654913,-0.103529,-35.111661
11.185,2.0,1.0,1.0,34.2,33.0,33.0,4.3,2.7,2.6325,0.3950689698788091,-0.017787328560085768,0.9055722913730209,-0.0009932016075065964,-0.104876,-34.984266
11.185,2.0,1.0,1.0,34.2,33.0,33.0,4.3,2.7,2.635,0.38583896961046027,-0.018039449161167172,0.9093735288562214,-0.0012004010317907964,-0.10625,-34.856347
11.185,2.0,1.0,1.0,34.2,33.0,33.0,4.3,2.7,2.6375,0.37650681071672054,-0.01829408630984938,0.9131044738409384,-0.0014146293851355625,-0.107651,-34.727894
11.185,2.0,1.0,1.0,34.2,33.0,33.0,4.3,2.7,2.64,0.36707184904859974,-0.01855122176156778,0.9167630423985507,-0.0016360967994132943,-0.10908,-34.598901
11.185,2.0,1.0,1.0,34.2,33.0,33.0,4.3,2.7,2.6425,0.3575334563661516,-0.01881083422192055,0.9203470976486023,-0.0018650198983769936,-0.110538,-34.469356
11.185,2.0,1.0,1.0,34.2,33.0,33.0,4.3,2.7,2.645,0.3478910216774311,-0.01907289916010366,0.9238544486208504,-0.00210162200937775,-0.112025,-34.339253
11.185,2.0,1.0,1.0,34.2,33.0,33.0,4.3,2.7,2.6475,0.3381439526415581,-0.019337388612367824,0.9272828491070063,-0.0023461333826986495,-0.113542,-34.208581
11.185,2.0,1.0,1.0,34.2,33.0,33.0,4.3,2.7,2.65,0.32829167703833384,-0.019604270974961834,0.9306299965031032,-0.0025987914188482495,-0.11509,-34.077331
11.185,2.0,1.0,1.0,34.2,33.0,33.0,4.3,2.7,2.6525,0.31833364430698,-0.01987351078599397,0.9338935306434936,-0.0028598409041825095,-0.11667,-33.945494
11.185,2.0,1.0,1.0,34.2,33.0,33.0,4.3,2.7,2.655,0.30826932715657196,-0.020145068495610933,0.9370710326275923,-0.00312953425524532,-0.118282,-33.813059
11.185,2.0,1.0,1.0,34.2,33.0,33.0,4.3,2.7,2.6575,0.29809822325086577,-0.02041890022385523,0.9401600236405463,-0.0034081317722478317,-0.119928,-33.680017
11.185,2.0,1.0,1.0,34.2,33.0,33.0,4.3,2.7,2.66,0.2878198569702674,-0.020694957505523404,0.9431579637691201,-0.003695901902133533,-0.121608,-33.546357
11.185,2.0,1.0,1.0,34.2,33.0,33.0,4.3,2.7,2.6625,0.2774337812537571,-0.020973187021304494,0.9460622508141926,-0.003993121511709193,-0.123323,-33.41207
11.185,2.0,1.0,1.0,34.2,33.0,33.0,4.3,2.7,2.665,0.2669395795236607,-0.021253530314432657,0.948870219101344,-0.004300076171357367,-0.125074,-33.277144
11.185,2.0,1.0,1.0,34.2,33.0,33.0,4.3,2.7,2.6675,0.2563368676962409,-0.021535923492037288,0.9515791382911418,-0.0046170604498830935,-0.126862,-33.141569
11.185,2.0,1.0,1.0,34.2,33.0,33.0,4.3,2.7,2.67,0.24562529628113233,-0.021820296910321568,0.9541862121908244,-0.004944378221090095,-0.128688,-33.005332
11.185,2.0,1.0,1.0,34.2,33.0,33.0,4.3,2.7,2.6725,0.23480455257272345,-0.02210657484264108,0.9566885775692069,-0.005282342982729348,-0.130554,-32.868424
11.185,2.0,1.0,1.0,34.2,33.0,33.0,4.3,2.7,2.675,0.22387436293666677,-0.02239467512949088,0.9590833029767543,-0.005631278188508332,-0.132459,-32.730832
11.185,2.0,1.0,1.0,34.2,33.0,33.0,4.3,2.7,2.6775,0.21283449519476266,-0.022684508809341617,0.961367387572863,-0.0059915175939122545,-0.134406,-32.592543
11.185,2.0,1.0,1.0,34.2,33.0,33.0,4.3,2.7,2.68,0.20168476111151346,-0.022975979729188984,0.9635377599625592,-0.006363405616641013,-0.136396,-32.453547
11.185,2.0,1.0,1.0,34.2,33.0,33.0,4.3,2.7,2.6825,0.1904250189857678,-0.02326898413360049,0.9655912770448749,-0.006747297712539602,-0.138429,-32.313829
11.185,2.0,1.0,1.0,34.2,33.0,33.0,4.3,2.7,2.685,0.17905517635086043,-0.023563410230952726,0.9675247228753817,-0.007143560767966675,-0.140507,-32.173377
11.185,2.0,1.0,1.0,34.2,33.0,33.0,4.3,2.7,2.6875,0.167575192786809,-0.0238591377354561,0.969334807545393,-0.0075525735096328,-0.142631,-32.032177
11.185,2.0,1.0,1.0,34.2,33.0,33.0,4.3,2.7,2.69,0.1559850828481418,-0.02415603738345552,0.9710181660805436,-0.007974726933022517,-0.144803,-31.890216
11.185,2.0,1.0,1.0,34.2,33.0,33.0,4.3,2.7,2.6925,0.14428491911100258,-0.02445397042237912,0.9725713573615393,-0.008410424750617096,-0.147024,-31.74748
11.185,2.0,1.0,1.0,34.2,33.0,33.0,4.3,2.7,2.695,0.13247483534330032,-0.02475278807057596,0.9739908630700128,-0.008860083861238575,-0.149295,-31.603953
11.185,2.0,1.0,1.0,34.2,33.0,33.0,4.3,2.7,2.6975,0.12055502980165139,-0.02505233094614378,0.9752730866625307,-0.009324134841956702,-0.151618,-31.45962
11.185,2.0,1.0,1.0,34.2,33.0,33.0,4.3,2.7,2.7,0.10852576865904341,-0.025352428462687274,0.9764143523759143,-0.009803022464129157,-0.153994,-31.314467
11.185,2.0,1.0,1.0,34.2,33.0,33.0,4.3,2.7,2.7025,0.09638738956711587,-0.025652898189777222,0.9774109042671666,-0.010297206235290084,-0.156426,-31.168477
11.185,2.0,1.0,1.0,34.2,33.0,33.0,4.3,2.7,2.705,0.08414030535713253,-0.02595354517568489,0.9782589052913494,-0.01080716096876066,-0.158914,-31.021634
11.185,2.0,1.0,1.0,34.2,33.0,33.0,4.3,2.7,2.7075,0.07178500788371264,-0.02625416122975624,0.9789544364209211,-0.011333377383029686,-0.161461,-30.87392
11.185,2.0,1.0,1.0,34.2,33.0,33.0,4.3,2.7,2.71,0.0593220720155605,-0.026554524161550883,0.9794934958100516,-0.01187636273314517,-0.164068,-30.725317
11.185,2.0,1.0,1.0,34.2,33.0,33.0,4.3,2.7,2.7125,0.04675215977746626,-0.02685439697361017,0.9798719980075459,-0.01243664147657334,-0.166738,-30.575808
11.185,2.0,1.0,1.0,34.2,33.0,33.0,4.3,2.7,2.715,0.03407602464798489,-0.027153527004423653,0.980085773222053,-0.013014755976212763,-0.169472,-30.425374
11.185,2.0,1.0,1.0,34.2,33.0,33.0,4.3,2.7,2.7175,0.021294516017329738,-0.027451645017837582,0.9801305666432356,-0.013611267243515213,-0.172272,-30.273994
11.185,2.0,1.0,1.0,34.2,33.0,33.0,4.3,2.7,2.72,0.008408583810149051,-0.02774846423478393,0.9800020378226143,-0.014226755724948244,-0.175141,-30.121649
11.185,2.0,1.0,1.0,34.2,33.0,33.0,4.3,2.7,2.7225,-0.004580716722025936,-0.02804367930280033,0.9796957601177707,-0.014861822135356166,-0.17808,-29.968318
11.185,2.0,1.0,1.0,34.2,33.0,33.0,4.3,2.7,2.725,-0.017672220033618707,-0.028336965198353273,0.9792072202035266,-0.01551708834212228,-0.181094,-29.813978
11.185,2.0,1.0,1.0,34.2,33.0,33.0,4.3,2.7,2.7275,-0.030864645137956708,-0.028627976056466078,0.9785318176536315,-0.01619319830442556,-0.184182,-29.658608
11.185,2.0,1.0,1.0,34.2,33.0,33.0,4.3,2.7,2.73,-0.04415659027486769,-0.028916343921575292,0.9776648645963799,-0.016890819072314368,-0.18735,-29.502183
11.185,2.0,1.0,1.0,34.2,33.0,33.0,4.3,2.7,2.7325,-0.05754652738716996,-0.029201677412892743,0.9766015854473519,-0.017610641850792908,-0.190598,-29.344678
11.185,2.0,1.0,1.0,34.2,33.0,33.0,4.3,2.7,2.735,-0.07103279639999396,-0.029483560296820543,0.9753371167222802,-0.0183533831346399,-0.193931,-29.18607
11.185,2.0,1.0,1.0,34.2,33.0,33.0,4.3,2.7,2.7375,-0.08461359929643616,-0.02976154995814352,0.9738665069327158,-0.01911978592026398,-0.19735,-29.02633
11.185,2.0,1.0,1.0,34.2,33.0,33.0,4.3,2.7,2.74,-0.09828699398259531,-0.03003517576079496,0.9721847165668159,-0.019910621001538908,-0.20086,-28.865431
11.185,2.0,1.0,1.0,34.2,33.0,33.0,4.3,2.7,2.7425,-0.11205088793448045,-0.030303937287939862,0.970286618157102,-0.0207266883572762,-0.204464,-28.703345
11.185,2.0,1.0,1.0,34.2,33.0,33.0,4.3,2.7,2.745,-0.1259030316185828,-0.030567302449931073,0.9681669964365204,-0.021568818638781993,-0.208165,-28.540042
11.185,2.0,1.0,1.0,34.2,33.0,33.0,4.3,2.7,2.7475,-0.1398410116771583,-0.030824705447342483,0.965820548583475,-0.022437874766815507,-0.211966,-28.375489
11.185,2.0,1.0,1.0,34.2,33.0,33.0,4.3,2.7,2.75,-0.153862243868305,-0.0310755445747536,0.963241884555763,-0.0233347536482373,-0.215873,-28.209655
11.185,2.0,1.0,1.0,34.2,33.0,33.0,4.3,2.7,2.7525,-0.16796396574979341,-0.03131917984921349,0.960425527512425,-0.02426038802370639,-0.219889,-28.042505
11.185,2.0,1.0,1.0,34.2,33.0,33.0,4.3,2.7,2.755,-0.18214322909435657,-0.03155493044533078,0.9573659143215578,-0.02521574845897083,-0.224018,-27.874002
11.185,2.0,1.0,1.0,34.2,33.0,33.0,4.3,2.7,2.7575,-0.19639689202253025,-0.031782071916670436,0.9540573961508567,-0.026201845493619043,-0.228266,-27.704111
11.185,2.0,1.0,1.0,34.2,33.0,33.0,4.3,2.7,2.76,-0.2107216108373187,-0.03199983318055397,0.9504942391363902,-0.027219731962612334,-0.232636,-27.532791
11.185,2.0,1.0,1.0,34.2,33.0,33.0,4.3,2.7,2.7625,-0.22511383154284814,-0.032207393240402594,0.9466706251234656,-0.028270505507539415,-0.237135,-27.360002
11.185,2.0,1.0,1.0,34.2,33.0,33.0,4.3,2.7,2.765,-0.23956978102647883,-0.03240387761637395,0.9425806524716986,-0.02935531129632606,-0.241768,-27.185699
11.185,2.0,1.0,1.0,34.2,33.0,33.0,4.3,2.7,2.7675,-0.2540854578809898,-0.032588354451158506,0.9382183369143791,-0.030475344972116878,-0.246541,-27.009838
11.185,2.0,1.0,1.0,34.2,33.0,33.0,4.3,2.7,2.77,-0.2686566228397326,-0.032759830253332206,0.9335776124598911,-0.03163185585425061,-0.25146,-26.832372
11.185,2.0,1.0,1.0,34.2,33.0,33.0,4.3,2.7,2.7725,-0.2832787887935495,-0.03291724523552381,0.9286523323203972,-0.03282615041668255,-0.256532,-26.653249
11.185,2.0,1.0,1.0,34.2,33.0,33.0,4.3,2.7,2.775,-0.297947210353237,-0.03305946819872419,0.9234362698500347,-0.034059596071907464,-0.261764,-26.472418
11.185,2.0,1.0,1.0,34.2,33.0,33.0,4.3,2.7,2.7775,-0.31265687291545646,-0.03318529090722136,0.9179231194715937,-0.03533362529142149,-0.267164,-26.289823
11.185,2.0,1.0,1.0,34.2,33.0,33.0,4.3,2.7,2.78,-0.3274024811831794,-0.033293421890721694,0.9121064975669856,-0.03664974009705926,-0.27274,-26.105406
11.185,2.0,1.0,1.0,34.2,33.0,33.0,4.3,2.7,2.7825,-0.3421784470834961,-0.03338247960103652,0.9059799433026796,-0.03800951696118039,-0.278501,-25.919105
11.185,2.0,1.0,1.0,34.2,33.0,33.0,4.3,2.7,2.785,-0.3569788770161054,-0.033450984840051226,0.8995369193566816,-0.039414612157709,-0.284456,-25.730855
11.185,2.0,1.0,1.0,34.2,33.0,33.0,4.3,2.7,2.7875,-0.3717975583543765,-0.03349735236328739,0.8927708125085831,-0.04086676761043341,-0.290615,-25.540589
11.185,2.0,1.0,1.0,34.2,33.0,33.0,4.3,2.7,2.79,-0.38662794510748877,-0.03351988154890347,0.8856749340485016,-0.042367817289845025,-0.29699,-25.348233
11.185,2.0,1.0,1.0,34.2,33.0,33.0,4.3,2.7,2.7925,-0.4014631426363437,-0.03351674600508443,0.878242519954575,-0.04391969421510415,-0.303593,-25.153711
11.185,2.0,1.0,1.0,34.2,33.0,33.0,4.3,2.7,2.795,-0.4162958912971393,-0.033485981968985105,0.8704667307817594,-0.045524438123531887,-0.310435,-24.956943
11.185,2.0,1.0,1.0,34.2,33.0,33.0,4.3,2.7,2.7975,-0.43111854886423984,-0.03342547532718573,0.8623406511972511,-0.047184203876322536,-0.317531,-24.757842
11.185,2.0,1.0,1.0,34.2,33.0,33.0,4.3,2.7,2.8,-0.4459230715577301,-0.03333294706031965,0.8538572890896757,-0.04890127067599415,-0.324896,-24.556318
11.185,2.0,1.0,1.0,34.2,33.0,33.0,4.3,2.7,2.8025,-0.4607009934696744,-0.03320593688236534,0.8450095741704008,-0.05067805217838249,-0.332546,-24.352275
11.185,2.0,1.0,1.0,34.2,33.0,33.0,4.3,2.7,2.805,-0.4754434041458155,-0.03304178480708537,0.8357903559759475,-0.05251710758972898,-0.340499,-24.145611
11.185,2.0,1.0,1.0,34.2,33.0,33.0,4.3,2.7,2.8075,-0.49014092403526066,-0.032837610329073404,0.826192401170496,-0.05442115384752088,-0.348774,-23.936218
11.185,2.0,1.0,1.0,34.2,33.0,33.0,4.3,2.7,2.81,-0.504783677467654,-0.0325902888534168,0.8162083900371302,-0.05639307899206034,-0.357391,-23.72398
11.185,2.0,1.0,1.0,34.2,33.0,33.0,4.3,2.7,2.8125,-0.51936126275408,-0.0322964249443396,0.805830912035917,-0.0584359568440604,-0.366374,-23.508775
11.185,2.0,1.0,1.0,34.2,33.0,33.0,4.3,2.7,2.815,-0.5338627189321787,-0.03195232188722185,0.7950524602964539,-0.06055306311154622,-0.375749,-23.290472
11.185,2.0,1.0,1.0,34.2,33.0,33.0,4.3,2.7,2.8175,-0.5482764885848928,-0.03155394696745683,0.7838654249027128,-0.06274789305647543,-0.385542,-23.068933
11.185,2.0,1.0,1.0,34.2,33.0,33.0,4.3,2.7,2.82,-0.5625903760526438,-0.031096891760451426,0.7722620848194933,-0.06502418085706825,-0.395784,-22.84401
11.185,2.0,1.0,1.0,34.2,33.0,33.0,4.3,2.7,2.8225,-0.5767915002266573,-0.030576326595671683,0.7602345983036565,-0.06738592080481652,-0.406509,-22.615545
11.185,2.0,1.0,1.0,34.2,33.0,33.0,4.3,2.7,2.825,-0.5908662409511642,-0.02998694819897897,0.7477749916409524,-0.06983739047405071,-0.417753,-22.383369
11.185,2.0,1.0,1.0,34.2,33.0,33.0,4.3,2.7,2.8275,-0.6048001778683317,-0.02932291932537368,0.7348751460527628,-0.07238317599472029,-0.429558,-22.147301
