1,w,sub_t,h,l1,l2,l3,g1,g2,Freq,S11_re,S21_re,S11_img,S21_img,S11_dB,S21_dB
11.185,2.0,1.0,1.0,34.6,34.1,34.1,2.3,2.0,2.5,0.67252629211992,-0.0238159913731964,0.726207545340143,0.0125180277804673,-0.089206,-31.403199
11.185,2.0,1.0,1.0,34.6,34.1,34.1,2.3,2.0,2.5025,0.6660973187809154,-0.024289054620040062,0.7319300657214755,0.01248364566943292,-0.090367,-31.273779
11.185,2.0,1.0,1.0,34.6,34.1,34.1,2.3,2.0,2.505,0.6595790644235242,-0.024771256356036688,0.7376282647561434,0.012443919711155174,-0.091552,-31.143752
11.185,2.0,1.0,1.0,34.6,34.1,34.1,2.3,2.0,2.5075,0.6529705590081744,-0.02526278541619544,0.7433010951837752,0.012398622968645485,-0.092763,-31.013109
11.185,2.0,1.0,1.0,34.6,34.1,34.1,2.3,2.0,2.51,0.6462708217310128,-0.02576383487494891,0.7489474777284085,0.01234751923487054,-0.094,-30.88184
11.185,2.0,1.0,1.0,34.6,34.1,34.1,2.3,2.0,2.5125,0.6394788610690352,-0.026274602138010916,0.7545663000677574,0.012290362615679456,-0.095264,-30.749935
11.185,2.0,1.0,1.0,34.6,34.1,34.1,2.3,2.0,2.515,0.6325936748372655,-0.02679528903509004,0.760156415766365,0.012226897091552391,-0.096556,-30.617383
11.185,2.0,1.0,1.0,34.6,34.1,34.1,2.3,2.0,2.5175,0.6256142502588059,-0.027326101913325972,0.7657166431711582,0.012156856056954202,-0.097876,-30.484172
11.185,2.0,1.0,1.0,34.6,34.1,34.1,2.3,2.0,2.52,0.6185395640485828,-0.027867251731297865,0.7712457642678665,0.012079961835996397,-0.099227,-30.350293
11.185,2.0,1.0,1.0,34.6,34.1,34.1,2.3,2.0,2.5225,0.6113685825117099,-0.028418954153430792,0.7767425234966551,0.01199592517302639,-0.100608,-30.215733
11.185,2.0,1.0,1.0,34.6,34.1,34.1,2.3,2.0,2.525,0.6041002616573967,-0.02898142964460555,0.7822056265252755,0.01190444469667182,-0.10202,-30.080482
11.185,2.0,1.0,1.0,34.6,34.1,34.1,2.3,2.0,2.5275,0.5967335473294156,-0.029554903564749185,0.7876337389779177,0.011805206355769086,-0.103465,-29.944526
11.185,2.0,1.0,1.0,34.6,34.1,34.1,2.3,2.0,2.53,0.5892673753542178,-0.03013960626315404,0.793025485117852,0.011697882825501285,-0.104944,-29.807855
11.185,2.0,1.0,1.0,34.6,34.1,34.1,2.3,2.0,2.5325,0.5817006717078064,-0.030735773172242964,0.7983794464818568,0.011582132881956255,-0.106457,-29.670456
11.185,2.0,1.0,1.0,34.6,34.1,34.1,2.3,2.0,2.535,0.5740323527025973,-0.03134364490046086,0.803694160464307,0.011457600743194227,-0.108006,-29.532315
11.185,2.0,1.0,1.0,34.6,34.1,34.1,2.3,2.0,2.5375,0.566261325195545,-0.031963467323932654,0.8089681188486716,0.011323915374783609,-0.109592,-29.393421
11.185,2.0,1.0,1.0,34.6,34.1,34.1,2.3,2.0,2.54,0.5583864868189025,-0.032595491676484914,0.8141997662840537,0.011180689757621749,-0.111216,-29.253759
11.185,2.0,1.0,1.0,34.6,34.1,34.1,2.3,2.0,2.5425,0.5504067262350636,-0.03323997463757822,0.8193874987042552,0.011027520115705281,-0.112879,-29.113317
11.185,2.0,1.0,1.0,34.6,34.1,34.1,2.3,2.0,2.545,0.5423209234170479,-0.03389717841764248,0.8245296616867049,0.010863985101350646,-0.114584,-28.97208
11.185,2.0,1.0,1.0,34.6,34.1,34.1,2.3,2.0,2.5475,0.5341279499562774,-0.03456737084024601,0.8296245487484172,0.01068964493518842,-0.11633,-28.830034
11.185,2.0,1.0,1.0,34.6,34.1,34.1,2.3,2.0,2.55,0.5258266693993967,-0.03525082542046403,0.8346703995759999,0.010504040498062514,-0.11812,-28.687165
11.185,2.0,1.0,1.0,34.6,34.1,34.1,2.3,2.0,2.5525,0.5174159376160448,-0.03594782143873174,0.8396653981864999,0.010306692371760504,-0.119955,-28.543457
11.185,2.0,1.0,1.0,34.6,34.1,34.1,2.3,2.0,2.555,0.5088946031995624,-0.036658644009388806,0.8446076710157212,0.010097099825276038,-0.121837,-28.398895
11.185,2.0,1.0,1.0,34.6,34.1,34.1,2.3,2.0,2.5575,0.5002615079027977,-0.03738358414302407,0.8494952849303983,0.00987473974306345,-0.123767,-28.253464
11.185,2.0,1.0,1.0,34.6,34.1,34.1,2.3,2.0,2.56,0.4915154871113194,-0.03812293880162678,0.8543262451603792,0.009639065491483018,-0.125747,-28.107147
11.185,2.0,1.0,1.0,34.6,34.1,34.1,2.3,2.0,2.5625,0.4826553703564993,-0.03887701094543347,0.859098493146721,0.009389505719351899,-0.127779,-27.959927
11.185,2.0,1.0,1.0,34.6,34.1,34.1,2.3,2.0,2.565,0.47367998187110555,-0.03964610957023072,0.8638099043013272,0.009125463088207912,-0.129864,-27.811789
11.185,2.0,1.0,1.0,34.6,34.1,34.1,2.3,2.0,2.5675,0.46458814119027414,-0.04043054973372676,0.8684582856734331,0.008846312927562092,-0.132005,-27.662714
11.185,2.0,1.0,1.0,34.6,34.1,34.1,2.3,2.0,2.57,0.4553786638008935,-0.04123065256944522,0.8730413735179543,0.008551401810052503,-0.134204,-27.512684
11.185,2.0,1.0,1.0,34.6,34.1,34.1,2.3,2.0,2.5725,0.44605036184270996,-0.04204674528641173,0.8775568307603226,0.008240046041021052,-0.136462,-27.361682
11.185,2.0,1.0,1.0,34.6,34.1,34.1,2.3,2.0,2.575,0.4366020448647002,-0.04287916115270073,0.8820022443520784,0.007911530056608183,-0.138783,-27.209688
11.185,2.0,1.0,1.0,34.6,34.1,34.1,2.3,2.0,2.5775,0.42703252064054553,-0.0437282394606853,0.886375122511042,0.007565104723997044,-0.141167,-27.056683
11.185,2.0,1.0,1.0,34.6,34.1,34.1,2.3,2.0,2.58,0.41734059604735585,-0.04459432547157479,0.8906728918394483,0.007199985536935264,-0.143619,-26.902648
11.185,2.0,1.0,1.0,34.6,34.1,34.1,2.3,2.0,2.5825,0.40752507801212046,-0.04547777033654572,0.8948928943129264,0.006815350699112612,-0.14614,-26.74756
11.185,2.0,1.0,1.0,34.6,34.1,34.1,2.3,2.0,2.585,0.3975847745307589,-0.04637893099144569,0.8990323841326507,0.00641033908737695,-0.148732,-26.591401
11.185,2.0,1.0,1.0,34.6,34.1,34.1,2.3,2.0,2.5875,0.387518495765041,-0.04729817002169679,0.9030885244324154,0.005984048086117943,-0.1514,-26.434148
11.185,2.0,1.0,1.0,34.6,34.1,34.1,2.3,2.0,2.59,0.37732505522313925,-0.048235855493618446,0.907058383831715,0.005535531283439513,-0.154146,-26.275778
11.185,2.0,1.0,1.0,34.6,34.1,34.1,2.3,2.0,2.5925,0.3670032710300332,-0.049192360747938896,0.9109389328252173,0.0050637960189647705,-0.156973,-26.116269
11.185,2.0,1.0,1.0,34.6,34.1,34.1,2.3,2.0,2.595,0.3565519672946433,-0.05016806415075291,0.9147270399982316,0.004567800772273931,-0.159884,-25.955598
11.185,2.0,1.0,1.0,34.6,34.1,34.1,2.3,2.0,2.5975,0.3459699755810998,-0.05116334879661204,0.9184194680569275,0.004046452380047028,-0.162882,-25.79374
11.185,2.0,1.0,1.0,34.6,34.1,34.1,2.3,2.0,2.6,0.33525613649234626,-0.0521786021577842,0.9220128696611284,0.003498603068975847,-0.165973,-25.63067
11.185,2.0,1.0,1.0,34.6,34.1,34.1,2.3,2.0,2.6025,0.3244093013750272,-0.05321421567298964,0.9255037830464637,0.002923047290401329,-0.169158,-25.466363
11.185,2.0,1.0,1.0,34.6,34.1,34.1,2.3,2.0,2.605,0.3134283341554882,-0.054270584268099074,0.9288886274215754,0.0023185183414223967,-0.172443,-25.300791
11.185,2.0,1.0,1.0,34.6,34.1,34.1,2.3,2.0,2.6075,0.3023121133177327,-0.055348105800343515,0.9321636981248005,0.0016836847558960972,-0.175832,-25.133928
11.185,2.0,1.0,1.0,34.6,34.1,34.1,2.3,2.0,2.61,0.2910595340352685,-0.05644718041653476,0.9353251615234272,0.0010171464472957708,-0.179329,-24.965745
11.185,2.0,1.0,1.0,34.6,34.1,34.1,2.3,2.0,2.6125,0.27966951047004185,-0.057568209814600875,0.9383690496371113,0.0003174305838001055,-0.182939,-24.796213
11.185,2.0,1.0,1.0,34.6,34.1,34.1,2.3,2.0,2.615,0.26814097825304356,-0.05871159639638683,0.941291254465422,-0.00041701282576395333,-0.186668,-24.625303
11.185,2.0,1.0,1.0,34.6,34.1,34.1,2.3,2.0,2.6175,0.25647289716279525,-0.05987774229813471,0.9440875219976477,-0.0011878156584177002,-0.190519,-24.452983
11.185,2.0,1.0,1.0,34.6,34.1,34.1,2.3,2.0,2.62,0.24466425401969108,-0.06106704828331386,0.9467534458810409,-0.0019966967413713155,-0.1945,-24.279221
11.185,2.0,1.0,1.0,34.6,34.1,34.1,2.3,2.0,2.6225,0.23271406581619933,-0.06227991248048613,0.9492844607214658,-0.002845467281928291,-0.198617,-24.103984
11.185,2.0,1.0,1.0,34.6,34.1,34.1,2.3,2.0,2.625,0.220621383105273,-0.0635167289466312,0.951675834988,-0.00373603669321752,-0.202875,-23.927238
11.185,2.0,1.0,1.0,34.6,34.1,34.1,2.3,2.0,2.6275,0.20838529367186814,-0.06477788603378296,0.953922663490399,-0.0046704188488212615,-0.207281,-23.748947
11.185,2.0,1.0,1.0,34.6,34.1,34.1,2.3,2.0,2.63,0.19600492651551418,-0.06606376453388754,0.95601985939536,-0.0056507388024426225,-0.211843,-23.569076
11.185,2.0,1.0,1.0,34.6,34.1,34.1,2.3,2.0,2.6325,0.1834794561752184,-0.06737473557343415,0.957962145744318,-0.0066792400121483035,-0.216569,-23.387585
11.185,2.0,1.0,1.0,34.6,34.1,34.1,2.3,2.0,2.635,0.17080810743188288,-0.06871115822557207,0.9597440464318986,-0.007758292112451558,-0.221466,-23.204436
11.185,2.0,1.0,1.0,34.6,34.1,34.1,2.3,2.0,2.6375,0.15799016042782904,-0.07007337680302134,0.9613598766002251,-0.008890399281605028,-0.226543,-23.019589
11.185,2.0,1.0,1.0,34.6,34.1,34.1,2.3,2.0,2.64,0.1450249562480607,-0.0714617177900458,0.9628037323999193,-0.010078209255996538,-0.23181,-22.833001
11.185,2.0,1.0,1.0,34.6,34.1,34.1,2.3,2.0,2.6425,0.1319119030137297,-0.07287648636595796,0.9640694800638139,-0.011324523048511859,-0.237277,-22.644628
11.185,2.0,1.0,1.0,34.6,34.1,34.1,2.3,2.0,2.645,0.11865048254490577,-0.07431796246596799,0.965150744234108,-0.012632305433208032,-0.242953,-22.454426
11.185,2.0,1.0,1.0,34.6,34.1,34.1,2.3,2.0,2.6475,0.10524025765740744,-0.07578639631751628,0.9660408954778344,-0.014004696264662636,-0.248852,-22.262348
11.185,2.0,1.0,1.0,34.6,34.1,34.1,2.3,2.0,2.65,0.091680880167264,-0.0772820033813999,0.9667330369190746,-0.015445022706995881,-0.254984,-22.068345
11.185,2.0,1.0,1.0,34.6,34.1,34.1,2.3,2.0,2.6525,0.07797209968658064,-0.07880495861678136,0.9672199899092285,-0.01695681245483446,-0.261362,-21.872367
11.185,2.0,1.0,1.0,34.6,34.1,34.1,2.3,2.0,2.655,0.06411377330627137,-0.08035538997739212,0.9674942786488638,-0.01854380803649445,-0.268002,-21.674361
11.185,2.0,1.0,1.0,34.6,34.1,34.1,2.3,2.0,2.6575,0.05010587627476125,-0.08193337103257761,0.9675481136660439,-0.020209982298420578,-0.274917,-21.474273
11.185,2.0,1.0,1.0,34.6,34.1,34.1,2.3,2.0,2.66,0.03594851379748456,-0.08353891259100611,0.9673733740466329,-0.02195955517952844,-0.282124,-21.272046
11.185,2.0,1.0,1.0,34.6,34.1,34.1,2.3,2.0,2.6625,0.02164193410030865,-0.08517195318648972,0.9669615883017239,-0.023797011894589784,-0.289641,-21.067622
11.185,2.0,1.0,1.0,34.6,34.1,34.1,2.3,2.0,2.665,0.007186542921222375,-0.08683234826400955,0.9663039137460743,-0.025727122657253815,-0.297485,-20.860939
11.185,2.0,1.0,1.0,34.6,34.1,34.1,2.3,2.0,2.6675,-0.007417080380587503,-0.0885198578791585,0.9653911142491198,-0.027754964085732525,-0.305678,-20.651934
11.185,2.0,1.0,1.0,34.6,34.1,34.1,2.3,2.0,2.67,-0.022168164880345294,-0.09023413269522844,0.9642135362068073,-0.029885942447663967,-0.314241,-20.440541
11.185,2.0,1.0,1.0,34.6,34.1,34.1,2.3,2.0,2.6725,-0.037065728056367195,-0.09197469802829823,0.9627610825680684,-0.03212581891519026,-0.323197,-20.226691
11.185,2.0,1.0,1.0,34.6,34.1,34.1,2.3,2.0,2.675,-0.052108553380771784,-0.09374093565108269,0.9610231847342934,-0.03448073701684894,-0.332573,-20.010312
11.185,2.0,1.0,1.0,34.6,34.1,34.1,2.3,2.0,2.6775,-0.06729516519507679,-0.09553206301991954,0.9589887721336625,-0.036957252489426946,-0.342396,-19.791329
11.185,2.0,1.0,1.0,34.6,34.1,34.1,2.3,2.0,2.68,-0.0826238004793853,-0.0973471095348689,0.9566462392547925,-0.03956236575033917,-0.352697,-19.569664
11.185,2.0,1.0,1.0,34.6,34.1,34.1,2.3,2.0,2.6825,-0.09809237706020688,-0.09918488937898062,0.953983409906069,-0.04230355722917815,-0.363508,-19.345236
11.185,2.0,1.0,1.0,34.6,34.1,34.1,2.3,2.0,2.685,-0.11369845772719803,-0.10104397040760614,0.9509874984484289,-0.04518882581553533,-0.374864,-19.117961
11.185,2.0,1.0,1.0,34.6,34.1,34.1,2.3,2.0,2.6875,-0.12943920964079553,-0.10292263847003127,0.9476450677309062,-0.04822673069853209,-0.386806,-18.887749
11.185,2.0,1.0,1.0,34.6,34.1,34.1,2.3,2.0,2.69,-0.1453113583086594,-0.10481885644119261,0.9439419834403723,-0.05142643689105719,-0.399376,-18.654509
11.185,2.0,1.0,1.0,34.6,34.1,34.1,2.3,2.0,2.6925,-0.1613111352858204,-0.10673021711774985,0.9398633645607294,-0.05479776474752461,-0.41262,-18.418145
11.185,2.0,1.0,1.0,34.6,34.1,34.1,2.3,2.0,2.695,-0.1774342186077714,-0.10865388898668472,0.9353935296235634,-0.05835124379665785,-0.42659,-18.178555
11.185,2.0,1.0,1.0,34.6,34.1,34.1,2.3,2.0,2.6975,-0.19367566479332604,-0.11058655370155589,0.9305159384237852,-0.062098171218564306,-0.441343,-17.935636
11.185,2.0,1.0,1.0,34.6,34.1,34.1,2.3,2.0,2.7,-0.21002983104932754,-0.1125243338963006,0.9252131288726712,-0.0660506752955392,-0.456939,-17.689277
11.185,2.0,1.0,1.0,34.6,34.1,34.1,2.3,2.0,2.7025,-0.22649028606636515,-0.11446270972285556,0.9194666486702914,-0.07022178415522208,-0.473447,-17.439366
11.185,2.0,1.0,1.0,34.6,34.1,34.1,2.3,2.0,2.705,-0.24304970750578087,-0.1163964222093839,0.9132569815043448,-0.0746255000981047,-0.490943,-17.185782
11.185,2.0,1.0,1.0,34.6,34.1,34.1,2.3,2.0,2.7075,-0.25969976393470884,-0.1183193611916893,0.9065634675292064,-0.07927687975261195,-0.509511,-16.928401
11.185,2.0,1.0,1.0,34.6,34.1,34.1,2.3,2.0,2.71,-0.2764309785570641,-0.12022443516091581,0.8993642179559899,-0.0841921202213825,-0.529242,-16.667094
11.185,2.0,1.0,1.0,34.6,34.1,34.1,2.3,2.0,2.7125,-0.29323257160175686,-0.12210341988341608,0.8916360237031412,-0.08938865126043322,-0.55024,-16.401726
11.185,2.0,1.0,1.0,34.6,34.1,34.1,2.3,2.0,2.715,-0.310092277650228,-0.12394678206901251,0.8833542582328446,-0.0948852333530182,-0.57262,-16.132155
11.185,2.0,1.0,1.0,34.6,34.1,34.1,2.3,2.0,2.7175,-0.326996133496466,-0.12574347367470123,0.8744927749518783,-0.10070206128146303,-0.596508,-15.858237
11.185,2.0,1.0,1.0,34.6,34.1,34.1,2.3,2.0,2.72,-0.34392823131408423,-0.1274806916123757,0.8650237999140784,-0.10686087243522137,-0.62205,-15.579819
11.185,2.0,1.0,1.0,34.6,34.1,34.1,2.3,2.0,2.7225,-0.36087043093424104,-0.12914359665898095,0.8549178210619368,-0.11338505858477355,-0.649404,-15.296742
11.185,2.0,1.0,1.0,34.6,34.1,34.1,2.3,2.0,2.725,-0.3778020238897962,-0.13071498422075042,0.844143475936427,-0.1202997791491438,-0.678751,-15.008844
11.185,2.0,1.0,1.0,34.6,34.1,34.1,2.3,2.0,2.7275,-0.3946993405283226,-0.13217489825316517,0.8326674407320621,-0.12763207302378274,-0.710296,-14.715956
11.185,2.0,1.0,1.0,34.6,34.1,34.1,2.3,2.0,2.73,-0.41153528991128363,-0.1335001780579347,0.8204543248662225,-0.13541096472725164,-0.744267,-14.417905
11.185,2.0,1.0,1.0,34.6,34.1,34.1,2.3,2.0,2.7325,-0.4282788203735634,-0.13466392584286677,0.8074665769835141,-0.14366755885279772,-0.780925,-14.114511
11.185,2.0,1.0,1.0,34.6,34.1,34.1,2.3,2.0,2.735,-0.4448942864969315,-0.13563488082206834,0.7936644106817835,-0.15243511441936536,-0.820567,-13.805593
11.185,2.0,1.0,1.0,34.6,34.1,34.1,2.3,2.0,2.7375,-0.4613407058479524,-0.13637668324920793,0.7790057614298938,-0.16174908750104713,-0.863529,-13.490967
11.185,2.0,1.0,1.0,34.6,34.1,34.1,2.3,2.0,2.74,-0.47757088616585264,-0.13684700913928524,0.7634462904171059,-0.17164712620457215,-0.910197,-13.170445
11.185,2.0,1.0,1.0,34.6,34.1,34.1,2.3,2.0,2.7425,-0.49353040082570654,-0.13699655361504315,0.7469394567813908,-0.18216899630824016,-0.961015,-12.843844
11.185,2.0,1.0,1.0,34.6,34.1,34.1,2.3,2.0,2.745,-0.5091563874887002,-0.13676783796089406,0.7294366872666117,-0.19335640821425443,-1.016489,-12.51098
11.185,2.0,1.0,1.0,34.6,34.1,34.1,2.3,2.0,2.7475,-0.5243761421492527,-0.136093812853045,0.7108876824438777,-0.2052527057112549,-1.077208,-12.171678
11.185,2.0,1.0,1.0,34.6,34.1,34.1,2.3,2.0,2.75,-0.539105478755774,-0.134896228328965,0.691240911945277,-0.217902363650965,-1.143851,-11.825772
11.185,2.0,1.0,1.0,34.6,34.1,34.1,2.3,2.0,2.7525,-0.5532468239748216,-0.13308374063582737,0.6704443686211375,-0.23135022409277875,-1.217209,-11.473114
11.185,2.0,1.0,1.0,34.6,34.1,34.1,2.3,2.0,2.755,-0.566687018699317,-0.13054972839078957,0.6484466742515536,-0.24564037766424945,-1.298202,-11.113577
11.185,2.0,1.0,1.0,34.6,34.1,34.1,2.3,2.0,2.7575,-0.5792948044631031,-0.12716979741938156,0.6251986586789666,-0.2608145675805081,-1.387908,-10.747065
11.185,2.0,1.0,1.0,34.6,34.1,34.1,2.3,2.0,2.76,-0.5909179869084009,-0.12279896814368647,0.6006555712901002,-0.2769099566836657,-1.487593,-10.373527
11.185,2.0,1.0,1.0,34.6,34.1,34.1,2.3,2.0,2.7625,-0.6013802941846411,-0.11726856584356486,0.5747801297772521,-0.2939560519447851,-1.598748,-9.992967
11.185,2.0,1.0,1.0,34.6,34.1,34.1,2.3,2.0,2.765,-0.6104779919553677,-0.11038287888681528,0.547546666483408,-0.31197052577789103,-1.723137,-9.605463
11.185,2.0,1.0,1.0,34.6,34.1,34.1,2.3,2.0,2.7675,-0.6179763875343528,-0.10191572215049131,0.5189466962254046,-0.33095361055976785,-1.862853,-9.211189
11.185,2.0,1.0,1.0,34.6,34.1,34.1,2.3,2.0,2.77,-0.6236064658704377,-0.09160715467004998,0.48899629696662483,-0.3508806765036027,-2.020387,-8.810441
11.185,2.0,1.0,1.0,34.6,34.1,34.1,2.3,2.0,2.7725,-0.627062065679242,-0.07916076803368294,0.4577457559626334,-0.37169254398242374,-2.198714,-8.403673
11.185,2.0,1.0,1.0,34.6,34.1,34.1,2.3,2.0,2.775,-0.6279982442290917,-0.0642422042212851,0.42529196905287614,-0.3932830500468091,-2.401396,-7.991533
11.185,2.0,1.0,1.0,34.6,34.1,34.1,2.3,2.0,2.7775,-0.6260318140398371,-0.04647989784061667,0.3917940538686373,-0.4154834216786461,-2.632702,-7.574912
11.185,2.0,1.0,1.0,34.6,34.1,34.1,2.3,2.0,2.78,-0.6207454779097306,-0.025469480776824708,0.35749248967731817,-0.43804316525441084,-2.897761,-7.155004
11.185,2.0,1.0,1.0,34.6,34.1,34.1,2.3,2.0,2.7825,-0.6116975339540728,-0.0007838287917919623,0.3227317366876036,-0.4606075540779397,-3.202727,-6.733366
11.185,2.0,1.0,1.0,34.6,34.1,34.1,2.3,2.0,2.785,-0.5984397175109722,0.028008686009728296,0.28798558952057873,-0.4826925098843213,-3.554966,-6.311991
11.185,2.0,1.0,1.0,34.6,34.1,34.1,2.3,2.0,2.7875,-0.5805462526212035,0.06131468980333966,0.2538833305737612,-0.5036588803283958,-3.963245,-5.893379
11.185,2.0,1.0,1.0,34.6,34.1,34.1,2.3,2.0,2.79,-0.5576573212448669,0.09947190667497094,0.22123293123298562,-0.5226899442942515,-4.437871,-5.48061
11.185,2.0,1.0,1.0,34.6,34.1,34.1,2.3,2.0,2.7925,-0.5295394490121921,0.14268849271805562,0.191035077873823,-0.5387784419077808,-4.99069,-5.077395
11.185,2.0,1.0,1.0,34.6,34.1,34.1,2.3,2.0,2.795,-0.49616308492721417,0.19096553581081402,0.16447894573495256,-0.5507322347838511,-5.634698,-4.688101
11.185,2.0,1.0,1.0,34.6,34.1,34.1,2.3,2.0,2.7975,-0.4577932065274814,0.244007175546042,0.142908227151833,-0.5572100076468774,-6.382771,-4.317719
11.185,2.0,1.0,1.0,34.6,34.1,34.1,2.3,2.0,2.8,-0.4150817737938115,0.3011298303305558,0.12774553278453724,-0.5567986153782543,-7.244311,-3.971765
11.185,2.0,1.0,1.0,34.6,34.1,34.1,2.3,2.0,2.8025,-0.3691420746030823,0.36119069071618554,0.12036719980080203,-0.5481395047731984,-8.217308,-3.656078
11.185,2.0,1.0,1.0,34.6,34.1,34.1,2.3,2.0,2.805,-0.3215772314517553,0.4225630894276767,0.12193089426088816,-0.5301010580707453,-9.270921,-3.376515
11.185,2.0,1.0,1.0,34.6,34.1,34.1,2.3,2.0,2.8075,-0.27443336275741137,0.4831875943065236,0.1331753607831067,-0.5019767251401743,-10.312867,-3.138547
11.185,2.0,1.0,1.0,34.6,34.1,34.1,2.3,2.0,2.81,-0.2300577333426292,0.5407172356450141,0.15423121611522606,-0.46366967347076143,-11.151263,-2.946798
11.185,2.0,1.0,1.0,34.6,34.1,34.1,2.3,2.0,2.8125,-0.19086602648714468,0.59275119769833,0.18449482583464835,-0.41581241985881046,-11.520069,-2.804583
11.185,2.0,1.0,1.0,34.6,34.1,34.1,2.3,2.0,2.815,-0.15905518747191724,0.6371194004396822,0.2226133821182224,-0.3597748861820431,-11.257776,-2.713548
11.185,2.0,1.0,1.0,34.6,34.1,34.1,2.3,2.0,2.8175,-0.1363252169444881,0.6721546484124749,0.2666033310669481,-0.2975409178847557,-10.473921,-2.67347
11.185,2.0,1.0,1.0,34.6,34.1,34.1,2.3,2.0,2.82,-0.12367907561215666,0.6968846933086694,0.31408359780031536,-0.23147365187947994,-9.433047,-2.682273
11.185,2.0,1.0,1.0,34.6,34.1,34.1,2.3,2.0,2.8225,-0.12134804356442709,0.7110992670797114,0.36256790291294033,-0.16402596046598505,-8.351096,-2.73626
11.185,2.0,1.0,1.0,34.6,34.1,34.1,2.3,2.0,2.825,-0.12884968505224564,0.7152871050399446,0.40974512648060746,-0.09746595135249038,-7.340194,-2.830495
11.185,2.0,1.0,1.0,34.6,34.1,34.1,2.3,2.0,2.8275,-0.14514656705781048,0.7104758024827184,0.4536890466939304,-0.03367415936104866,-6.441631,-2.959269
11.185,2.0,1.0,1.0,34.6,34.1,34.1,2.3,2.0,2.83,-0.16885285243730863,0.6980269905385605,0.4929693767100208,0.025961483230814705,-5.66182,-3.116552
