1,w,sub_t,h,l1,l2,l3,g1,g2,Freq,S11_re,S21_re,S11_img,S21_img,S11_dB,S21_dB
11.185,2.0,1.0,1.0,33.0,34.0,34.0,1.5,3.0,2.5,0.8920932333523,-0.00907778348110171,0.436725067892734,0.010647412091106,-0.058769,-37.08246
11.185,2.0,1.0,1.0,33.0,34.0,34.0,1.5,3.0,2.5025,0.8892404894844218,-0.0092902518090797,0.44234741038525427,0.010739523951861391,-0.059382,-36.954101
11.185,2.0,1.0,1.0,33.0,34.0,34.0,1.5,3.0,2.505,0.8863388501692809,-0.009507307230960563,0.44797470344510254,0.010831840690362412,-0.060007,-36.825266
11.185,2.0,1.0,1.0,33.0,34.0,34.0,1.5,3.0,2.5075,0.8833877596435222,-0.009729064993264815,0.4536068253136627,0.010924341326859655,-0.060645,-36.695945
11.185,2.0,1.0,1.0,33.0,34.0,34.0,1.5,3.0,2.51,0.8803866505101962,-0.009955643973084334,0.45924364943396034,0.011017003572539605,-0.061295,-36.566126
11.185,2.0,1.0,1.0,33.0,34.0,34.0,1.5,3.0,2.5125,0.8773349434321552,-0.010187166815036633,0.46488504424268146,0.011109803756032093,-0.061959,-36.4358
11.185,2.0,1.0,1.0,33.0,34.0,34.0,1.5,3.0,2.515,0.8742320468153457,-0.010423760074217841,0.47053087295297563,0.011202716745598234,-0.062636,-36.304954
11.185,2.0,1.0,1.0,33.0,34.0,34.0,1.5,3.0,2.5175,0.8710773564815865,-0.010665554365452943,0.4761809933275613,0.011295715866723394,-0.063328,-36.173577
11.185,2.0,1.0,1.0,33.0,34.0,34.0,1.5,3.0,2.52,0.8678702553303868,-0.010912684519160418,0.4818352574416489,0.011388772814819922,-0.064033,-36.041656
11.185,2.0,1.0,1.0,33.0,34.0,34.0,1.5,3.0,2.5225,0.8646101129893652,-0.01116528974416312,0.48749351143513603,0.01148185756272317,-0.064753,-35.909181
11.185,2.0,1.0,1.0,33.0,34.0,34.0,1.5,3.0,2.525,0.861296285452772,-0.011423513797799528,0.4931555952535308,0.011574938262641728,-0.065489,-35.77614
11.185,2.0,1.0,1.0,33.0,34.0,34.0,1.5,3.0,2.5275,0.8579281147076211,-0.01168750516370638,0.49882134237700276,0.011667981142200091,-0.06624,-35.642519
11.185,2.0,1.0,1.0,33.0,34.0,34.0,1.5,3.0,2.53,0.8545049283468996,-0.011957417237666468,0.5044905795369258,0.011760950394182788,-0.067007,-35.508306
11.185,2.0,1.0,1.0,33.0,34.0,34.0,1.5,3.0,2.5325,0.8510260391693018,-0.012233408521937791,0.5101631264192502,0.011853808059564498,-0.067791,-35.373489
11.185,2.0,1.0,1.0,33.0,34.0,34.0,1.5,3.0,2.535,0.847490744764897,-0.012515642828503456,0.5158387953539946,0.01194651390337772,-0.068592,-35.238055
11.185,2.0,1.0,1.0,33.0,34.0,34.0,1.5,3.0,2.5375,0.8438983270861236,-0.012804289491707642,0.5215173909900821,0.012039025282937207,-0.06941,-35.10199
11.185,2.0,1.0,1.0,33.0,34.0,34.0,1.5,3.0,2.54,0.8402480520034575,-0.013099523590769359,0.5271987099547443,0.012131297007905299,-0.070246,-34.965282
11.185,2.0,1.0,1.0,33.0,34.0,34.0,1.5,3.0,2.5425,0.8365391688450778,-0.01340152618269552,0.5328825404966137,0.01222328119164438,-0.071101,-34.827916
11.185,2.0,1.0,1.0,33.0,34.0,34.0,1.5,3.0,2.545,0.8327709099198073,-0.013710484546143717,0.5385686621116018,0.01231492709325922,-0.071976,-34.689878
11.185,2.0,1.0,1.0,33.0,34.0,34.0,1.5,3.0,2.5475,0.8289424900225851,-0.01402659243681863,0.5442568451505866,0.012406180949689606,-0.072869,-34.551155
11.185,2.0,1.0,1.0,33.0,34.0,34.0,1.5,3.0,2.55,0.8250531059216614,-0.01435005035502048,0.549946850407885,0.012496985797162704,-0.073784,-34.411732
11.185,2.0,1.0,1.0,33.0,34.0,34.0,1.5,3.0,2.5525,0.8211019358266916,-0.014681065825999345,0.5556384286893811,0.012587281281263591,-0.074719,-34.271594
11.185,2.0,1.0,1.0,33.0,34.0,34.0,1.5,3.0,2.555,0.817088138836839,-0.01501985369381028,0.5613313203591555,0.012677003454823978,-0.075676,-34.130726
11.185,2.0,1.0,1.0,33.0,34.0,34.0,1.5,3.0,2.5575,0.813010854367954,-0.015366636429403583,0.5670252548633428,0.012766084562768095,-0.076655,-33.989113
11.185,2.0,1.0,1.0,33.0,34.0,34.0,1.5,3.0,2.56,0.8088692015578547,-0.015721644453730064,0.5727199502298725,0.012854452812986942,-0.077658,-33.846739
11.185,2.0,1.0,1.0,33.0,34.0,34.0,1.5,3.0,2.5625,0.8046622786486702,-0.016085116476687932,0.5784151125426511,0.012942032132239243,-0.078684,-33.703589
11.185,2.0,1.0,1.0,33.0,34.0,34.0,1.5,3.0,2.565,0.8003891623451479,-0.01645729985278783,0.5841104353886536,0.013028741905997614,-0.079735,-33.559645
11.185,2.0,1.0,1.0,33.0,34.0,34.0,1.5,3.0,2.5675,0.7960489071477833,-0.016838450954465362,0.5898055992762621,0.013114496701072871,-0.080812,-33.414893
11.185,2.0,1.0,1.0,33.0,34.0,34.0,1.5,3.0,2.57,0.791640544659542,-0.01722883556402921,0.5955002710230969,0.013199205969755731,-0.081914,-33.269313
11.185,2.0,1.0,1.0,33.0,34.0,34.0,1.5,3.0,2.5725,0.7871630828648903,-0.017628729285290686,0.6011941031114351,0.013282773734110924,-0.083044,-33.12289
11.185,2.0,1.0,1.0,33.0,34.0,34.0,1.5,3.0,2.575,0.7826155053797761,-0.018038417975987233,0.6068867330091962,0.01336509824895088,-0.084202,-32.975605
11.185,2.0,1.0,1.0,33.0,34.0,34.0,1.5,3.0,2.5775,0.7779967706711172,-0.018458198202179966,0.6125777824542968,0.01344607164189172,-0.085389,-32.827441
11.185,2.0,1.0,1.0,33.0,34.0,34.0,1.5,3.0,2.58,0.7733058112442863,-0.018888377715877876,0.6182668567000492,0.013525579528763525,-0.086606,-32.678378
11.185,2.0,1.0,1.0,33.0,34.0,34.0,1.5,3.0,2.5825,0.7685415327969709,-0.019329275957221354,0.6239535437190655,0.013603500602502863,-0.087854,-32.528399
11.185,2.0,1.0,1.0,33.0,34.0,34.0,1.5,3.0,2.585,0.763702813337722,-0.019781224582637195,0.6296374133629753,0.013679706193496673,-0.089134,-32.377483
11.185,2.0,1.0,1.0,33.0,34.0,34.0,1.5,3.0,2.5875,0.7587885022673793,-0.0202445680204691,0.6353180164750245,0.013754059799175647,-0.090448,-32.225611
11.185,2.0,1.0,1.0,33.0,34.0,34.0,1.5,3.0,2.59,0.7537974194214814,-0.020719664055678013,0.6409948839524201,0.013826416580466244,-0.091796,-32.072762
11.185,2.0,1.0,1.0,33.0,34.0,34.0,1.5,3.0,2.5925,0.7487283540716311,-0.021206884445310718,0.6466675257550298,0.013896622822504699,-0.09318,-31.918917
11.185,2.0,1.0,1.0,33.0,34.0,34.0,1.5,3.0,2.595,0.7435800638837028,-0.021706615566536063,0.6523354298567742,0.013964515356790753,-0.094601,-31.764052
11.185,2.0,1.0,1.0,33.0,34.0,34.0,1.5,3.0,2.5975,0.7383512738306093,-0.02221925909916795,0.657998061135776,0.014029920941711814,-0.096061,-31.608148
11.185,2.0,1.0,1.0,33.0,34.0,34.0,1.5,3.0,2.6,0.733040675057254,-0.022745232744708486,0.6636548601989861,0.014092655598097217,-0.09756,-31.451182
11.185,2.0,1.0,1.0,33.0,34.0,34.0,1.5,3.0,2.6025,0.7276469236951298,-0.023284970984076243,0.6693052421366814,0.014152523896164506,-0.099101,-31.29313
11.185,2.0,1.0,1.0,33.0,34.0,34.0,1.5,3.0,2.605,0.7221686396238778,-0.023838925876319188,0.6749485952018347,0.014209318189893743,-0.100685,-31.13397
11.185,2.0,1.0,1.0,33.0,34.0,34.0,1.5,3.0,2.6075,0.7166044051769718,-0.024407567900756152,0.6805842794089568,0.014262817794506532,-0.102313,-30.973677
11.185,2.0,1.0,1.0,33.0,34.0,34.0,1.5,3.0,2.61,0.710952763788518,-0.024991386845143227,0.6862116250465276,0.014312788102332701,-0.103988,-30.812227
11.185,2.0,1.0,1.0,33.0,34.0,34.0,1.5,3.0,2.6125,0.7052122185779802,-0.02559089274262467,0.6918299310966768,0.0143589796319112,-0.105711,-30.649595
11.185,2.0,1.0,1.0,33.0,34.0,34.0,1.5,3.0,2.615,0.6993812308694551,-0.026206616860397876,0.6974384635551891,0.014401127004696299,-0.107485,-30.485754
11.185,2.0,1.0,1.0,33.0,34.0,34.0,1.5,3.0,2.6175,0.6934582186419359,-0.026839112743204826,0.7030364536443271,0.01443894784321089,-0.10931,-30.320679
11.185,2.0,1.0,1.0,33.0,34.0,34.0,1.5,3.0,2.62,0.6874415549067718,-0.027488957314952114,0.7086230959103095,0.014472141583906788,-0.11119,-30.154341
11.185,2.0,1.0,1.0,33.0,34.0,34.0,1.5,3.0,2.6225,0.6813295660083246,-0.02815675204196623,0.7141975461965452,0.014500388197351985,-0.113126,-29.986714
11.185,2.0,1.0,1.0,33.0,34.0,34.0,1.5,3.0,2.625,0.675120529843602,-0.0288431241615984,0.719758919482929,0.0145233468076518,-0.115121,-29.817767
11.185,2.0,1.0,1.0,33.0,34.0,34.0,1.5,3.0,2.6275,0.668812673996378,-0.029548727980121148,0.7253062875806435,0.01454065420222847,-0.117178,-29.647472
11.185,2.0,1.0,1.0,33.0,34.0,34.0,1.5,3.0,2.63,0.6624041737810823,-0.030274246244088004,0.7308386766709076,0.014551923222214967,-0.119298,-29.475799
11.185,2.0,1.0,1.0,33.0,34.0,34.0,1.5,3.0,2.6325,0.6558931501914688,-0.03102039158957166,0.7363550646750773,0.014556741022753767,-0.121485,-29.302715
11.185,2.0,1.0,1.0,33.0,34.0,34.0,1.5,3.0,2.635,0.6492776677487971,-0.031787908073949364,0.7418543784423036,0.014554667191428184,-0.123742,-29.128188
11.185,2.0,1.0,1.0,33.0,34.0,34.0,1.5,3.0,2.6375,0.6425557322439801,-0.03257757279516298,0.7473354907396407,0.014545231711866093,-0.126072,-28.952187
11.185,2.0,1.0,1.0,33.0,34.0,34.0,1.5,3.0,2.64,0.635725288367857,-0.03339019760365374,0.7527972170280706,0.01452793275824288,-0.128477,-28.774676
11.185,2.0,1.0,1.0,33.0,34.0,34.0,1.5,3.0,2.6425,0.6287842172234559,-0.03422663091244031,0.7582383120062895,0.014502234304946474,-0.130962,-28.59562
11.185,2.0,1.0,1.0,33.0,34.0,34.0,1.5,3.0,2.645,0.6217303337138104,-0.03508775961109187,0.7636574659023295,0.014467563534042292,-0.133531,-28.414984
11.185,2.0,1.0,1.0,33.0,34.0,34.0,1.5,3.0,2.6475,0.6145613837985863,-0.035974511089621644,0.7690533004911038,0.014423308021360078,-0.136186,-28.23273
11.185,2.0,1.0,1.0,33.0,34.0,34.0,1.5,3.0,2.65,0.6072750416124688,-0.03688785537860625,0.7744243648138008,0.014368812680008792,-0.138932,-28.04882
11.185,2.0,1.0,1.0,33.0,34.0,34.0,1.5,3.0,2.6525,0.5998689064379964,-0.03782880741209633,0.7797691305725571,0.014303376437865832,-0.141773,-27.863215
11.185,2.0,1.0,1.0,33.0,34.0,34.0,1.5,3.0,2.655,0.5923404995252042,-0.03879842942014436,0.7850859871711782,0.014226248623073708,-0.144715,-27.675873
11.185,2.0,1.0,1.0,33.0,34.0,34.0,1.5,3.0,2.6575,0.5846872607502198,-0.03979783345799932,0.7903732363695976,0.014136625028758378,-0.147761,-27.486753
11.185,2.0,1.0,1.0,33.0,34.0,34.0,1.5,3.0,2.66,0.5769065451047133,-0.0408281840792216,0.7956290865164056,0.014033643625033487,-0.150918,-27.295812
11.185,2.0,1.0,1.0,33.0,34.0,34.0,1.5,3.0,2.6625,0.5689956190079252,-0.041890701160121925,0.8008516463199914,0.01391637988282661,-0.15419,-27.103004
11.185,2.0,1.0,1.0,33.0,34.0,34.0,1.5,3.0,2.665,0.5609516564328664,-0.04298666288302968,0.8060389181146111,0.013783841670104467,-0.157583,-26.908283
11.185,2.0,1.0,1.0,33.0,34.0,34.0,1.5,3.0,2.6675,0.5527717348382578,-0.044117408885907296,0.8111887905729551,0.01363496367663316,-0.161105,-26.711602
11.185,2.0,1.0,1.0,33.0,34.0,34.0,1.5,3.0,2.67,0.5444528308978165,-0.04528434358575175,0.8162990308115018,0.013468601318417952,-0.164761,-26.512912
11.185,2.0,1.0,1.0,33.0,34.0,34.0,1.5,3.0,2.6725,0.5359918160186848,-0.04648893968300978,0.8213672758289626,0.013283524067356795,-0.168559,-26.312161
11.185,2.0,1.0,1.0,33.0,34.0,34.0,1.5,3.0,2.675,0.5273854516411727,-0.047732741853857966,0.8263910232114484,0.0130784081453206,-0.172506,-26.109298
11.185,2.0,1.0,1.0,33.0,34.0,34.0,1.5,3.0,2.6775,0.5186303843125152,-0.049017370636618936,0.8313676210304717,0.012851828514755572,-0.176611,-25.904266
11.185,2.0,1.0,1.0,33.0,34.0,34.0,1.5,3.0,2.68,0.509723140528196,-0.05034452651774324,0.8362942568514256,0.01260225008987183,-0.180882,-25.697011
11.185,2.0,1.0,1.0,33.0,34.0,34.0,1.5,3.0,2.6825,0.5006601213355278,-0.05171599422162085,0.8411679457606372,0.012328018083415474,-0.185329,-25.487473
11.185,2.0,1.0,1.0,33.0,34.0,34.0,1.5,3.0,2.685,0.4914375966957552,-0.053133647206917746,0.8459855173083477,0.012027347393770035,-0.189962,-25.275593
11.185,2.0,1.0,1.0,33.0,34.0,34.0,1.5,3.0,2.6875,0.48205169960298,-0.0545994523700647,0.85074360125281,0.0116983109255463,-0.194792,-25.061308
11.185,2.0,1.0,1.0,33.0,34.0,34.0,1.5,3.0,2.69,0.4724984199609738,-0.056115474953832976,0.855438611976965,0.011338826723687195,-0.19983,-24.844552
11.185,2.0,1.0,1.0,33.0,34.0,34.0,1.5,3.0,2.6925,0.46277359822231684,-0.057683883655478746,0.8600667314336286,0.010946643786238427,-0.205089,-24.62526
11.185,2.0,1.0,1.0,33.0,34.0,34.0,1.5,3.0,2.695,0.45287291879885183,-0.059306955924528545,0.8646238904575088,0.010519326404060532,-0.210583,-24.403362
11.185,2.0,1.0,1.0,33.0,34.0,34.0,1.5,3.0,2.6975,0.44279190325792817,-0.060987083434713825,0.8691057482624587,0.01005423685659588,-0.216325,-24.178784
11.185,2.0,1.0,1.0,33.0,34.0,34.0,1.5,3.0,2.7,0.4325259033261085,-0.06272677770754169,0.8735076699197136,0.00954851627103207,-0.222333,-23.951453
11.185,2.0,1.0,1.0,33.0,34.0,34.0,1.5,3.0,2.7025,0.4220700937307667,-0.06452867585621287,0.8778247015871923,0.008999063427452032,-0.228622,-23.721291
11.185,2.0,1.0,1.0,33.0,34.0,34.0,1.5,3.0,2.705,0.41141946492117565,-0.06639554640761604,0.8820515432307462,0.00840251126438653,-0.235212,-23.488218
11.185,2.0,1.0,1.0,33.0,34.0,34.0,1.5,3.0,2.7075,0.40056881572439884,-0.06833029514647468,0.8861825185450515,0.0077552008071164105,-0.242122,-23.252149
11.185,2.0,1.0,1.0,33.0,34.0,34.0,1.5,3.0,2.71,0.3895127460085459,-0.07033597090873434,0.8902115417440799,0.007053152204538789,-0.249375,-23.012997
11.185,2.0,1.0,1.0,33.0,34.0,34.0,1.5,3.0,2.7125,0.378245649447144,-0.07241577123021621,0.8941320808481078,0.00629203251877152,-0.256993,-22.770673
11.185,2.0,1.0,1.0,33.0,34.0,34.0,1.5,3.0,2.715,0.36676170650484685,-0.07457304773045009,0.8979371170453008,0.005467119864217515,-0.265003,-22.525083
11.185,2.0,1.0,1.0,33.0,34.0,34.0,1.5,3.0,2.7175,0.35505487779730877,-0.07681131107927862,0.9016190996501893,0.004573263438708326,-0.273432,-22.276128
11.185,2.0,1.0,1.0,33.0,34.0,34.0,1.5,3.0,2.72,0.3431188980185207,-0.07913423535381212,0.9051698961178999,0.0036048389276762695,-0.282312,-22.023709
11.185,2.0,1.0,1.0,33.0,34.0,34.0,1.5,3.0,2.7225,0.33094727067888674,-0.08154566154383351,0.9085807365008298,0.002555698692043122,-0.291675,-21.767719
11.185,2.0,1.0,1.0,33.0,34.0,34.0,1.5,3.0,2.725,0.318533263959203,-0.08404959990251636,0.9118421516522429,0.0014191160705042366,-0.301558,-21.508049
11.185,2.0,1.0,1.0,33.0,34.0,34.0,1.5,3.0,2.7275,0.30586990806220604,-0.08665023076359182,0.9149439043879797,0.00018772303587635464,-0.312002,-21.244585
11.185,2.0,1.0,1.0,33.0,34.0,34.0,1.5,3.0,2.73,0.2929499945380653,-0.08935190335235096,0.9178749127114405,-0.0011465596581882492,-0.323051,-20.977209
11.185,2.0,1.0,1.0,33.0,34.0,34.0,1.5,3.0,2.7325,0.279766078177382,-0.09215913200183774,0.9206231640870656,-0.002592600820981757,-0.334753,-20.705797
11.185,2.0,1.0,1.0,33.0,34.0,34.0,1.5,3.0,2.735,0.2663104822104542,-0.09507658904183608,0.9231756196119363,-0.004160146772305635,-0.347162,-20.430221
11.185,2.0,1.0,1.0,33.0,34.0,34.0,1.5,3.0,2.7375,0.25257530773141257,-0.0981090934501111,0.9255181067826079,-0.00585992015624383,-0.360337,-20.150349
11.185,2.0,1.0,1.0,33.0,34.0,34.0,1.5,3.0,2.74,0.23855244848894186,-0.10126159413440004,0.9276351993833796,-0.007703731050695955,-0.374345,-19.866041
11.185,2.0,1.0,1.0,33.0,34.0,34.0,1.5,3.0,2.7425,0.22423361246206397,-0.10453914643943328,0.9295100828320754,-0.009704601988305006,-0.389257,-19.577155
11.185,2.0,1.0,1.0,33.0,34.0,34.0,1.5,3.0,2.745,0.20961035198322084,-0.10794688013266739,0.9311244031095255,-0.011876908709824972,-0.405154,-19.28354
11.185,2.0,1.0,1.0,33.0,34.0,34.0,1.5,3.0,2.7475,0.19467410459800477,-0.11148995669912976,0.932458097170012,-0.014236538695108929,-0.422127,-18.985042
11.185,2.0,1.0,1.0,33.0,34.0,34.0,1.5,3.0,2.75,0.17941624738193,-0.115173513249347,0.933489202484072,-0.0168010697575914,-0.440275,-18.6815
11.185,2.0,1.0,1.0,33.0,34.0,34.0,1.5,3.0,2.7525,0.16382816809541229,-0.11900258968933321,0.9341936431068572,-0.019589971240826138,-0.459711,-18.372748
11.185,2.0,1.0,1.0,33.0,34.0,34.0,1.5,3.0,2.755,0.14790135738031993,-0.12298203498627606,0.93454498940292,-0.0226248306121653,-0.480561,-18.058615
11.185,2.0,1.0,1.0,33.0,34.0,34.0,1.5,3.0,2.7575,0.131627527224963,-0.12711638734852762,0.9345141883054213,-0.02592960849555442,-0.502965,-17.738921
11.185,2.0,1.0,1.0,33.0,34.0,34.0,1.5,3.0,2.76,0.11499876219835752,-0.13140972187489333,0.934069260765766,-0.0295309254013589,-0.527084,-17.413486
11.185,2.0,1.0,1.0,33.0,34.0,34.0,1.5,3.0,2.7625,0.0980077115392944,-0.13586545765599592,0.9331749628913506,-0.033458383563615426,-0.553096,-17.08212
11.185,2.0,1.0,1.0,33.0,34.0,34.0,1.5,3.0,2.765,0.08064783215548323,-0.1404861143560359,0.9317924072236247,-0.0377449273352699,-0.581204,-16.744632
11.185,2.0,1.0,1.0,33.0,34.0,34.0,1.5,3.0,2.7675,0.06291369503228757,-0.14527300587753553,0.9298786407485237,-0.04242724544789998,-0.61164,-16.400826
11.185,2.0,1.0,1.0,33.0,34.0,34.0,1.5,3.0,2.77,0.04480137057638072,-0.150225855708153,0.9273861766620887,-0.047546218009237244,-0.644664,-16.050504
11.185,2.0,1.0,1.0,33.0,34.0,34.0,1.5,3.0,2.7725,0.02630891215266882,-0.15534231484256533,0.9242624777882226,-0.05314741023823018,-0.680576,-15.693465
11.185,2.0,1.0,1.0,33.0,34.0,34.0,1.5,3.0,2.775,0.007436961655639332,-0.16061735862173884,0.9204493910807845,-0.05928161340709718,-0.719718,-15.329509
11.185,2.0,1.0,1.0,33.0,34.0,34.0,1.5,3.0,2.7775,-0.011810493455725133,-0.16604253328194715,0.9158825351478266,-0.06600543096586112,-0.762482,-14.958441
11.185,2.0,1.0,1.0,33.0,34.0,34.0,1.5,3.0,2.78,-0.03142517548095605,-0.17160501630098332,0.9104906466465243,-0.07338190393530275,-0.80932,-14.580068
11.185,2.0,1.0,1.0,33.0,34.0,34.0,1.5,3.0,2.7825,-0.051393339935695295,-0.17728644663509993,0.9041948973202166,-0.08148116376632371,-0.860751,-14.19421
11.185,2.0,1.0,1.0,33.0,34.0,34.0,1.5,3.0,2.785,-0.07169431351077969,-0.18306147158710026,0.896908202222087,-0.09038109214469525,-0.917379,-13.800697
11.185,2.0,1.0,1.0,33.0,34.0,34.0,1.5,3.0,2.7875,-0.09229868219299521,-0.18889594639974472,0.8885345524379347,-0.10016795453293854,-0.979902,-13.399384
11.185,2.0,1.0,1.0,33.0,34.0,34.0,1.5,3.0,2.79,-0.11316605353296791,-0.19474471105345628,0.8789684239212969,-0.11093695605698714,-1.049135,-12.990151
11.185,2.0,1.0,1.0,33.0,34.0,34.0,1.5,3.0,2.7925,-0.13424230518951605,-0.20054885694177904,0.8680943399149326,-0.12279264264962152,-1.126028,-12.572915
11.185,2.0,1.0,1.0,33.0,34.0,34.0,1.5,3.0,2.795,-0.1554562213996486,-0.20623238564463034,0.8557867004480114,-0.13584903457508726,-1.211695,-12.147645
11.185,2.0,1.0,1.0,33.0,34.0,34.0,1.5,3.0,2.7975,-0.17671541272017235,-0.21169815569569142,0.8419100417564335,-0.15022933040872785,-1.307443,-11.71437
11.185,2.0,1.0,1.0,33.0,34.0,34.0,1.5,3.0,2.8,-0.1979014170076035,-0.2168230157544249,0.8263199548364115,-0.16606495358611398,-1.414811,-11.273206
11.185,2.0,1.0,1.0,33.0,34.0,34.0,1.5,3.0,2.8025,-0.21886389882167656,-0.22145204156155981,0.8088649794356342,-0.18349362705339392,-1.535615,-10.824372
11.185,2.0,1.0,1.0,33.0,34.0,34.0,1.5,3.0,2.805,-0.2394139121560304,-0.22539184129472792,0.7893899004334456,-0.20265605152124377,-1.672003,-10.368218
11.185,2.0,1.0,1.0,33.0,34.0,34.0,1.5,3.0,2.8075,-0.2593162852790579,-0.2284029869886489,0.7677410077332503,-0.22369062934528966,-1.82652,-9.905261
11.185,2.0,1.0,1.0,33.0,34.0,34.0,1.5,3.0,2.81,-0.2782813513742455,-0.2301917932479142,0.7437740320698355,-0.24672552545416823,-2.002183,-9.436222
11.185,2.0,1.0,1.0,33.0,34.0,34.0,1.5,3.0,2.8125,-0.295956517192598,-0.230401930957465,0.717365618793094,-0.271867207561078,-2.202566,-8.962071
11.185,2.0,1.0,1.0,33.0,34.0,34.0,1.5,3.0,2.815,-0.31191857221969155,-0.22860677104391144,0.6884293096285157,-0.29918449987397944,-2.431904,-8.484082
11.185,2.0,1.0,1.0,33.0,34.0,34.0,1.5,3.0,2.8175,-0.32566822857928274,-0.22430393711071894,0.6569369948744945,-0.3286871908382865,-2.695197,-8.003887
11.185,2.0,1.0,1.0,33.0,34.0,34.0,1.5,3.0,2.82,-0.3366291612578336,-0.21691432030516133,0.6229465545126277,-0.3602984761867291,-2.998316,-7.523536
11.185,2.0,1.0,1.0,33.0,34.0,34.0,1.5,3.0,2.8225,-0.34415474578693556,-0.2057887322715911,0.5866357499574137,-0.3938211688914139,-3.348094,-7.045558
11.185,2.0,1.0,1.0,33.0,34.0,34.0,1.5,3.0,2.825,-0.3475466071115323,-0.1902262849168974,0.5483411391649292,-0.4288988857555102,-3.752368,-6.573005
11.185,2.0,1.0,1.0,33.0,34.0,34.0,1.5,3.0,2.8275,-0.34608964972841666,-0.16950914259105665,0.5085986625974255,-0.46497552955316956,-4.219907,-6.109481
11.185,2.0,1.0,1.0,33.0,34.0,34.0,1.5,3.0,2.83,-0.3391078359357966,-0.14295789819388915,0.46817953647142774,-0.5012593763382752,-4.760115,-5.659137
