1,w,sub_t,h,l1,l2,l3,g1,g2,Freq,S11_re,S21_re,S11_img,S21_img,S11_dB,S21_dB
11.185,2.0,1.0,1.0,33.6,33.0,33.0,3.8,2.1,2.5,0.837550474386597,-0.00719794920655329,0.53484814357467,0.00556679558477822,-0.054394,-40.819713
11.185,2.0,1.0,1.0,33.6,33.0,33.0,3.8,2.1,2.5025,0.8339100170126202,-0.007334780612579377,0.5404051572270948,0.00558338464667837,-0.054877,-40.707181
11.185,2.0,1.0,1.0,33.6,33.0,33.0,3.8,2.1,2.505,0.8302170348702885,-0.007473838412750936,0.545959656164808,0.005599123240214012,-0.055367,-40.594415
11.185,2.0,1.0,1.0,33.6,33.0,33.0,3.8,2.1,2.5075,0.8264710342169902,-0.007615160675460321,0.551511367415972,0.005613979317861059,-0.055864,-40.481409
11.185,2.0,1.0,1.0,33.6,33.0,33.0,3.8,2.1,2.51,0.8226715142263664,-0.007758786250813119,0.5570600101469974,0.005627919772815847,-0.05637,-40.368157
11.185,2.0,1.0,1.0,33.6,33.0,33.0,3.8,2.1,2.5125,0.8188179669030656,-0.00790475478853227,0.5626052954240207,0.0056409104004516,-0.056883,-40.254652
11.185,2.0,1.0,1.0,33.6,33.0,33.0,3.8,2.1,2.515,0.8149098769975649,-0.00805310675627654,0.5681469259672057,0.005652915858235519,-0.057405,-40.140888
11.185,2.0,1.0,1.0,33.6,33.0,33.0,3.8,2.1,2.5175,0.8109467219211477,-0.008203883458381536,0.573684595897628,0.00566389962403812,-0.057935,-40.026859
11.185,2.0,1.0,1.0,33.6,33.0,33.0,3.8,2.1,2.52,0.8069279716611031,-0.008357127055032606,0.5792179904765344,0.0056738239527639065,-0.058473,-39.912557
11.185,2.0,1.0,1.0,33.6,33.0,33.0,3.8,2.1,2.5225,0.8028530886962479,-0.00851288058187793,0.584746785836705,0.005682649831228279,-0.059021,-39.797977
11.185,2.0,1.0,1.0,33.6,33.0,33.0,3.8,2.1,2.525,0.7987215279128542,-0.008671187970091195,0.5902706487056986,0.005690336931202208,-0.059577,-39.683111
11.185,2.0,1.0,1.0,33.6,33.0,33.0,3.8,2.1,2.5275,0.7945327365210746,-0.00883209406689251,0.5957892361207132,0.005696843560542639,-0.060143,-39.567953
11.185,2.0,1.0,1.0,33.6,33.0,33.0,3.8,2.1,2.53,0.7902861539719833,-0.008995644656536671,0.6013021951347951,0.0057021266123212,-0.060718,-39.452496
11.185,2.0,1.0,1.0,33.6,33.0,33.0,3.8,2.1,2.5325,0.7859812118753292,-0.009161886481777771,0.6068091625141278,0.005706141511860911,-0.061302,-39.336733
11.185,2.0,1.0,1.0,33.6,33.0,33.0,3.8,2.1,2.535,0.7816173339181198,-0.00933086726581945,0.6123097644261207,0.005708842161584747,-0.061896,-39.220657
11.185,2.0,1.0,1.0,33.6,33.0,33.0,3.8,2.1,2.5375,0.7771939357841665,-0.009502635734759157,0.6178036161179981,0.005710180883575864,-0.062501,-39.10426
11.185,2.0,1.0,1.0,33.6,33.0,33.0,3.8,2.1,2.54,0.7727104250747138,-0.009677241640536339,0.6232903215855965,0.005710108359743174,-0.063115,-38.987537
11.185,2.0,1.0,1.0,33.6,33.0,33.0,3.8,2.1,2.5425,0.7681662012302917,-0.009854735784392697,0.6287694732320521,0.005708573569481531,-0.063741,-38.870479
11.185,2.0,1.0,1.0,33.6,33.0,33.0,3.8,2.1,2.545,0.763560655453942,-0.010035170040853827,0.6342406515160662,0.005705523724709009,-0.064377,-38.753079
11.185,2.0,1.0,1.0,33.6,33.0,33.0,3.8,2.1,2.5475,0.7588931706359743,-0.01021859738224082,0.639703424589401,0.0057009042021580435,-0.065023,-38.63533
11.185,2.0,1.0,1.0,33.6,33.0,33.0,3.8,2.1,2.55,0.7541631212804041,-0.01040507190372063,0.6451573479232842,0.005694658472790746,-0.065682,-38.517224
11.185,2.0,1.0,1.0,33.6,33.0,33.0,3.8,2.1,2.5525,0.7493698734332667,-0.010594648848903283,0.6506019639233421,0.005686728028201433,-0.066351,-38.398754
11.185,2.0,1.0,1.0,33.6,33.0,33.0,3.8,2.1,2.555,0.7445127846129747,-0.010787384635994468,0.6560368015327177,0.005677052303862323,-0.067033,-38.279912
11.185,2.0,1.0,1.0,33.6,33.0,33.0,3.8,2.1,2.5575,0.7395912037429162,-0.010983336884511663,0.6614613758229816,0.005665568599060563,-0.067727,-38.160689
11.185,2.0,1.0,1.0,33.6,33.0,33.0,3.8,2.1,2.56,0.7346044710865046,-0.011182564442570833,0.666875187572446,0.0056522119933660395,-0.068433,-38.04108
11.185,2.0,1.0,1.0,33.6,33.0,33.0,3.8,2.1,2.5625,0.7295519181848921,-0.011385127414751707,0.6722777228314774,0.005636915259461396,-0.069152,-37.921074
11.185,2.0,1.0,1.0,33.6,33.0,33.0,3.8,2.1,2.565,0.7244328677975748,-0.011591087190548289,0.6776684524743911,0.005619608772155655,-0.069883,-37.800664
11.185,2.0,1.0,1.0,33.6,33.0,33.0,3.8,2.1,2.5675,0.7192466338461376,-0.011800506473410698,0.6830468317374855,0.0056002204133931985,-0.070629,-37.679843
11.185,2.0,1.0,1.0,33.6,33.0,33.0,3.8,2.1,2.57,0.7139925213613857,-0.012013449310385019,0.688412299742777,0.005578675473059382,-0.071387,-37.5586
11.185,2.0,1.0,1.0,33.6,33.0,33.0,3.8,2.1,2.5725,0.7086698264341361,-0.012229981122355781,0.693764279006965,0.005554896545372579,-0.07216,-37.436929
11.185,2.0,1.0,1.0,33.6,33.0,33.0,3.8,2.1,2.575,0.7032778361699519,-0.012450168734895914,0.69910217493515,0.0055288034206408074,-0.072947,-37.31482
11.185,2.0,1.0,1.0,33.6,33.0,33.0,3.8,2.1,2.5775,0.6978158286481184,-0.012674080409728167,0.7044253752988028,0.00550031297214817,-0.073749,-37.192265
11.185,2.0,1.0,1.0,33.6,33.0,33.0,3.8,2.1,2.58,0.6922830728851802,-0.0129017858768003,0.7097332496974705,0.005469339037922673,-0.074566,-37.069254
11.185,2.0,1.0,1.0,33.6,33.0,33.0,3.8,2.1,2.5825,0.686678828803364,-0.01313335636697688,0.7150251490036904,0.005435792297122946,-0.075398,-36.945779
11.185,2.0,1.0,1.0,33.6,33.0,33.0,3.8,2.1,2.585,0.6810023472042447,-0.013368864645347322,0.7203004047905501,0.005399580140765624,-0.076246,-36.821831
11.185,2.0,1.0,1.0,33.6,33.0,33.0,3.8,2.1,2.5875,0.6752528697480195,-0.01360838504515081,0.7255583287413303,0.005360606536498669,-0.077111,-36.6974
11.185,2.0,1.0,1.0,33.6,33.0,33.0,3.8,2.1,2.59,0.669429628938782,-0.013851993502315058,0.7307982120406255,0.005318771887108779,-0.077992,-36.572477
11.185,2.0,1.0,1.0,33.6,33.0,33.0,3.8,2.1,2.5925,0.6635318481162011,-0.014099767590606476,0.7360193247463396,0.005273972882431666,-0.07889,-36.447051
11.185,2.0,1.0,1.0,33.6,33.0,33.0,3.8,2.1,2.595,0.6575587414540451,-0.014351786557385225,0.7412209151418985,0.0052261023443149,-0.079805,-36.321115
11.185,2.0,1.0,1.0,33.6,33.0,33.0,3.8,2.1,2.5975,0.6515095139659928,-0.01460813135995906,0.7464022090680387,0.00517504906426017,-0.080739,-36.194656
11.185,2.0,1.0,1.0,33.6,33.0,33.0,3.8,2.1,2.6,0.6453833615192172,-0.014868884702525582,0.7515624092334685,0.0051206976333504775,-0.081691,-36.067666
11.185,2.0,1.0,1.0,33.6,33.0,33.0,3.8,2.1,2.6025,0.6391794708562447,-0.015134131073691232,0.7567006945036856,0.005062928264041992,-0.082662,-35.940134
11.185,2.0,1.0,1.0,33.6,33.0,33.0,3.8,2.1,2.605,0.6328970196256152,-0.015403956784552409,0.7618162191672221,0.0050016166033750075,-0.083653,-35.812049
11.185,2.0,1.0,1.0,33.6,33.0,33.0,3.8,2.1,2.6075,0.6265351764219022,-0.015678450007320762,0.7669081121785305,0.004936633537129099,-0.084663,-35.683401
11.185,2.0,1.0,1.0,33.6,33.0,33.0,3.8,2.1,2.61,0.620093100835678,-0.015957700814471322,0.7719754763767125,0.004867844984418868,-0.085694,-35.554179
11.185,2.0,1.0,1.0,33.6,33.0,33.0,3.8,2.1,2.6125,0.6135699435140455,-0.01624180121838877,0.7770173876792579,0.004795111682193053,-0.086746,-35.424372
11.185,2.0,1.0,1.0,33.6,33.0,33.0,3.8,2.1,2.615,0.6069648462323695,-0.0165308452114829,0.7820328942499217,0.0047182889590652675,-0.08782,-35.293968
11.185,2.0,1.0,1.0,33.6,33.0,33.0,3.8,2.1,2.6175,0.6002769419779098,-0.01682492880673843,0.7870210156398303,0.00463722649786775,-0.088916,-35.162956
11.185,2.0,1.0,1.0,33.6,33.0,33.0,3.8,2.1,2.62,0.5935053550460591,-0.01712415007866139,0.7919807419008755,0.004551768086278974,-0.090035,-35.031324
11.185,2.0,1.0,1.0,33.6,33.0,33.0,3.8,2.1,2.6225,0.586649201149938,-0.017428609204576506,0.7969110326704121,0.00446175135483202,-0.091177,-34.899061
11.185,2.0,1.0,1.0,33.6,33.0,33.0,3.8,2.1,2.625,0.57970758754416,-0.017738408506224,0.801810816226222,0.00436700750156616,-0.092344,-34.766153
11.185,2.0,1.0,1.0,33.6,33.0,33.0,3.8,2.1,2.6275,0.5726796131635699,-0.018053652491598817,0.8066789885106826,0.0042673610025310066,-0.093535,-34.632589
11.185,2.0,1.0,1.0,33.6,33.0,33.0,3.8,2.1,2.63,0.5655643687778603,-0.018374447896964064,0.8115144121230061,0.00416262930730154,-0.094753,-34.498355
11.185,2.0,1.0,1.0,33.6,33.0,33.0,3.8,2.1,2.6325,0.5583609371629705,-0.018700903728965292,0.8163159152783783,0.004052622518601697,-0.095996,-34.363439
11.185,2.0,1.0,1.0,33.6,33.0,33.0,3.8,2.1,2.635,0.5510683932902462,-0.019033131306759227,0.8210822907327666,0.003937143055072935,-0.097266,-34.227827
11.185,2.0,1.0,1.0,33.6,33.0,33.0,3.8,2.1,2.6375,0.5436858045343828,-0.01937124430406164,0.825812294672098,0.0038159852961551543,-0.098565,-34.091505
11.185,2.0,1.0,1.0,33.6,33.0,33.0,3.8,2.1,2.64,0.5362122309012131,-0.01971535879100665,0.8305046455644692,0.003688935207974485,-0.099892,-33.954461
11.185,2.0,1.0,1.0,33.6,33.0,33.0,3.8,2.1,2.6425,0.5286467252764803,-0.020065593275694366,0.8351580229739487,0.0035557699490530222,-0.101249,-33.816678
11.185,2.0,1.0,1.0,33.6,33.0,33.0,3.8,2.1,2.645,0.520988333696779,-0.02042206874529171,0.839771066334485,0.0034162574545691855,-0.102636,-33.678144
11.185,2.0,1.0,1.0,33.6,33.0,33.0,3.8,2.1,2.6475,0.5132360956439189,-0.02078490870653092,0.8443423736823424,0.003270155997804673,-0.104054,-33.538842
11.185,2.0,1.0,1.0,33.6,33.0,33.0,3.8,2.1,2.65,0.5053890443640097,-0.02115423922543503,0.8488705003454109,0.003117213727312544,-0.105505,-33.398759
11.185,2.0,1.0,1.0,33.6,33.0,33.0,3.8,2.1,2.6525,0.49744620721268357,-0.021530188966074216,0.8533539575876231,0.002957168178232193,-0.10699,-33.257877
11.185,2.0,1.0,1.0,33.6,33.0,33.0,3.8,2.1,2.655,0.48940660602787966,-0.02191288922813827,0.8577912112066475,0.002789745756056649,-0.108508,-33.116181
11.185,2.0,1.0,1.0,33.6,33.0,33.0,3.8,2.1,2.6575,0.4812692575317515,-0.02230247398307981,0.8621806800828833,0.0026146611910298984,-0.110062,-32.973655
11.185,2.0,1.0,1.0,33.6,33.0,33.0,3.8,2.1,2.66,0.4730331737633011,-0.022699079908556283,0.8665207346776957,0.002431616961210081,-0.111653,-32.830281
11.185,2.0,1.0,1.0,33.6,33.0,33.0,3.8,2.1,2.6625,0.46469736254346145,-0.023102846420863837,0.8708096954786763,0.0022403026820822926,-0.113282,-32.686043
11.185,2.0,1.0,1.0,33.6,33.0,33.0,3.8,2.1,2.665,0.45626082797440937,-0.023513915705021517,0.8750458313896065,0.0020403944604370284,-0.114949,-32.540922
11.185,2.0,1.0,1.0,33.6,33.0,33.0,3.8,2.1,2.6675,0.4477225709750293,-0.023932432742119324,0.8792273580626211,0.0018315542100502456,-0.116657,-32.394901
11.185,2.0,1.0,1.0,33.6,33.0,33.0,3.8,2.1,2.67,0.43908158985452006,-0.0243585453335011,0.883352436169931,0.0016134289265005964,-0.118407,-32.247961
11.185,2.0,1.0,1.0,33.6,33.0,33.0,3.8,2.1,2.6725,0.43033688092626576,-0.024792404121297924,0.8874191696122695,0.001385649918244575,-0.120199,-32.100082
11.185,2.0,1.0,1.0,33.6,33.0,33.0,3.8,2.1,2.675,0.4214874391642241,-0.025234162604769874,0.8914256036610398,0.0011478319908329517,-0.122036,-31.951245
11.185,2.0,1.0,1.0,33.6,33.0,33.0,3.8,2.1,2.6775,0.41253225890419215,-0.025683977151848288,0.8953697230309202,0.0008995725808932508,-0.123919,-31.80143
11.185,2.0,1.0,1.0,33.6,33.0,33.0,3.8,2.1,2.68,0.403470334592469,-0.026142007005195388,0.8992494498794581,0.0006404508362189445,-0.12585,-31.650616
11.185,2.0,1.0,1.0,33.6,33.0,33.0,3.8,2.1,2.6825,0.39430066158458493,-0.02660841428201393,0.9030626417299138,0.0003700266379966216,-0.127829,-31.49878
11.185,2.0,1.0,1.0,33.6,33.0,33.0,3.8,2.1,2.685,0.3850222369969155,-0.027083363966745842,0.9068070893133424,8.783956086021188e-05,-0.12986,-31.345902
11.185,2.0,1.0,1.0,33.6,33.0,33.0,3.8,2.1,2.6875,0.3756340606141943,-0.027567023895689782,0.9104805143255806,-0.00020659223391135615,-0.131944,-31.191958
11.185,2.0,1.0,1.0,33.6,33.0,33.0,3.8,2.1,2.69,0.36613513585613056,-0.028059564732447306,0.9140805670944631,-0.0005137731771489274,-0.134082,-31.036926
11.185,2.0,1.0,1.0,33.6,33.0,33.0,3.8,2.1,2.6925,0.35652447080651894,-0.028561159932970627,0.917604824152213,-0.0008342315480477264,-0.136277,-30.88078
11.185,2.0,1.0,1.0,33.6,33.0,33.0,3.8,2.1,2.695,0.3468010793085139,-0.029071985698826845,0.9210507857075211,-0.0011685208139665313,-0.138531,-30.723495
11.185,2.0,1.0,1.0,33.6,33.0,33.0,3.8,2.1,2.6975,0.3369639821299224,-0.029592220917120438,0.9244158730113762,-0.0015172210603664382,-0.140845,-30.565047
11.185,2.0,1.0,1.0,33.6,33.0,33.0,3.8,2.1,2.7,0.3270122082027132,-0.03012204708531186,0.9276974256101669,-0.0018809405180878248,-0.143223,-30.405409
11.185,2.0,1.0,1.0,33.6,33.0,33.0,3.8,2.1,2.7025,0.31694479594118685,-0.030661648218944057,0.9308926984790256,-0.0022603171958332675,-0.145667,-30.244553
11.185,2.0,1.0,1.0,33.6,33.0,33.0,3.8,2.1,2.705,0.3067607946436326,-0.031211210740028326,0.933998859027723,-0.002656020626463065,-0.148179,-30.082451
11.185,2.0,1.0,1.0,33.6,33.0,33.0,3.8,2.1,2.7075,0.2964592659826341,-0.031770923343545206,0.9370129839707212,-0.003068753736527202,-0.150762,-29.919073
11.185,2.0,1.0,1.0,33.6,33.0,33.0,3.8,2.1,2.71,0.2860392855896333,-0.032340976839177145,0.9399320560521983,-0.0034992548493630073,-0.153419,-29.75439
11.185,2.0,1.0,1.0,33.6,33.0,33.0,3.8,2.1,2.7125,0.2754999447397856,-0.03292156396500613,0.9427529606159679,-0.003948299833092461,-0.156152,-29.58837
11.185,2.0,1.0,1.0,33.6,33.0,33.0,3.8,2.1,2.715,0.2648403521436973,-0.03351287916946556,0.9454724820092314,-0.004416704405966818,-0.158966,-29.42098
11.185,2.0,1.0,1.0,33.6,33.0,33.0,3.8,2.1,2.7175,0.2540596358531783,-0.03411511835733163,0.9480872998079974,-0.004905326612744962,-0.161862,-29.252188
11.185,2.0,1.0,1.0,33.6,33.0,33.0,3.8,2.1,2.72,0.2431569452888322,-0.034728478594957576,0.9505939848507633,-0.005415069487169137,-0.164846,-29.081958
11.185,2.0,1.0,1.0,33.6,33.0,33.0,3.8,2.1,2.7225,0.23213145339799893,-0.035353157769291564,0.9529889950656707,-0.005946883917137271,-0.16792,-28.910255
11.185,2.0,1.0,1.0,33.6,33.0,33.0,3.8,2.1,2.725,0.22098235895245635,-0.03598935419444799,0.95526867107479,-0.006501771730878579,-0.171088,-28.73704
11.185,2.0,1.0,1.0,33.6,33.0,33.0,3.8,2.1,2.7275,0.20970888899617152,-0.03663726615872489,0.9574292315574569,-0.007080789024351226,-0.174355,-28.562276
11.185,2.0,1.0,1.0,33.6,33.0,33.0,3.8,2.1,2.73,0.19831030145453563,-0.037297091403939095,0.959466768352608,-0.007685049752212027,-0.177724,-28.385922
11.185,2.0,1.0,1.0,33.6,33.0,33.0,3.8,2.1,2.7325,0.18678588791769568,-0.03796902652777797,0.9613772412778752,-0.008315729607094672,-0.181202,-28.207935
11.185,2.0,1.0,1.0,33.6,33.0,33.0,3.8,2.1,2.735,0.1751349766120575,-0.03865326629850625,0.9631564726407055,-0.008974070214605943,-0.184792,-28.028273
11.185,2.0,1.0,1.0,33.6,33.0,33.0,3.8,2.1,2.7375,0.16335693557562103,-0.0393500028697941,0.9648001414139854,-0.00966138367444619,-0.1885,-27.84689
11.185,2.0,1.0,1.0,33.6,33.0,33.0,3.8,2.1,2.74,0.1514511760547119,-0.04005942488160344,0.9663037770454852,-0.010379057481423737,-0.192331,-27.663739
11.185,2.0,1.0,1.0,33.6,33.0,33.0,3.8,2.1,2.7425,0.13941715614180783,-0.040781716430950604,0.9676627528668789,-0.011128559863915852,-0.196292,-27.478771
11.185,2.0,1.0,1.0,33.6,33.0,33.0,3.8,2.1,2.745,0.12725438467668324,-0.04151705589389006,0.9688722790640673,-0.011911445581582844,-0.200388,-27.291935
11.185,2.0,1.0,1.0,33.6,33.0,33.0,3.8,2.1,2.7475,0.11496242543599272,-0.04226561457718618,0.9699273951659616,-0.01272936222893775,-0.204628,-27.103177
11.185,2.0,1.0,1.0,33.6,33.0,33.0,3.8,2.1,2.75,0.102540901639784,-0.0430275551747749,0.970822962003724,-0.0135840570967814,-0.209017,-26.912442
11.185,2.0,1.0,1.0,33.6,33.0,33.0,3.8,2.1,2.7525,0.08998950080740292,-0.04380303000018381,0.9715536530866,-0.014477384649623224,-0.213564,-26.719671
11.185,2.0,1.0,1.0,33.6,33.0,33.0,3.8,2.1,2.755,0.07730797999984432,-0.04459217896146384,0.972113945333813,-0.015411314684113239,-0.218277,-26.524805
11.185,2.0,1.0,1.0,33.6,33.0,33.0,3.8,2.1,2.7575,0.06449617149099729,-0.04539512723977424,0.9724981090944367,-0.016387941241336686,-0.223165,-26.327779
11.185,2.0,1.0,1.0,33.6,33.0,33.0,3.8,2.1,2.76,0.05155398891663397,-0.04621198262638627,0.9727001973785567,-0.017409492354683073,-0.228237,-26.128527
11.185,2.0,1.0,1.0,33.6,33.0,33.0,3.8,2.1,2.7625,0.03848143395740725,-0.047042832465364434,0.9727140342132178,-0.018478340725069084,-0.233505,-25.92698
11.185,2.0,1.0,1.0,33.6,33.0,33.0,3.8,2.1,2.765,0.025278603621009508,-0.04788774014031021,0.9725332020255002,-0.019597015426724852,-0.238978,-25.723064
11.185,2.0,1.0,1.0,33.6,33.0,33.0,3.8,2.1,2.7675,0.011945698199063565,-0.0487467410330535,0.9721510279423112,-0.020768214759759786,-0.24467,-25.516704
11.185,2.0,1.0,1.0,33.6,33.0,33.0,3.8,2.1,2.77,-0.0015169700132893831,-0.049619837869726936,0.9715605688819225,-0.02199482038054087,-0.250592,-25.307819
11.185,2.0,1.0,1.0,33.6,33.0,33.0,3.8,2.1,2.7725,-0.015108967132402402,-0.050506995354849836,0.9707545952956337,-0.02327991285779908,-0.256759,-25.096326
11.185,2.0,1.0,1.0,33.6,33.0,33.0,3.8,2.1,2.775,-0.02882972711546857,-0.05140813397641724,0.9697255733989207,-0.024626788821657794,-0.263186,-24.882135
11.185,2.0,1.0,1.0,33.6,33.0,33.0,3.8,2.1,2.7775,-0.042678540062974175,-0.052323122843928434,0.9684656457096009,-0.026038979894793365,-0.26989,-24.665155
11.185,2.0,1.0,1.0,33.6,33.0,33.0,3.8,2.1,2.78,-0.05665453922792399,-0.053251771396085765,0.9669666096855806,-0.027520273620114468,-0.276888,-24.445287
11.185,2.0,1.0,1.0,33.6,33.0,33.0,3.8,2.1,2.7825,-0.07075668653530183,-0.05419381978465091,0.9652198942261073,-0.029074736628150608,-0.284199,-24.222428
11.185,2.0,1.0,1.0,33.6,33.0,33.0,3.8,2.1,2.785,-0.0849837563790254,-0.05514892770457214,0.9632165337675779,-0.03070674032032999,-0.291845,-23.996471
11.185,2.0,1.0,1.0,33.6,33.0,33.0,3.8,2.1,2.7875,-0.09933431741975485,-0.05611666139662674,0.9609471396672749,-0.032420989382103804,-0.299849,-23.7673
11.185,2.0,1.0,1.0,33.6,33.0,33.0,3.8,2.1,2.79,-0.11380671205402054,-0.057096478495784565,0.9584018685251045,-0.03422255348317456,-0.308236,-23.534795
11.185,2.0,1.0,1.0,33.6,33.0,33.0,3.8,2.1,2.7925,-0.12839903316075907,-0.058087710334189475,0.9555703870437864,-0.036116902571689695,-0.317034,-23.298829
11.185,2.0,1.0,1.0,33.6,33.0,33.0,3.8,2.1,2.795,-0.14310909765321583,-0.059089541229476274,0.9524418329709657,-0.03810994622609754,-0.326272,-23.059266
11.185,2.0,1.0,1.0,33.6,33.0,33.0,3.8,2.1,2.7975,-0.15793441626864088,-0.06010098419380761,0.9490047716014688,-0.04020807759339848,-0.335985,-22.815965
11.185,2.0,1.0,1.0,33.6,33.0,33.0,3.8,2.1,2.8,-0.17287215891153465,-0.06112085238245203,0.9452471472431838,-0.04241822251690922,-0.34621,-22.568773
11.185,2.0,1.0,1.0,33.6,33.0,33.0,3.8,2.1,2.8025,-0.18791911472281808,-0.062147725457740784,0.9411562289647305,-0.04474789454150833,-0.356986,-22.317532
11.185,2.0,1.0,1.0,33.6,33.0,33.0,3.8,2.1,2.805,-0.2030716458708969,-0.06317990986833345,0.9367185498458388,-0.04720525658090574,-0.368359,-22.06207
11.185,2.0,1.0,1.0,33.6,33.0,33.0,3.8,2.1,2.8075,-0.2183256338427432,-0.06421539182662048,0.9319198388410702,-0.04979919014094622,-0.380378,-21.802208
11.185,2.0,1.0,1.0,33.6,33.0,33.0,3.8,2.1,2.81,-0.2336764167432561,-0.06525178149827827,0.9267449442430016,-0.05253937311637274,-0.393101,-21.537755
11.185,2.0,1.0,1.0,33.6,33.0,33.0,3.8,2.1,2.8125,-0.24911871577571734,-0.06628624658407506,0.9211777475916052,-0.0554363673165642,-0.406587,-21.268505
11.185,2.0,1.0,1.0,33.6,33.0,33.0,3.8,2.1,2.815,-0.26464654865803167,-0.0673154330578501,0.9152010667219691,-0.05850171702868832,-0.420908,-20.994243
11.185,2.0,1.0,1.0,33.6,33.0,33.0,3.8,2.1,2.8175,-0.28025312720621154,-0.06833537030414237,0.908796546473742,-0.06174806009351531,-0.43614,-20.714738
11.185,2.0,1.0,1.0,33.6,33.0,33.0,3.8,2.1,2.82,-0.2959307356598812,-0.06934135724590289,0.9019445354052409,-0.06518925314722451,-0.452372,-20.429743
11.185,2.0,1.0,1.0,33.6,33.0,33.0,3.8,2.1,2.8225,-0.3116705854974556,-0.07032782523050557,0.8946239466684738,-0.06884051286646137,-0.469701,-20.138995
11.185,2.0,1.0,1.0,33.6,33.0,33.0,3.8,2.1,2.825,-0.3274626414434348,-0.07128817240354982,0.8868121010181186,-0.07271857523389781,-0.48824,-19.842215
11.185,2.0,1.0,1.0,33.6,33.0,33.0,3.8,2.1,2.8275,-0.34329541204503117,-0.07221456298332199,0.8784845497643645,-0.07684187500106884,-0.508116,-19.539102
