1,w,sub_t,h,l1,l2,l3,g1,g2,Freq,S11_re,S21_re,S11_img,S21_img,S11_dB,S21_dB
11.185,2.0,1.0,1.0,33.2,34.2,34.2,4.1,2.8,2.5,0.881265139133097,-0.00510515226016947,0.460035683839581,0.00431612865422598,-0.051283,-43.497746
11.185,2.0,1.0,1.0,33.2,34.2,34.2,4.1,2.8,2.5025,0.8783272752230774,-0.005211002725426342,0.46551059786937815,0.004339130718976034,-0.051732,-43.374064
11.185,2.0,1.0,1.0,33.2,34.2,34.2,4.1,2.8,2.505,0.8753436300365648,-0.0053187893411113605,0.4709867711215807,0.004361759592131173,-0.052189,-43.25006
11.185,2.0,1.0,1.0,33.2,34.2,34.2,4.1,2.8,2.5075,0.8723137770746282,-0.005428554262338235,0.4764640377182495,0.004383997845097347,-0.052653,-43.125724
11.185,2.0,1.0,1.0,33.2,34.2,34.2,4.1,2.8,2.51,0.8692372827416386,-0.005540340896186601,0.4819422268350898,0.004405827376582594,-0.053126,-43.001043
11.185,2.0,1.0,1.0,33.2,34.2,34.2,4.1,2.8,2.5125,0.8661137062102615,-0.0056541939490529,0.48742116253702744,0.004427229382611848,-0.053607,-42.876006
11.185,2.0,1.0,1.0,33.2,34.2,34.2,4.1,2.8,2.515,0.8629425992832251,-0.005770159476187448,0.4929006636082276,0.004448184324993812,-0.054097,-42.750602
11.185,2.0,1.0,1.0,33.2,34.2,34.2,4.1,2.8,2.5175,0.8597235062517664,-0.0058882849335370685,0.4983805433763276,0.004468671898147044,-0.054595,-42.624819
11.185,2.0,1.0,1.0,33.2,34.2,34.2,4.1,2.8,2.52,0.8564559637506173,-0.006008619232021046,0.5038606095306705,0.004488670994186331,-0.055102,-42.498646
11.185,2.0,1.0,1.0,33.2,34.2,34.2,4.1,2.8,2.5225,0.853139500609421,-0.006131212794375379,0.5093406639342807,0.004508159666162961,-0.055619,-42.372069
11.185,2.0,1.0,1.0,33.2,34.2,34.2,4.1,2.8,2.525,0.84977363770043,-0.00625611761470992,0.5148205024293526,0.004527115089345586,-0.056145,-42.245077
11.185,2.0,1.0,1.0,33.2,34.2,34.2,4.1,2.8,2.5275,0.8463578877823476,-0.006383387320931551,0.5202999146359787,0.0045455135204199495,-0.05668,-42.117657
11.185,2.0,1.0,1.0,33.2,34.2,34.2,4.1,2.8,2.53,0.8428917553401667,-0.0065130772401969204,0.5257786837438425,0.004563330254477366,-0.057226,-41.989796
11.185,2.0,1.0,1.0,33.2,34.2,34.2,4.1,2.8,2.5325,0.8393747364208396,-0.006645244467568799,0.5312565862965888,0.004580539579652248,-0.057781,-41.861481
11.185,2.0,1.0,1.0,33.2,34.2,34.2,4.1,2.8,2.535,0.8358063184646084,-0.006779947938062101,0.5367333919685678,0.004597114729259041,-0.058347,-41.7327
11.185,2.0,1.0,1.0,33.2,34.2,34.2,4.1,2.8,2.5375,0.8321859801318257,-0.006917248502277126,0.5422088633336292,0.004613027831267746,-0.058924,-41.603438
11.185,2.0,1.0,1.0,33.2,34.2,34.2,4.1,2.8,2.54,0.8285131911250603,-0.007057209005831735,0.5476827556256296,0.004628249854945713,-0.059511,-41.473682
11.185,2.0,1.0,1.0,33.2,34.2,34.2,4.1,2.8,2.5425,0.8247874120062938,-0.0071998943728181905,0.5531548164903044,0.004642750554479883,-0.06011,-41.343417
11.185,2.0,1.0,1.0,33.2,34.2,34.2,4.1,2.8,2.545,0.8210080940089842,-0.007345371693525664,0.5586247857281207,0.004656498409380396,-0.06072,-41.21263
11.185,2.0,1.0,1.0,33.2,34.2,34.2,4.1,2.8,2.5475,0.8171746788447741,-0.007493710316686034,0.5640923950277169,0.004669460561450976,-0.061342,-41.081306
11.185,2.0,1.0,1.0,33.2,34.2,34.2,4.1,2.8,2.55,0.8132865985045823,-0.007644981946518921,0.5695573676895233,0.00468160274809506,-0.061977,-40.94943
11.185,2.0,1.0,1.0,33.2,34.2,34.2,4.1,2.8,2.5525,0.8093432750538314,-0.00779926074487036,0.5750194183390975,0.0046928892317090526,-0.062624,-40.816987
11.185,2.0,1.0,1.0,33.2,34.2,34.2,4.1,2.8,2.555,0.8053441204215168,-0.00795662343876139,0.5804782526297341,0.004703282724894273,-0.063283,-40.683961
11.185,2.0,1.0,1.0,33.2,34.2,34.2,4.1,2.8,2.5575,0.8012885361828201,-0.008117149433684278,0.5859335669338394,0.004712744311198332,-0.063956,-40.550336
11.185,2.0,1.0,1.0,33.2,34.2,34.2,4.1,2.8,2.56,0.7971759133349436,-0.008280920933008931,0.5913850480225462,0.004721233361073815,-0.064643,-40.416096
11.185,2.0,1.0,1.0,33.2,34.2,34.2,4.1,2.8,2.5625,0.7930056320658219,-0.008448023063888265,0.5968323727330188,0.004728707442716428,-0.065343,-40.281225
11.185,2.0,1.0,1.0,33.2,34.2,34.2,4.1,2.8,2.565,0.7887770615153322,-0.008618544010079332,0.6022752076228561,0.004735122227418292,-0.066058,-40.145705
11.185,2.0,1.0,1.0,33.2,34.2,34.2,4.1,2.8,2.5675,0.7844895595286143,-0.008792575152127866,0.6077132086109588,0.00474043138904163,-0.066788,-40.009519
11.185,2.0,1.0,1.0,33.2,34.2,34.2,4.1,2.8,2.57,0.7801424724010646,-0.008970211215397315,0.6131460206042004,0.004744586497185341,-0.067533,-39.872649
11.185,2.0,1.0,1.0,33.2,34.2,34.2,4.1,2.8,2.5725,0.7757351346145429,-0.009151550426459105,0.61857327710919,0.004747536903582351,-0.068293,-39.735077
11.185,2.0,1.0,1.0,33.2,34.2,34.2,4.1,2.8,2.575,0.771266868564301,-0.00933669467839991,0.6239945998283642,0.004749229621225047,-0.06907,-39.596784
11.185,2.0,1.0,1.0,33.2,34.2,34.2,4.1,2.8,2.5775,0.7667369842760948,-0.009525749705644392,0.6294095982396045,0.004749609195675145,-0.069863,-39.457751
11.185,2.0,1.0,1.0,33.2,34.2,34.2,4.1,2.8,2.58,0.7621447791129051,-0.009718825268937123,0.6348178691585072,0.004748617567965758,-0.070674,-39.317958
11.185,2.0,1.0,1.0,33.2,34.2,34.2,4.1,2.8,2.5825,0.7574895374706428,-0.009916035351178328,0.6402189962823925,0.004746193928453673,-0.071502,-39.177386
11.185,2.0,1.0,1.0,33.2,34.2,34.2,4.1,2.8,2.585,0.7527705304621712,-0.010117498364861238,0.6456125497150521,0.004742274560922503,-0.072349,-39.036012
11.185,2.0,1.0,1.0,33.2,34.2,34.2,4.1,2.8,2.5875,0.747987015588912,-0.010323337371918751,0.6509980854711813,0.004736792676175699,-0.073214,-38.893817
11.185,2.0,1.0,1.0,33.2,34.2,34.2,4.1,2.8,2.59,0.7431382363992586,-0.010533680316850745,0.656375144959349,0.004729678234289999,-0.074099,-38.750777
11.185,2.0,1.0,1.0,33.2,34.2,34.2,4.1,2.8,2.5925,0.7382234221329346,-0.010748660274073863,0.6617432544422894,0.0047208577546257674,-0.075004,-38.606871
11.185,2.0,1.0,1.0,33.2,34.2,34.2,4.1,2.8,2.595,0.7332417873503903,-0.010968415710511319,0.6671019244731838,0.0047102541126064325,-0.07593,-38.462076
11.185,2.0,1.0,1.0,33.2,34.2,34.2,4.1,2.8,2.5975,0.7281925315462227,-0.011193090764524223,0.6724506493065276,0.004697786322189593,-0.076877,-38.316367
11.185,2.0,1.0,1.0,33.2,34.2,34.2,4.1,2.8,2.6,0.7230748387455382,-0.011422835542376294,0.6777889062820426,0.0046833693028503496,-0.077846,-38.169719
11.185,2.0,1.0,1.0,33.2,34.2,34.2,4.1,2.8,2.6025,0.7178878770820902,-0.011657806433522919,0.6831161551799759,0.0046669136297870515,-0.078838,-38.022109
11.185,2.0,1.0,1.0,33.2,34.2,34.2,4.1,2.8,2.605,0.7126307983568901,-0.011898166446125092,0.6884318375460046,0.004648325265935569,-0.079854,-37.873509
11.185,2.0,1.0,1.0,33.2,34.2,34.2,4.1,2.8,2.6075,0.707302737575913,-0.012144085564306371,0.6937353759837984,0.004627505274242217,-0.080894,-37.723893
11.185,2.0,1.0,1.0,33.2,34.2,34.2,4.1,2.8,2.61,0.7019028124653746,-0.012395741128801714,0.6990261734131392,0.004604349508494246,-0.081959,-37.573234
11.185,2.0,1.0,1.0,33.2,34.2,34.2,4.1,2.8,2.6125,0.6964301229629216,-0.012653318242789703,0.7043036122913129,0.00457874828083777,-0.083051,-37.421501
11.185,2.0,1.0,1.0,33.2,34.2,34.2,4.1,2.8,2.615,0.6908837506829328,-0.012917010204856024,0.7095670537952906,0.0045505860039280095,-0.08417,-37.268668
11.185,2.0,1.0,1.0,33.2,34.2,34.2,4.1,2.8,2.6175,0.6852627583539634,-0.01318701897120745,0.7148158369619826,0.00451974080544689,-0.085317,-37.114701
11.185,2.0,1.0,1.0,33.2,34.2,34.2,4.1,2.8,2.62,0.6795661892261737,-0.013463555649444557,0.7200492777836186,0.004486084112493194,-0.086493,-36.959572
11.185,2.0,1.0,1.0,33.2,34.2,34.2,4.1,2.8,2.6225,0.6737930664463924,-0.013746841026409046,0.7252666682550232,0.0044494802030917695,-0.0877,-36.803246
11.185,2.0,1.0,1.0,33.2,34.2,34.2,4.1,2.8,2.625,0.667942392398246,-0.0140371061328489,0.730467275369249,0.00440978572177931,-0.088938,-36.645691
11.185,2.0,1.0,1.0,33.2,34.2,34.2,4.1,2.8,2.6275,0.6620131480045199,-0.014334592847897737,0.7356503400577037,0.004366849155903761,-0.090209,-36.486871
11.185,2.0,1.0,1.0,33.2,34.2,34.2,4.1,2.8,2.63,0.6560042919886736,-0.014639554546639882,0.7408150760705129,0.004320510268911315,-0.091514,-36.326751
11.185,2.0,1.0,1.0,33.2,34.2,34.2,4.1,2.8,2.6325,0.6499147600921122,-0.014952256794340457,0.7459606687924508,0.004270599486492503,-0.092854,-36.165293
11.185,2.0,1.0,1.0,33.2,34.2,34.2,4.1,2.8,2.635,0.6437434642434987,-0.015272978091256465,0.7510862739892895,0.004216937231004116,-0.094231,-36.00246
11.185,2.0,1.0,1.0,33.2,34.2,34.2,4.1,2.8,2.6375,0.6374892916760165,-0.015602010672318062,0.7561910164788851,0.004159333199073278,-0.095646,-35.83821
11.185,2.0,1.0,1.0,33.2,34.2,34.2,4.1,2.8,2.64,0.6311511039880818,-0.0159396613663839,0.7612739887207436,0.004097585576716579,-0.097101,-35.672503
11.185,2.0,1.0,1.0,33.2,34.2,34.2,4.1,2.8,2.6425,0.624727736142562,-0.016286252520229333,0.7663342493171083,0.004031480185659259,-0.098597,-35.505295
11.185,2.0,1.0,1.0,33.2,34.2,34.2,4.1,2.8,2.645,0.618217995399054,-0.016642122992935732,0.7713708214178863,0.003960789553809099,-0.100137,-35.336543
11.185,2.0,1.0,1.0,33.2,34.2,34.2,4.1,2.8,2.6475,0.6116206601732093,-0.017007629226909404,0.7763826910208632,0.0038852719020144727,-0.101722,-35.166199
11.185,2.0,1.0,1.0,33.2,34.2,34.2,4.1,2.8,2.65,0.6049344788164711,-0.017383146402384888,0.7813688051577081,0.0038046700382994123,-0.103353,-34.994215
11.185,2.0,1.0,1.0,33.2,34.2,34.2,4.1,2.8,2.6525,0.5981581683089287,-0.017769069682959028,0.7863280699551657,0.0037187101497103453,-0.105035,-34.820541
11.185,2.0,1.0,1.0,33.2,34.2,34.2,4.1,2.8,2.655,0.5912904128571687,-0.018165815560476646,0.7912593485596243,0.003627100480702751,-0.106767,-34.645126
11.185,2.0,1.0,1.0,33.2,34.2,34.2,4.1,2.8,2.6575,0.5843298623882002,-0.01857382330844526,0.7961614589118294,0.0035295298856277664,-0.108553,-34.467914
11.185,2.0,1.0,1.0,33.2,34.2,34.2,4.1,2.8,2.66,0.5772751309295313,-0.018993556554115495,0.801033171356928,0.003425666241315635,-0.110396,-34.288849
11.185,2.0,1.0,1.0,33.2,34.2,34.2,4.1,2.8,2.6625,0.5701247948644403,-0.019425504980430268,0.8058732060732063,0.0033151547039723442,-0.112298,-34.107873
11.185,2.0,1.0,1.0,33.2,34.2,34.2,4.1,2.8,2.665,0.5628773910502453,-0.019870186170238707,0.8106802303008315,0.003197615792565227,-0.114262,-33.924924
11.185,2.0,1.0,1.0,33.2,34.2,34.2,4.1,2.8,2.6675,0.5555314147860899,-0.02032814760649999,0.8154528553494975,0.0030726432785400286,-0.11629,-33.739937
11.185,2.0,1.0,1.0,33.2,34.2,34.2,4.1,2.8,2.67,0.5480853176152185,-0.02079996884369246,0.8201896333611935,0.0029398018590295473,-0.118387,-33.552846
11.185,2.0,1.0,1.0,33.2,34.2,34.2,4.1,2.8,2.6725,0.5405375049450617,-0.021286263867307562,0.8248890538011658,0.002798624587631585,-0.120556,-33.363581
11.185,2.0,1.0,1.0,33.2,34.2,34.2,4.1,2.8,2.675,0.5328863334665758,-0.021787683660170917,0.8295495396465473,0.0026486100332815013,-0.1228,-33.172069
11.185,2.0,1.0,1.0,33.2,34.2,34.2,4.1,2.8,2.6775,0.5251301083521522,-0.0223049189964226,0.8341694432379889,0.0024892191336418324,-0.125124,-32.978232
11.185,2.0,1.0,1.0,33.2,34.2,34.2,4.1,2.8,2.68,0.517267080209065,-0.02283870348632906,0.8387470417548154,0.002319871704685062,-0.127531,-32.781991
11.185,2.0,1.0,1.0,33.2,34.2,34.2,4.1,2.8,2.6825,0.5092954417627573,-0.023389816897722817,0.8432805322686757,0.002139942562641832,-0.130027,-32.583262
11.185,2.0,1.0,1.0,33.2,34.2,34.2,4.1,2.8,2.685,0.5012133242412925,-0.023959088782812697,0.8477680263242,0.001948757208089465,-0.132617,-32.381957
11.185,2.0,1.0,1.0,33.2,34.2,34.2,4.1,2.8,2.6875,0.493018793428931,-0.0245474024424112,0.852207543987658,0.00174558701450599,-0.135305,-32.177983
11.185,2.0,1.0,1.0,33.2,34.2,34.2,4.1,2.8,2.69,0.4847098453530581,-0.025155699263333754,0.856597007295835,0.001529643854916256,-0.138098,-31.971244
11.185,2.0,1.0,1.0,33.2,34.2,34.2,4.1,2.8,2.6925,0.47628440156441615,-0.025784983468888314,0.8609342330271089,0.0013000740900767497,-0.141002,-31.761636
11.185,2.0,1.0,1.0,33.2,34.2,34.2,4.1,2.8,2.695,0.46774030396590244,-0.026436327327039426,0.865216924704645,0.001055951829703468,-0.144023,-31.549054
11.185,2.0,1.0,1.0,33.2,34.2,34.2,4.1,2.8,2.6975,0.45907530913981087,-0.027110876866068043,0.8694426637275279,0.0007962713641998722,-0.14717,-31.333384
11.185,2.0,1.0,1.0,33.2,34.2,34.2,4.1,2.8,2.7,0.45028708211747237,-0.027809858153406353,0.873608899508944,0.0005199386477786508,-0.150449,-31.114507
11.185,2.0,1.0,1.0,33.2,34.2,34.2,4.1,2.8,2.7025,0.4413731895285262,-0.028534584199884406,0.8777129384808562,0.00022576169428283638,-0.153871,-30.892297
11.185,2.0,1.0,1.0,33.2,34.2,34.2,4.1,2.8,2.705,0.43233109205961334,-0.029286462558938527,0.8817519318012389,-8.756027621108418e-05,-0.157443,-30.666623
11.185,2.0,1.0,1.0,33.2,34.2,34.2,4.1,2.8,2.7075,0.4231581361439393,-0.030067003698475307,0.8857228615722023,-0.00042144912954201715,-0.161177,-30.437344
11.185,2.0,1.0,1.0,33.2,34.2,34.2,4.1,2.8,2.71,0.4138515447939238,-0.03087783023210887,0.8896225253442214,-0.0007774617708350408,-0.165084,-30.204312
11.185,2.0,1.0,1.0,33.2,34.2,34.2,4.1,2.8,2.7125,0.40440840747893153,-0.031720687106453,0.8934475186421255,-0.0011573060209637183,-0.169177,-29.967371
11.185,2.0,1.0,1.0,33.2,34.2,34.2,4.1,2.8,2.715,0.3948256689388715,-0.03259745285205961,0.8971942152010047,-0.001562858725251765,-0.173468,-29.726355
11.185,2.0,1.0,1.0,33.2,34.2,34.2,4.1,2.8,2.7175,0.3851001168122335,-0.033510152017451486,0.9008587445430493,-0.0019961864604808545,-0.177973,-29.481088
11.185,2.0,1.0,1.0,33.2,34.2,34.2,4.1,2.8,2.72,0.37522836794401015,-0.034460968918407955,0.9044369664573136,-0.0024595692750197973,-0.182708,-29.231383
11.185,2.0,1.0,1.0,33.2,34.2,34.2,4.1,2.8,2.7225,0.36520685322501684,-0.035452262848065005,0.9079244418607807,-0.002955527980216292,-0.187692,-28.977042
11.185,2.0,1.0,1.0,33.2,34.2,34.2,4.1,2.8,2.725,0.3550318007998133,-0.03648658490715218,0.9113163994173655,-0.0034868556125371053,-0.192945,-28.717853
11.185,2.0,1.0,1.0,33.2,34.2,34.2,4.1,2.8,2.7275,0.3446992174660361,-0.037566696627297294,0.9146076971673941,-0.0040566538096591075,-0.19849,-28.45359
11.185,2.0,1.0,1.0,33.2,34.2,34.2,4.1,2.8,2.73,0.3342048680745932,-0.038695590572906405,0.917792778267983,-0.004668374995292415,-0.20435,-28.184015
11.185,2.0,1.0,1.0,33.2,34.2,34.2,4.1,2.8,2.7325,0.32354425272882215,-0.03987651311738105,0.9208656197577273,-0.005325871453960529,-0.210555,-27.90887
11.185,2.0,1.0,1.0,33.2,34.2,34.2,4.1,2.8,2.735,0.31271258157360887,-0.041112989595343916,0.9238196730281336,-0.006033452607180972,-0.217136,-27.62788
11.185,2.0,1.0,1.0,33.2,34.2,34.2,4.1,2.8,2.7375,0.30170474696535304,-0.04240885203112531,0.9266477943979531,-0.006795952087924748,-0.224127,-27.340753
11.185,2.0,1.0,1.0,33.2,34.2,34.2,4.1,2.8,2.74,0.2905152928250856,-0.043768269630543595,0.9293421638300888,-0.00761880656558355,-0.231569,-27.047172
11.185,2.0,1.0,1.0,33.2,34.2,34.2,4.1,2.8,2.7425,0.2791383810063971,-0.04519578219141761,0.931894189385159,-0.00850814871794777,-0.239505,-26.746799
11.185,2.0,1.0,1.0,33.2,34.2,34.2,4.1,2.8,2.745,0.2675677545668491,-0.046696336528538836,0.9342943944462212,-0.009470917304538123,-0.247987,-26.439271
11.185,2.0,1.0,1.0,33.2,34.2,34.2,4.1,2.8,2.7475,0.25579669793031923,-0.048275325906716,0.9365322840434842,-0.010514987999145936,-0.257073,-26.124194
11.185,2.0,1.0,1.0,33.2,34.2,34.2,4.1,2.8,2.75,0.24381799408924,-0.0499386323098766,0.938596185713882,-0.0116493295305769,-0.266828,-25.801146
11.185,2.0,1.0,1.0,33.2,34.2,34.2,4.1,2.8,2.7525,0.23162387925086664,-0.05169267111396707,0.9404730591928873,-0.012884190814428305,-0.277327,-25.46967
11.185,2.0,1.0,1.0,33.2,34.2,34.2,4.1,2.8,2.755,0.21920599572630525,-0.05354443733048421,0.9421482677821399,-0.01423132620770123,-0.288659,-25.129271
11.185,2.0,1.0,1.0,33.2,34.2,34.2,4.1,2.8,2.7575,0.20655534446305665,-0.055501551977553985,0.9436053023702816,-0.015704267877797013,-0.300923,-24.779412
11.185,2.0,1.0,1.0,33.2,34.2,34.2,4.1,2.8,2.76,0.19366223953294173,-0.05757230621459654,0.9448254466788074,-0.01731865667434164,-0.314236,-24.41951
11.185,2.0,1.0,1.0,33.2,34.2,34.2,4.1,2.8,2.7625,0.18051626825945136,-0.059765699492079806,0.9457873691916123,-0.019092645993566526,-0.328735,-24.048933
11.185,2.0,1.0,1.0,33.2,34.2,34.2,4.1,2.8,2.765,0.1671062627316018,-0.06209146588948529,0.9464666231839889,-0.0210473971515956,-0.34458,-23.666989
11.185,2.0,1.0,1.0,33.2,34.2,34.2,4.1,2.8,2.7675,0.15342029155317077,-0.06456007969350605,0.9468350310011096,-0.023207690025960345,-0.36196,-23.272926
11.185,2.0,1.0,1.0,33.2,34.2,34.2,4.1,2.8,2.77,0.13944568534838828,-0.0671827265722925,0.9468599218643469,-0.02560267956437977,-0.381098,-22.865921
11.185,2.0,1.0,1.0,33.2,34.2,34.2,4.1,2.8,2.7725,0.12516911660464233,-0.06997121961233654,0.9465031835111775,-0.028266837686957744,-0.402264,-22.445074
11.185,2.0,1.0,1.0,33.2,34.2,34.2,4.1,2.8,2.775,0.11057676514408346,-0.07293782873697711,0.9457200762765606,-0.031241131740537907,-0.425777,-22.009398
11.185,2.0,1.0,1.0,33.2,34.2,34.2,4.1,2.8,2.7775,0.09565461685033196,-0.0760949756479473,0.9444577430448526,-0.034574505748113354,-0.452028,-21.557813
11.185,2.0,1.0,1.0,33.2,34.2,34.2,4.1,2.8,2.78,0.08038896832749554,-0.07945472133108801,0.9426533289984387,-0.038325750060681715,-0.48149,-21.089135
11.185,2.0,1.0,1.0,33.2,34.2,34.2,4.1,2.8,2.7825,0.06476724882236043,-0.08302793446219495,0.9402316004845007,-0.04256586941945765,-0.514744,-20.602067
11.185,2.0,1.0,1.0,33.2,34.2,34.2,4.1,2.8,2.785,0.048779330753045184,-0.08682296899271663,0.9371019223025264,-0.04738108915175306,-0.552512,-20.095193
11.185,2.0,1.0,1.0,33.2,34.2,34.2,4.1,2.8,2.7875,0.032419593911965305,-0.09084358545740948,0.9331544183714731,-0.0528766731138318,-0.595691,-19.566967
11.185,2.0,1.0,1.0,33.2,34.2,34.2,4.1,2.8,2.79,0.01569015552156652,-0.09508570350141315,0.9282551066365513,-0.05918176041229575,-0.645412,-19.015719
11.185,2.0,1.0,1.0,33.2,34.2,34.2,4.1,2.8,2.7925,-0.001394090017162139,-0.09953234170770113,0.9222397777523139,-0.06645544823745023,-0.703113,-18.439656
11.185,2.0,1.0,1.0,33.2,34.2,34.2,4.1,2.8,2.795,-0.018797613000273286,-0.1041457365868196,0.9149064085027651,-0.07489432519477913,-0.770634,-17.836891
11.185,2.0,1.0,1.0,33.2,34.2,34.2,4.1,2.8,2.7975,-0.03645199177115745,-0.10885506252398777,0.9060060322576591,-0.0847415259475422,-0.850354,-17.205486
11.185,2.0,1.0,1.0,33.2,34.2,34.2,4.1,2.8,2.8,-0.05423679591676582,-0.11353729594494043,0.8952323748481229,-0.09629698873714036,-0.945373,-16.543552
11.185,2.0,1.0,1.0,33.2,34.2,34.2,4.1,2.8,2.8025,-0.0719498334240709,-0.11798745866935573,0.8822115083207358,-0.10992764913048585,-1.059755,-15.84941
11.185,2.0,1.0,1.0,33.2,34.2,34.2,4.1,2.8,2.805,-0.08926116503760048,-0.12187266624328728,0.866494892298551,-0.12607418160085693,-1.198836,-15.121881
11.185,2.0,1.0,1.0,33.2,34.2,34.2,4.1,2.8,2.8075,-0.10564318000654077,-0.12466232009518234,0.8475636543850162,-0.14524641683358383,-1.3696,-14.360775
11.185,2.0,1.0,1.0,33.2,34.2,34.2,4.1,2.8,2.81,-0.12026785599718468,-0.1255256504131889,0.8248609244881859,-0.1679906081947633,-1.581027,-13.567691
11.185,2.0,1.0,1.0,33.2,34.2,34.2,4.1,2.8,2.8125,-0.131866157624721,-0.123191711575224,0.797885581471019,-0.194795219302155,-1.844156,-12.747307
11.185,2.0,1.0,1.0,33.2,34.2,34.2,4.1,2.8,2.815,-0.13856419363797895,-0.11578667578672651,0.7664070270254186,-0.22587577192736588,-2.171121,-11.90936
11.185,2.0,1.0,1.0,33.2,34.2,34.2,4.1,2.8,2.8175,-0.13776944164996519,-0.10072198049844017,0.730888443466109,-0.2607517400404247,-2.571348,-11.071467
11.185,2.0,1.0,1.0,33.2,34.2,34.2,4.1,2.8,2.82,-0.126310274271506,-0.07483653090719845,0.6931895834503582,-0.29754539342369307,-3.041104,-10.262546
11.185,2.0,1.0,1.0,33.2,34.2,34.2,4.1,2.8,2.8225,-0.10121848585695481,-0.035181544326067675,0.657430997662363,-0.33212208758958583,-3.541253,-9.525584
11.185,2.0,1.0,1.0,33.2,34.2,34.2,4.1,2.8,2.825,-0.06154429665119377,0.019165751291526707,0.6303696767536908,-0.3577225455422329,-3.966893,-8.916625
11.185,2.0,1.0,1.0,33.2,34.2,34.2,4.1,2.8,2.8275,-0.010790300959245963,0.08467758184109929,0.6199985425197249,-0.366370951716349,-4.150871,-8.495568
