1,w,sub_t,h,l1,l2,l3,g1,g2,Freq,S11_re,S21_re,S11_img,S21_img,S11_dB,S21_dB
11.185,2.0,1.0,1.0,34.0,33.5,33.5,2.0,2.1,2.5,0.778434685079301,-0.0163963206856089,0.614876205577273,0.0126720764790964,-0.069902,-33.671169
11.185,2.0,1.0,1.0,34.0,33.5,33.5,2.0,2.1,2.5025,0.7737278855204748,-0.01672915306459013,0.6206435777082774,0.012714053445639636,-0.070697,-33.550578
11.185,2.0,1.0,1.0,34.0,33.5,33.5,2.0,2.1,2.505,0.7689531290867498,-0.01706830871509434,0.6264031408191842,0.012753926221912109,-0.071507,-33.429539
11.185,2.0,1.0,1.0,34.0,33.5,33.5,2.0,2.1,2.5075,0.7641096725245279,-0.017413918942684126,0.6321543975538773,0.012791594675865757,-0.072332,-33.308045
11.185,2.0,1.0,1.0,34.0,33.5,33.5,2.0,2.1,2.51,0.7591967611901587,-0.017766118192424168,0.6378968348722668,0.01282695463262508,-0.073175,-33.186088
11.185,2.0,1.0,1.0,34.0,33.5,33.5,2.0,2.1,2.5125,0.75421362890444,-0.018125044129386442,0.6436299235293026,0.012859897700566555,-0.074033,-33.063661
11.185,2.0,1.0,1.0,34.0,33.5,33.5,2.0,2.1,2.515,0.7491594978075498,-0.018490837721064093,0.6493531175358126,0.012890311089245113,-0.074909,-32.940754
11.185,2.0,1.0,1.0,34.0,33.5,33.5,2.0,2.1,2.5175,0.7440335782146031,-0.01886364332171417,0.6550658536004418,0.01291807741874809,-0.075803,-32.817361
11.185,2.0,1.0,1.0,34.0,33.5,33.5,2.0,2.1,2.52,0.7388350684720258,-0.019243608758647526,0.6607675505519868,0.012943074520034318,-0.076714,-32.693472
11.185,2.0,1.0,1.0,34.0,33.5,33.5,2.0,2.1,2.5225,0.7335631548149781,-0.01963088542048033,0.6664576087413322,0.012965175225790902,-0.077644,-32.569079
11.185,2.0,1.0,1.0,34.0,33.5,33.5,2.0,2.1,2.525,0.7282170112260401,-0.020025628347359135,0.6721354094222158,0.012984247151313178,-0.078593,-32.444175
11.185,2.0,1.0,1.0,34.0,33.5,33.5,2.0,2.1,2.5275,0.7227957992954197,-0.02042799632316589,0.6778003141099771,0.013000152464884843,-0.079562,-32.318749
11.185,2.0,1.0,1.0,34.0,33.5,33.5,2.0,2.1,2.53,0.717298668082953,-0.02083815196970755,0.6834516639174192,0.013012747647105565,-0.08055,-32.192794
11.185,2.0,1.0,1.0,34.0,33.5,33.5,2.0,2.1,2.5325,0.7117247539821777,-0.021256261842886166,0.6890887788668734,0.01302188323858141,-0.08156,-32.066301
11.185,2.0,1.0,1.0,34.0,33.5,33.5,2.0,2.1,2.535,0.706073180586792,-0.021682496530843528,0.694710957177523,0.01302740357535771,-0.08259,-31.93926
11.185,2.0,1.0,1.0,34.0,33.5,33.5,2.0,2.1,2.5375,0.7003430585598347,-0.022117030754064612,0.7003174745269756,0.013029146511440333,-0.083642,-31.811662
11.185,2.0,1.0,1.0,34.0,33.5,33.5,2.0,2.1,2.54,0.6945334855059346,-0.022560043467419553,0.7059075832860571,0.0130269431277099,-0.084717,-31.683498
11.185,2.0,1.0,1.0,34.0,33.5,33.5,2.0,2.1,2.5425,0.6886435458470167,-0.02301171796411448,0.7114805117257296,0.013020617426494248,-0.085814,-31.554758
11.185,2.0,1.0,1.0,34.0,33.5,33.5,2.0,2.1,2.545,0.6826723107018691,-0.023472241981512945,0.7170354631949991,0.013009986011019695,-0.086936,-31.425433
11.185,2.0,1.0,1.0,34.0,33.5,33.5,2.0,2.1,2.5475,0.67661883777002,-0.023941807808778182,0.7225716152686021,0.012994857748914122,-0.088081,-31.295513
11.185,2.0,1.0,1.0,34.0,33.5,33.5,2.0,2.1,2.55,0.6704821712203762,-0.02442061239628001,0.7280881188632444,0.012975033418887498,-0.089252,-31.164988
11.185,2.0,1.0,1.0,34.0,33.5,33.5,2.0,2.1,2.5525,0.6642613415851545,-0.02490885746668964,0.733584097321052,0.012950305339658918,-0.090449,-31.033847
11.185,2.0,1.0,1.0,34.0,33.5,33.5,2.0,2.1,2.555,0.6579553656596205,-0.025406749627680428,0.7390586454588757,0.012920456980145193,-0.091672,-30.902081
11.185,2.0,1.0,1.0,34.0,33.5,33.5,2.0,2.1,2.5575,0.6515632464082289,-0.025914500486131226,0.7445108285820029,0.012885262549863686,-0.092923,-30.769678
11.185,2.0,1.0,1.0,34.0,33.5,33.5,2.0,2.1,2.56,0.645083972877787,-0.026432326763714084,0.7499396814607558,0.012844486568438455,-0.094201,-30.636629
11.185,2.0,1.0,1.0,34.0,33.5,33.5,2.0,2.1,2.5625,0.6385165201183016,-0.02696045041372859,0.7553442072683844,0.012797883413029084,-0.095509,-30.502921
11.185,2.0,1.0,1.0,34.0,33.5,33.5,2.0,2.1,2.565,0.631859849112227,-0.027499098739024452,0.7607233764785951,0.012745196842427522,-0.096847,-30.368544
11.185,2.0,1.0,1.0,34.0,33.5,33.5,2.0,2.1,2.5675,0.6251129067128849,-0.02804850451082911,0.7660761257209384,0.012686159496489807,-0.098216,-30.233487
11.185,2.0,1.0,1.0,34.0,33.5,33.5,2.0,2.1,2.57,0.61827462559287,-0.028608906088272733,0.7714013565922293,0.012620492369484423,-0.099616,-30.097738
11.185,2.0,1.0,1.0,34.0,33.5,33.5,2.0,2.1,2.5725,0.6113439242033296,-0.0291805475383728,0.7766979344220406,0.012547904255849613,-0.10105,-29.961285
11.185,2.0,1.0,1.0,34.0,33.5,33.5,2.0,2.1,2.575,0.6043197067450566,-0.02976367875620871,0.7819646869902398,0.012468091166753343,-0.102517,-29.824117
11.185,2.0,1.0,1.0,34.0,33.5,33.5,2.0,2.1,2.5775,0.5972008631524204,-0.030358555584981677,0.7872004031944051,0.012380735715748532,-0.104019,-29.68622
11.185,2.0,1.0,1.0,34.0,33.5,33.5,2.0,2.1,2.58,0.5899862690912195,-0.030965439935614465,0.7924038316648524,0.012285506471702694,-0.105557,-29.547584
11.185,2.0,1.0,1.0,34.0,33.5,33.5,2.0,2.1,2.5825,0.5826747859716286,-0.03158459990550377,0.7975736793248945,0.012182057277063398,-0.107132,-29.408194
11.185,2.0,1.0,1.0,34.0,33.5,33.5,2.0,2.1,2.585,0.575265260977495,-0.03221630989598784,0.8027086098937966,0.012070026529393806,-0.108746,-29.268038
11.185,2.0,1.0,1.0,34.0,33.5,33.5,2.0,2.1,2.5875,0.56775652711334,-0.032860850728039015,0.8078072423297746,0.011949036423973736,-0.110399,-29.127103
11.185,2.0,1.0,1.0,34.0,33.5,33.5,2.0,2.1,2.59,0.5601474032705166,-0.03351850975563072,0.8128681492102271,0.011818692155117263,-0.112094,-28.985375
11.185,2.0,1.0,1.0,34.0,33.5,33.5,2.0,2.1,2.5925,0.5524366943140818,-0.03418958097616389,0.817889855046226,0.01167858107369766,-0.11383,-28.842841
11.185,2.0,1.0,1.0,34.0,33.5,33.5,2.0,2.1,2.595,0.5446231911920784,-0.03487436513726167,0.8228708345281388,0.011528271798203558,-0.115611,-28.699486
11.185,2.0,1.0,1.0,34.0,33.5,33.5,2.0,2.1,2.5975,0.5367056710690185,-0.03557316983916379,0.827809510699047,0.011367313276465856,-0.117437,-28.555297
11.185,2.0,1.0,1.0,34.0,33.5,33.5,2.0,2.1,2.6,0.5286828974855283,-0.036286309631859505,0.8327042530524722,0.011195233795000429,-0.119309,-28.410258
11.185,2.0,1.0,1.0,34.0,33.5,33.5,2.0,2.1,2.6025,0.5205536205462632,-0.0370141061059975,0.8375533755506597,0.011011539932701108,-0.12123,-28.264355
11.185,2.0,1.0,1.0,34.0,33.5,33.5,2.0,2.1,2.605,0.5123165771383404,-0.037756887976503846,0.8423551345595027,0.010815715455390605,-0.123201,-28.117573
11.185,2.0,1.0,1.0,34.0,33.5,33.5,2.0,2.1,2.6075,0.5039704911827513,-0.03851499115771135,0.8471077266959104,0.010607220147492671,-0.125224,-27.969895
11.185,2.0,1.0,1.0,34.0,33.5,33.5,2.0,2.1,2.61,0.4955140739213891,-0.039288758828671215,0.851809286583187,0.010385488576827183,-0.127301,-27.821306
11.185,2.0,1.0,1.0,34.0,33.5,33.5,2.0,2.1,2.6125,0.4869460242425425,-0.04007854148716315,0.8564578845097126,0.010149928788246308,-0.129434,-27.67179
11.185,2.0,1.0,1.0,34.0,33.5,33.5,2.0,2.1,2.615,0.47826502904793616,-0.040884696990754664,0.861051523985923,0.009899920921523891,-0.131624,-27.52133
11.185,2.0,1.0,1.0,34.0,33.5,33.5,2.0,2.1,2.6175,0.4694697636646693,-0.04170759058306865,0.8655881391942524,0.009634815748583015,-0.133874,-27.369909
11.185,2.0,1.0,1.0,34.0,33.5,33.5,2.0,2.1,2.62,0.46055889230565566,-0.04254759490321377,0.8700655923263892,0.009353933124790078,-0.136186,-27.21751
11.185,2.0,1.0,1.0,34.0,33.5,33.5,2.0,2.1,2.6225,0.4515310685824797,-0.04340508997609978,0.874481670801814,0.009056560348660819,-0.138562,-27.064114
11.185,2.0,1.0,1.0,34.0,33.5,33.5,2.0,2.1,2.625,0.44238493607494,-0.0442804631810981,0.878834084361176,0.00874195042391067,-0.141005,-26.909704
11.185,2.0,1.0,1.0,34.0,33.5,33.5,2.0,2.1,2.6275,0.4331191289618637,-0.045174109196226886,0.8831204620276822,0.00840932021733412,-0.143518,-26.75426
11.185,2.0,1.0,1.0,34.0,33.5,33.5,2.0,2.1,2.63,0.4237322727182296,-0.04608642991471372,0.8873383489291661,0.008057848505513394,-0.146102,-26.597765
11.185,2.0,1.0,1.0,34.0,33.5,33.5,2.0,2.1,2.6325,0.41422298488403736,-0.04701783433043544,0.8914852029730422,0.007686673902837288,-0.148761,-26.440197
11.185,2.0,1.0,1.0,34.0,33.5,33.5,2.0,2.1,2.635,0.4045898759108689,-0.04796873838833486,0.8955583913658005,0.007294892662742112,-0.151498,-26.281538
11.185,2.0,1.0,1.0,34.0,33.5,33.5,2.0,2.1,2.6375,0.39483155009261944,-0.04893956479547008,0.8995551869681069,0.006881556343478351,-0.154315,-26.121767
11.185,2.0,1.0,1.0,34.0,33.5,33.5,2.0,2.1,2.64,0.38494660658742724,-0.049930742787855587,0.9034727644759905,0.0064456693290418365,-0.157217,-25.960862
11.185,2.0,1.0,1.0,34.0,33.5,33.5,2.0,2.1,2.6425,0.3749336405385456,-0.05094270784769875,0.9073081964178724,0.005986186195193255,-0.160206,-25.798802
11.185,2.0,1.0,1.0,34.0,33.5,33.5,2.0,2.1,2.645,0.36479124430256654,-0.0519759013650147,0.9110584489564753,0.005502008909712055,-0.163285,-25.635564
11.185,2.0,1.0,1.0,34.0,33.5,33.5,2.0,2.1,2.6475,0.35451800879422407,-0.05303077023690729,0.9147203774838933,0.004991983855189544,-0.16646,-25.471127
11.185,2.0,1.0,1.0,34.0,33.5,33.5,2.0,2.1,2.65,0.34411252495787165,-0.054107766397029654,0.9182907219971884,0.0044548986617523635,-0.169734,-25.305467
11.185,2.0,1.0,1.0,34.0,33.5,33.5,2.0,2.1,2.6525,0.33357338537675674,-0.05520734626685603,0.9217661022409775,0.0038894788361213354,-0.17311,-25.13856
11.185,2.0,1.0,1.0,34.0,33.5,33.5,2.0,2.1,2.655,0.3228991860322236,-0.056329970119431125,0.9251430126024791,0.003294384172333118,-0.176593,-24.970381
11.185,2.0,1.0,1.0,34.0,33.5,33.5,2.0,2.1,2.6575,0.31208852822627137,-0.05747610134515383,0.9284178167433534,0.002668204928292136,-0.180189,-24.800905
11.185,2.0,1.0,1.0,34.0,33.5,33.5,2.0,2.1,2.66,0.30114002068219065,-0.05864620560792563,0.9315867419515172,0.002009457751055985,-0.183901,-24.630106
11.185,2.0,1.0,1.0,34.0,33.5,33.5,2.0,2.1,2.6625,0.2900522818395479,-0.05984074987860146,0.9346458731948074,0.001316581332387286,-0.187736,-24.457958
11.185,2.0,1.0,1.0,34.0,33.5,33.5,2.0,2.1,2.665,0.2788239423614337,-0.061060201331125205,0.9375911468569725,0.0005879317746166798,-0.191698,-24.284433
11.185,2.0,1.0,1.0,34.0,33.5,33.5,2.0,2.1,2.6675,0.2674536478738332,-0.062305026084967456,0.9404183441349501,-0.00017822235474775674,-0.195793,-24.109503
11.185,2.0,1.0,1.0,34.0,33.5,33.5,2.0,2.1,2.67,0.2559400619590318,-0.06357568777550583,0.9431230840747482,-0.000983705302985343,-0.200028,-23.933139
11.185,2.0,1.0,1.0,34.0,33.5,33.5,2.0,2.1,2.6725,0.2442818694273838,-0.06487264593175202,0.9457008162214375,-0.0018304397719188556,-0.204409,-23.755312
11.185,2.0,1.0,1.0,34.0,33.5,33.5,2.0,2.1,2.675,0.23247777989442553,-0.06619635413829769,0.9481468128568397,-0.002720452944739875,-0.208942,-23.57599
11.185,2.0,1.0,1.0,34.0,33.5,33.5,2.0,2.1,2.6775,0.2205265316933039,-0.0675472579555058,0.9504561607963801,-0.003655882929416047,-0.213636,-23.395142
11.185,2.0,1.0,1.0,34.0,33.5,33.5,2.0,2.1,2.68,0.20842689615587162,-0.0689257925687365,0.9526237527142856,-0.004638985650614992,-0.218497,-23.212736
11.185,2.0,1.0,1.0,34.0,33.5,33.5,2.0,2.1,2.6825,0.19617768229962346,-0.0703323801337418,0.9546442779638287,-0.0056721422246997204,-0.223535,-23.028738
11.185,2.0,1.0,1.0,34.0,33.5,33.5,2.0,2.1,2.685,0.18377774196191365,-0.07176742678121664,0.9565122128566443,-0.006757866855193166,-0.228757,-22.843114
11.185,2.0,1.0,1.0,34.0,33.5,33.5,2.0,2.1,2.6875,0.17122597542779738,-0.07323131923878717,0.9582218103622162,-0.007898815289176245,-0.234174,-22.655829
11.185,2.0,1.0,1.0,34.0,33.5,33.5,2.0,2.1,2.69,0.15852133760330853,-0.07472442102337061,0.9597670891855421,-0.009097793878398045,-0.239795,-22.466844
11.185,2.0,1.0,1.0,34.0,33.5,33.5,2.0,2.1,2.6925,0.1456628447922406,-0.07624706815076779,0.9611418221775248,-0.010357769292457372,-0.24563,-22.276124
11.185,2.0,1.0,1.0,34.0,33.5,33.5,2.0,2.1,2.695,0.13264958214160408,-0.0777995643024254,0.9623395240290527,-0.011681878935254337,-0.251691,-22.083628
11.185,2.0,1.0,1.0,34.0,33.5,33.5,2.0,2.1,2.6975,0.11948071182891533,-0.0793821753814299,0.9633534381957849,-0.013073442120056641,-0.257991,-21.889317
11.185,2.0,1.0,1.0,34.0,33.5,33.5,2.0,2.1,2.7,0.10615548207373882,-0.08099512338079756,0.9641765229964244,-0.014535972062942137,-0.264541,-21.693148
11.185,2.0,1.0,1.0,34.0,33.5,33.5,2.0,2.1,2.7025,0.09267323706621661,-0.08263857947686863,0.9648014368228478,-0.01607318875912085,-0.271355,-21.49508
11.185,2.0,1.0,1.0,34.0,33.5,33.5,2.0,2.1,2.705,0.07903342791736165,-0.08431265624887252,0.9652205223955708,-0.017689032811660916,-0.278449,-21.295068
11.185,2.0,1.0,1.0,34.0,33.5,33.5,2.0,2.1,2.7075,0.0652356247493818,-0.08601739891231375,0.9654257899930858,-0.019387680287478552,-0.285838,-21.093066
11.185,2.0,1.0,1.0,34.0,33.5,33.5,2.0,2.1,2.71,0.05127953005994167,-0.08775277543844809,0.9654088995781981,-0.021173558681049094,-0.293538,-20.889027
11.185,2.0,1.0,1.0,34.0,33.5,33.5,2.0,2.1,2.7125,0.03716499351204513,-0.08951866541448944,0.9651611417389672,-0.023051364072156865,-0.301569,-20.682901
11.185,2.0,1.0,1.0,34.0,33.5,33.5,2.0,2.1,2.715,0.02289202832167813,-0.09131484747894937,0.9646734173561297,-0.02502607957005247,-0.309949,-20.474639
11.185,2.0,1.0,1.0,34.0,33.5,33.5,2.0,2.1,2.7175,0.008460829438747338,-0.09314098514326183,0.9639362159030123,-0.02710299514257837,-0.318699,-20.264189
11.185,2.0,1.0,1.0,34.0,33.5,33.5,2.0,2.1,2.72,-0.0061282062560928845,-0.09499661078409533,0.962939592278062,-0.029287728935037727,-0.327843,-20.051496
11.185,2.0,1.0,1.0,34.0,33.5,33.5,2.0,2.1,2.7225,-0.020874457485287417,-0.09688110755997156,0.9616731420644131,-0.03158625018970412,-0.337404,-19.836504
11.185,2.0,1.0,1.0,34.0,33.5,33.5,2.0,2.1,2.725,-0.035777053549603054,-0.09879368897031046,0.9601259751054592,-0.034004903882669545,-0.34741,-19.619155
11.185,2.0,1.0,1.0,34.0,33.5,33.5,2.0,2.1,2.7275,-0.05083484641440169,-0.10073337573409798,0.9582866872805683,-0.0365504372000125,-0.357887,-19.399391
11.185,2.0,1.0,1.0,34.0,33.5,33.5,2.0,2.1,2.73,-0.06604637952903512,-0.10269896961809742,0.9561433303611302,-0.03923002797961334,-0.368867,-19.177148
11.185,2.0,1.0,1.0,34.0,33.5,33.5,2.0,2.1,2.7325,-0.08140985294666193,-0.10468902378991526,0.9536833798245835,-0.042051315247997476,-0.380384,-18.952363
11.185,2.0,1.0,1.0,34.0,33.5,33.5,2.0,2.1,2.735,-0.0969230842482554,-0.10670180920806029,0.9508937005034266,-0.045022431982665714,-0.392473,-18.724969
11.185,2.0,1.0,1.0,34.0,33.5,33.5,2.0,2.1,2.7375,-0.11258346470132462,-0.10873527648803993,0.9477605099483921,-0.04815204022878961,-0.405174,-18.494898
11.185,2.0,1.0,1.0,34.0,33.5,33.5,2.0,2.1,2.74,-0.12838790999876903,-0.11078701259887659,0.944269339390738,-0.051449368693848974,-0.418529,-18.262079
11.185,2.0,1.0,1.0,34.0,33.5,33.5,2.0,2.1,2.7425,-0.14433280482499983,-0.112854191646353,0.9404049921995394,-0.05492425293352677,-0.432586,-18.026438
11.185,2.0,1.0,1.0,34.0,33.5,33.5,2.0,2.1,2.745,-0.16041394038235848,-0.11493351888560571,0.9361514997473873,-0.0585871782252512,-0.447394,-17.7879
11.185,2.0,1.0,1.0,34.0,33.5,33.5,2.0,2.1,2.7475,-0.1766264438786925,-0.11702116697389686,0.9314920746243109,-0.062449325200072014,-0.46301,-17.546386
11.185,2.0,1.0,1.0,34.0,33.5,33.5,2.0,2.1,2.75,-0.192964698823713,-0.119112703321607,0.926409061177744,-0.0665226182663015,-0.479494,-17.301814
11.185,2.0,1.0,1.0,34.0,33.5,33.5,2.0,2.1,2.7525,-0.20942225480419036,-0.12120300722238696,0.920883883409513,-0.07081977680601391,-0.496912,-17.054101
11.185,2.0,1.0,1.0,34.0,33.5,33.5,2.0,2.1,2.755,-0.22599172520224564,-0.1232861752382418,0.9148969903337075,-0.07535436905352799,-0.515338,-16.803161
11.185,2.0,1.0,1.0,34.0,33.5,33.5,2.0,2.1,2.7575,-0.2426646710830265,-0.12535541307783749,0.9084277989976934,-0.08014086846761499,-0.534852,-16.548903
11.185,2.0,1.0,1.0,34.0,33.5,33.5,2.0,2.1,2.76,-0.2594314692026041,-0.12740291193176134,0.9014546354999508,-0.0851947122788861,-0.555543,-16.291236
11.185,2.0,1.0,1.0,34.0,33.5,33.5,2.0,2.1,2.7625,-0.276281161769434,-0.12941970691165208,0.893954674512347,-0.09053236172118548,-0.577507,-16.030066
11.185,2.0,1.0,1.0,34.0,33.5,33.5,2.0,2.1,2.765,-0.29320128522704014,-0.13139551487540443,0.8859038780431606,-0.09617136322862582,-0.600852,-15.765295
11.185,2.0,1.0,1.0,34.0,33.5,33.5,2.0,2.1,2.7675,-0.3101776749060074,-0.13331854850219327,0.8772769344760449,-0.102130409582722,-0.625699,-15.496823
11.185,2.0,1.0,1.0,34.0,33.5,33.5,2.0,2.1,2.77,-0.3271942419142326,-0.13517530300303984,0.8680471993091652,-0.10842939960713269,-0.652178,-15.224548
11.185,2.0,1.0,1.0,34.0,33.5,33.5,2.0,2.1,2.7725,-0.3442327180900524,-0.13695031130966517,0.8581866395229735,-0.11508949450567728,-0.680438,-14.948367
11.185,2.0,1.0,1.0,34.0,33.5,33.5,2.0,2.1,2.775,-0.3612723642291332,-0.1386258629723241,0.847665784156578,-0.12213316829068611,-0.710642,-14.668174
11.185,2.0,1.0,1.0,34.0,33.5,33.5,2.0,2.1,2.7775,-0.37828963611159694,-0.14018168131432135,0.8364536845120508,-0.12958424891290143,-0.742972,-14.383861
11.185,2.0,1.0,1.0,34.0,33.5,33.5,2.0,2.1,2.78,-0.3952578021020412,-0.14159455263912846,0.8245178884843125,-0.13746794563004508,-0.777633,-14.095321
11.185,2.0,1.0,1.0,34.0,33.5,33.5,2.0,2.1,2.7825,-0.41214650528122304,-0.14283790047406383,0.8118244348961273,-0.14581085677448408,-0.814855,-13.802445
11.185,2.0,1.0,1.0,34.0,33.5,33.5,2.0,2.1,2.785,-0.428921262212951,-0.14388129698113283,0.7983378754837228,-0.15464095032080696,-0.854893,-13.505128
11.185,2.0,1.0,1.0,34.0,33.5,33.5,2.0,2.1,2.7875,-0.4455428895868791,-0.14468990280497576,0.7840213344291599,-0.16398750741132725,-0.898037,-13.203262
11.185,2.0,1.0,1.0,34.0,33.5,33.5,2.0,2.1,2.79,-0.46196684916559205,-0.14522382581708432,0.7688366181944575,-0.17388101614832066,-0.944615,-12.896747
11.185,2.0,1.0,1.0,34.0,33.5,33.5,2.0,2.1,2.7925,-0.4781425007927553,-0.14543738854530738,0.752744392030663,-0.18435299935554203,-0.994994,-12.585485
11.185,2.0,1.0,1.0,34.0,33.5,33.5,2.0,2.1,2.795,-0.49401225282891986,-0.14527829368777048,0.7357044440934783,-0.19543575546784855,-1.049594,-12.269386
11.185,2.0,1.0,1.0,34.0,33.5,33.5,2.0,2.1,2.7975,-0.5095105994820545,-0.1446866772098333,0.7176760638086919,-0.20716198601429317,-1.108889,-11.948369
11.185,2.0,1.0,1.0,34.0,33.5,33.5,2.0,2.1,2.8,-0.5245630353996249,-0.14359403941909782,0.6986185682371281,-0.21956427607578902,-1.173421,-11.622366
11.185,2.0,1.0,1.0,34.0,33.5,33.5,2.0,2.1,2.8025,-0.5390848400333119,-0.14192204655091856,0.6784920189530215,-0.23267438536152643,-1.243809,-11.291326
11.185,2.0,1.0,1.0,34.0,33.5,33.5,2.0,2.1,2.805,-0.5529797283097567,-0.13958119940715105,0.6572581826332121,-0.24652229689779848,-1.320761,-10.955217
11.185,2.0,1.0,1.0,34.0,33.5,33.5,2.0,2.1,2.8075,-0.5661383709280472,-0.13646937235850157,0.6348818013786185,-0.2611349575384442,-1.405089,-10.614035
11.185,2.0,1.0,1.0,34.0,33.5,33.5,2.0,2.1,2.81,-0.5784367983775395,-0.13247023676316808,0.6113322538623714,-0.2765346294801049,-1.497728,-10.267808
11.185,2.0,1.0,1.0,34.0,33.5,33.5,2.0,2.1,2.8125,-0.5897347191754735,-0.12745159921452262,0.5865857055950141,-0.2927367548238262,-1.599756,-9.916608
11.185,2.0,1.0,1.0,34.0,33.5,33.5,2.0,2.1,2.815,-0.5998738070336409,-0.1212637091728546,0.5606278653618308,-0.3097472165212432,-1.712421,-9.560555
11.185,2.0,1.0,1.0,34.0,33.5,33.5,2.0,2.1,2.8175,-0.6086760464475987,-0.11373762522389158,0.5334574839356792,-0.32755886006136575,-1.837167,-9.199833
11.185,2.0,1.0,1.0,34.0,33.5,33.5,2.0,2.1,2.82,-0.6159422749472934,-0.10468377781585193,0.505090748036272,-0.34614712345286985,-1.975673,-8.834702
11.185,2.0,1.0,1.0,34.0,33.5,33.5,2.0,2.1,2.8225,-0.6214511268254603,-0.09389093271588445,0.4755667329103273,-0.36546461271119834,-2.129895,-8.465513
11.185,2.0,1.0,1.0,34.0,33.5,33.5,2.0,2.1,2.825,-0.6249586715152996,-0.08112584752594869,0.44495407388534236,-0.38543446311585927,-2.302111,-8.092731
11.185,2.0,1.0,1.0,34.0,33.5,33.5,2.0,2.1,2.8275,-0.6261991530285076,-0.06613402649864468,0.41335899009988275,-0.4059423536393083,-2.494985,-7.716949
11.185,2.0,1.0,1.0,34.0,33.5,33.5,2.0,2.1,2.83,-0.6248873755333328,-0.04864211712370272,0.3809347267479954,-0.42682710871312307,-2.711631,-7.33892
