1,w,sub_t,h,l1,l2,l3,g1,g2,Freq,S11_re,S21_re,S11_img,S21_img,S11_dB,S21_dB
11.185,2.0,1.0,1.0,33.6,34.5,34.5,4.2,4.3,2.5,0.837841368487524,-0.00550158735601365,0.534346317011815,0.00304040957651478,-0.054611,-44.032759
11.185,2.0,1.0,1.0,33.6,34.5,34.5,4.2,4.3,2.5025,0.8341895886808726,-0.00560964568359661,0.539913125554169,0.0030432802955488707,-0.055164,-43.90089
11.185,2.0,1.0,1.0,33.6,34.5,34.5,4.2,4.3,2.505,0.8304843047002022,-0.0057197789223850555,0.5454778813525244,0.003045448298618631,-0.055727,-43.768476
11.185,2.0,1.0,1.0,33.6,34.5,34.5,4.2,4.3,2.5075,0.8267249752225936,-0.005832040588024513,0.5510403175387127,0.0030468868972687124,-0.056302,-43.6355
11.185,2.0,1.0,1.0,33.6,34.5,34.5,4.2,4.3,2.51,0.8229110494886596,-0.00594648619355448,0.5566001592423232,0.0030475682940425417,-0.056889,-43.501944
11.185,2.0,1.0,1.0,33.6,34.5,34.5,4.2,4.3,2.5125,0.819041967089251,-0.006063173347394121,0.5621571233221672,0.003047463524883053,-0.057487,-43.367788
11.185,2.0,1.0,1.0,33.6,34.5,34.5,4.2,4.3,2.515,0.8151171577444225,-0.0061821618572598935,0.5677109180876633,0.0030465423978594114,-0.058097,-43.233014
11.185,2.0,1.0,1.0,33.6,34.5,34.5,4.2,4.3,2.5175,0.8111360410741946,-0.006303513840439627,0.5732612430096307,0.003044773427938739,-0.05872,-43.097602
11.185,2.0,1.0,1.0,33.6,34.5,34.5,4.2,4.3,2.52,0.8070980263605935,-0.006427293840883082,0.578807788419992,0.003042123767497684,-0.059356,-42.961532
11.185,2.0,1.0,1.0,33.6,34.5,34.5,4.2,4.3,2.5225,0.8030025123004285,-0.00655356895360632,0.5843502351997998,0.0030385591322408916,-0.060006,-42.824784
11.185,2.0,1.0,1.0,33.6,34.5,34.5,4.2,4.3,2.525,0.7988488867481981,-0.006682408956950013,0.5898882544550079,0.0030340437221637964,-0.060668,-42.687336
11.185,2.0,1.0,1.0,33.6,34.5,34.5,4.2,4.3,2.5275,0.7946365264484774,-0.006813886453277101,0.5954215071793426,0.003028540137162656,-0.061345,-42.549166
11.185,2.0,1.0,1.0,33.6,34.5,34.5,4.2,4.3,2.53,0.7903647967570854,-0.006948077018745103,0.6009496439035779,0.003022009286859522,-0.062037,-42.410252
11.185,2.0,1.0,1.0,33.6,34.5,34.5,4.2,4.3,2.5325,0.7860330513502621,-0.007085059362843982,0.6064723043304836,0.0030144102941678072,-0.062744,-42.270571
11.185,2.0,1.0,1.0,33.6,34.5,34.5,4.2,4.3,2.535,0.7816406319210163,-0.007224915498450578,0.6119891169546547,0.0030057003920799866,-0.063466,-42.130099
11.185,2.0,1.0,1.0,33.6,34.5,34.5,4.2,4.3,2.5375,0.7771868678617434,-0.007367730923216626,0.6174996986663526,0.0029958348131086826,-0.064204,-41.988812
11.185,2.0,1.0,1.0,33.6,34.5,34.5,4.2,4.3,2.54,0.7726710759321141,-0.0075135948131811615,0.6230036543384492,0.0029847666707570352,-0.064958,-41.846684
11.185,2.0,1.0,1.0,33.6,34.5,34.5,4.2,4.3,2.5425,0.7680925599111511,-0.007662600229577653,0.6285005763954689,0.002972446832333403,-0.06573,-41.70369
11.185,2.0,1.0,1.0,33.6,34.5,34.5,4.2,4.3,2.545,0.7634506102323154,-0.00781484433989522,0.6339900443636513,0.0029588237823565612,-0.066519,-41.559802
11.185,2.0,1.0,1.0,33.6,34.5,34.5,4.2,4.3,2.5475,0.7587445036003078,-0.00797042865435074,0.6394716244008536,0.002943843475721666,-0.067326,-41.414992
11.185,2.0,1.0,1.0,33.6,34.5,34.5,4.2,4.3,2.55,0.7539735025881622,-0.008129459279036728,0.6449448688050434,0.0029274491797131293,-0.068152,-41.269233
11.185,2.0,1.0,1.0,33.6,34.5,34.5,4.2,4.3,2.5525,0.7491368552130939,-0.008292047187128507,0.6504093154999683,0.0029095813038555484,-0.068997,-41.122493
11.185,2.0,1.0,1.0,33.6,34.5,34.5,4.2,4.3,2.555,0.7442337944893876,-0.008458308509666931,0.6558644874965226,0.002890177216488433,-0.069863,-40.974744
11.185,2.0,1.0,1.0,33.6,34.5,34.5,4.2,4.3,2.5575,0.7392635379564602,-0.008628364847578349,0.6613098923281551,0.002869171046832539,-0.070749,-40.825952
11.185,2.0,1.0,1.0,33.6,34.5,34.5,4.2,4.3,2.56,0.7342252871800508,-0.008802343606755674,0.6667450214585156,0.00284649347118332,-0.071657,-40.676085
11.185,2.0,1.0,1.0,33.6,34.5,34.5,4.2,4.3,2.5625,0.7291182272242743,-0.008980378358204486,0.6721693496593819,0.002822071481718641,-0.072587,-40.52511
11.185,2.0,1.0,1.0,33.6,34.5,34.5,4.2,4.3,2.565,0.7239415260920468,-0.0091626092254579,0.6775823343567009,0.0027958281362415204,-0.073541,-40.37299
11.185,2.0,1.0,1.0,33.6,34.5,34.5,4.2,4.3,2.5675,0.7186943341311491,-0.00934918330168633,0.6829834149423646,0.002767682286990649,-0.074518,-40.219689
11.185,2.0,1.0,1.0,33.6,34.5,34.5,4.2,4.3,2.57,0.7133757834028941,-0.009540255099176288,0.6883720120491137,0.0027375482864413964,-0.075521,-40.065169
11.185,2.0,1.0,1.0,33.6,34.5,34.5,4.2,4.3,2.5725,0.7079849870100511,-0.00973598703412895,0.693747526785681,0.002705335667780468,-0.076549,-39.90939
11.185,2.0,1.0,1.0,33.6,34.5,34.5,4.2,4.3,2.575,0.7025210383803309,-0.009936549950037817,0.699109339928982,0.0026709487974695277,-0.077604,-39.752312
11.185,2.0,1.0,1.0,33.6,34.5,34.5,4.2,4.3,2.5775,0.6969830105013298,-0.010142123683250398,0.7044568110698206,0.0026342864970074703,-0.078687,-39.593892
11.185,2.0,1.0,1.0,33.6,34.5,34.5,4.2,4.3,2.58,0.6913699551023911,-0.010352897674705323,0.709789277708186,0.002595241630656619,-0.0798,-39.434085
11.185,2.0,1.0,1.0,33.6,34.5,34.5,4.2,4.3,2.5825,0.6856809017783336,-0.010569071632270641,0.7151060542937887,0.002553700655505128,-0.080942,-39.272846
11.185,2.0,1.0,1.0,33.6,34.5,34.5,4.2,4.3,2.585,0.6799148570494474,-0.010790856248595201,0.7204064312069642,0.002509543129792901,-0.082116,-39.110125
11.185,2.0,1.0,1.0,33.6,34.5,34.5,4.2,4.3,2.5875,0.6740708033515055,-0.01101847397993334,0.7256896736745327,0.0024626411749194164,-0.083323,-38.945873
11.185,2.0,1.0,1.0,33.6,34.5,34.5,4.2,4.3,2.59,0.6681476979488509,-0.011252159892019078,0.7309550206145314,0.0024128588859724386,-0.084565,-38.780038
11.185,2.0,1.0,1.0,33.6,34.5,34.5,4.2,4.3,2.5925,0.6621444717627871,-0.011492162579762216,0.7362016834030268,0.002360051684952901,-0.085842,-38.612565
11.185,2.0,1.0,1.0,33.6,34.5,34.5,4.2,4.3,2.595,0.6560600281066201,-0.011738745168322727,0.7414288445553437,0.0023040656101120795,-0.087157,-38.443396
11.185,2.0,1.0,1.0,33.6,34.5,34.5,4.2,4.3,2.5975,0.6498932413176348,-0.011992186404009836,0.7466356563131131,0.0022447365339438195,-0.08851,-38.272471
11.185,2.0,1.0,1.0,33.6,34.5,34.5,4.2,4.3,2.6,0.643642955275155,-0.012252781844457142,0.7518212391274124,0.0021818893013719107,-0.089905,-38.09973
11.185,2.0,1.0,1.0,33.6,34.5,34.5,4.2,4.3,2.6025,0.6373079817924956,-0.012520845158667528,0.756984680026997,0.00211533677851625,-0.091342,-37.925105
11.185,2.0,1.0,1.0,33.6,34.5,34.5,4.2,4.3,2.605,0.6308870988691005,-0.012796709548819861,0.7621250308591699,0.002044878801084468,-0.092825,-37.748528
11.185,2.0,1.0,1.0,33.6,34.5,34.5,4.2,4.3,2.6075,0.6243790487874632,-0.013080729307206333,0.7672413063891131,0.00197030100989056,-0.094354,-37.569928
11.185,2.0,1.0,1.0,33.6,34.5,34.5,4.2,4.3,2.61,0.6177825360374539,-0.013373281523354942,0.772332482241542,0.001891373559205954,-0.095933,-37.389229
11.185,2.0,1.0,1.0,33.6,34.5,34.5,4.2,4.3,2.6125,0.611096225048442,-0.013674767958316307,0.7773974926662627,0.001807849681563321,-0.097564,-37.206352
11.185,2.0,1.0,1.0,33.6,34.5,34.5,4.2,4.3,2.615,0.6043187377070341,-0.013985617105297384,0.7824352281065302,0.0017194640901996151,-0.09925,-37.021213
11.185,2.0,1.0,1.0,33.6,34.5,34.5,4.2,4.3,2.6175,0.5974486506353242,-0.014306286458349922,0.7874445325459988,0.0016259311974827603,-0.100993,-36.833724
11.185,2.0,1.0,1.0,33.6,34.5,34.5,4.2,4.3,2.62,0.5904844922011514,-0.014637265013723647,0.7924242006064051,0.0015269431243351474,-0.102797,-36.643795
11.185,2.0,1.0,1.0,33.6,34.5,34.5,4.2,4.3,2.6225,0.5834247392279783,-0.014979076031832734,0.7973729743638469,0.0014221674717557386,-0.104665,-36.451326
11.185,2.0,1.0,1.0,33.6,34.5,34.5,4.2,4.3,2.625,0.576267813367528,-0.0153322800916336,0.802289539846471,0.00131124482093343,-0.106601,-36.256216
11.185,2.0,1.0,1.0,33.6,34.5,34.5,4.2,4.3,2.6275,0.569012077093092,-0.01569747847366133,0.8071725231704413,0.001193785923001959,-0.108608,-36.058357
11.185,2.0,1.0,1.0,33.6,34.5,34.5,4.2,4.3,2.63,0.5616558292654502,-0.016075316913119888,0.8120204862639987,0.00106936853303875,-0.110691,-35.857633
11.185,2.0,1.0,1.0,33.6,34.5,34.5,4.2,4.3,2.6325,0.5541973002163364,-0.01646648977039446,0.8168319221210593,0.0009375338352487896,-0.112854,-35.653924
11.185,2.0,1.0,1.0,33.6,34.5,34.5,4.2,4.3,2.635,0.546634646286277,-0.016871744673296895,0.8216052495158076,0.00079778239714382,-0.115103,-35.447101
11.185,2.0,1.0,1.0,33.6,34.5,34.5,4.2,4.3,2.6375,0.5389659437441778,-0.01729188769344054,0.8263388070978156,0.000649569579610715,-0.117443,-35.237028
11.185,2.0,1.0,1.0,33.6,34.5,34.5,4.2,4.3,2.64,0.5311891820049484,-0.0177277891285809,0.8310308467729122,0.0004923003166633146,-0.119879,-35.023561
11.185,2.0,1.0,1.0,33.6,34.5,34.5,4.2,4.3,2.6425,0.523302256048554,-0.018180389973795657,0.8356795262577748,0.0003253231629076288,-0.122419,-34.806546
11.185,2.0,1.0,1.0,33.6,34.5,34.5,4.2,4.3,2.645,0.5153029579286672,-0.018650709177319334,0.840282900675417,0.00014792348769991265,-0.125069,-34.58582
11.185,2.0,1.0,1.0,33.6,34.5,34.5,4.2,4.3,2.6475,0.5071889672412532,-0.019139851792045498,0.8448389130334716,-4.068432812021466e-05,-0.127837,-34.361209
11.185,2.0,1.0,1.0,33.6,34.5,34.5,4.2,4.3,2.65,0.4989578404023507,-0.019649018151599997,0.8493453833964423,-0.00024136586515794317,-0.130732,-34.132528
11.185,2.0,1.0,1.0,33.6,34.5,34.5,4.2,4.3,2.6525,0.49060699855950685,-0.020179514220984934,0.8537999965254809,-0.0004550770146529598,-0.133762,-33.899578
11.185,2.0,1.0,1.0,33.6,34.5,34.5,4.2,4.3,2.655,0.4821337139318247,-0.0207327632967299,0.8582002877131295,-0.000682875952707683,-0.136939,-33.662147
11.185,2.0,1.0,1.0,33.6,34.5,34.5,4.2,4.3,2.6575,0.47353509433874985,-0.0213103192610033,0.8625436264835321,-0.0009259370403150971,-0.140273,-33.420009
11.185,2.0,1.0,1.0,33.6,34.5,34.5,4.2,4.3,2.66,0.464808065636195,-0.02191388162914852,0.8668271977581541,-0.0011855670143137455,-0.143778,-33.172921
11.185,2.0,1.0,1.0,33.6,34.5,34.5,4.2,4.3,2.6625,0.4559493517292478,-0.02254531267169443,0.871047979999297,-0.0014632239144656647,-0.147467,-32.92062
11.185,2.0,1.0,1.0,33.6,34.5,34.5,4.2,4.3,2.665,0.44695545177176144,-0.023206656941353727,0.8752027197339985,-0.0017605392919462694,-0.151357,-32.662825
11.185,2.0,1.0,1.0,33.6,34.5,34.5,4.2,4.3,2.6675,0.4378226140928206,-0.023900163594404274,0.879287901722926,-0.0020793443702932816,-0.155466,-32.399234
11.185,2.0,1.0,1.0,33.6,34.5,34.5,4.2,4.3,2.67,0.428546806305929,-0.024628311965989066,0.8832997138645424,-0.0024217009887132573,-0.159812,-32.129518
11.185,2.0,1.0,1.0,33.6,34.5,34.5,4.2,4.3,2.6725,0.41912368095617214,-0.02539384094239902,0.8872340057032002,-0.0027899383594092437,-0.164419,-31.853324
11.185,2.0,1.0,1.0,33.6,34.5,34.5,4.2,4.3,2.675,0.40954853594030266,-0.026199782772781427,0.8910862391264892,-0.003186696928350708,-0.169312,-31.570267
11.185,2.0,1.0,1.0,33.6,34.5,34.5,4.2,4.3,2.6775,0.3998162687909302,-0.027049502080699405,0.8948514294727336,-0.0036149809601967405,-0.174519,-31.279932
11.185,2.0,1.0,1.0,33.6,34.5,34.5,4.2,4.3,2.68,0.38992132374470134,-0.027946740975492556,0.8985240747977566,-0.004078221896577669,-0.180075,-30.981864
11.185,2.0,1.0,1.0,33.6,34.5,34.5,4.2,4.3,2.6825,0.37985763031107167,-0.028895671327365258,0.9020980704352376,-0.00458035509483205,-0.186015,-30.675569
11.185,2.0,1.0,1.0,33.6,34.5,34.5,4.2,4.3,2.685,0.3696185318186825,-0.029900955460961942,0.905566605178211,-0.005125913285700235,-0.192384,-30.360507
11.185,2.0,1.0,1.0,33.6,34.5,34.5,4.2,4.3,2.6875,0.359196702137158,-0.0309678167408833,0.908922034342792,-0.00572014105430377,-0.199232,-30.036084
11.185,2.0,1.0,1.0,33.6,34.5,34.5,4.2,4.3,2.69,0.3485840484524029,-0.03210212176715854,0.912155723554711,-0.006369135933799624,-0.206616,-29.701651
11.185,2.0,1.0,1.0,33.6,34.5,34.5,4.2,4.3,2.6925,0.3377715976175691,-0.033310476161219855,0.9152578551920271,-0.007080023424460426,-0.214604,-29.356489
11.185,2.0,1.0,1.0,33.6,34.5,34.5,4.2,4.3,2.695,0.3267493632248057,-0.03460033618446909,0.9182171868352493,-0.007861175581217362,-0.223276,-28.999807
11.185,2.0,1.0,1.0,33.6,34.5,34.5,4.2,4.3,2.6975,0.3155061901789931,-0.0359801386530878,0.9210207475497714,-0.008722485990888568,-0.232726,-28.630728
11.185,2.0,1.0,1.0,33.6,34.5,34.5,4.2,4.3,2.7,0.30402957327488295,-0.03745945171924115,0.9236534529658317,-0.00967571833388079,-0.243065,-28.248275
11.185,2.0,1.0,1.0,33.6,34.5,34.5,4.2,4.3,2.7025,0.29230544621943005,-0.03904914894101041,0.9260976133608264,-0.010734951799901367,-0.254426,-27.851362
11.185,2.0,1.0,1.0,33.6,34.5,34.5,4.2,4.3,2.705,0.28031793795669996,-0.04076160840752413,0.9283322994522526,-0.011917155146193504,-0.266971,-27.438773
11.185,2.0,1.0,1.0,33.6,34.5,34.5,4.2,4.3,2.7075,0.268049094512324,-0.04261093706368822,0.9303325171353821,-0.013242933251659594,-0.280895,-27.009141
11.185,2.0,1.0,1.0,33.6,34.5,34.5,4.2,4.3,2.71,0.25547856773602784,-0.04461321696478125,0.9320681230861594,-0.014737507278389522,-0.296437,-26.560927
11.185,2.0,1.0,1.0,33.6,34.5,34.5,4.2,4.3,2.7125,0.2425832788526837,-0.04678676349222642,0.9335023851819045,-0.016432014486409498,-0.313894,-26.092393
11.185,2.0,1.0,1.0,33.6,34.5,34.5,4.2,4.3,2.715,0.229337077516142,-0.04915237286222739,0.9345900507854112,-0.01836525012257847,-0.333637,-25.601562
11.185,2.0,1.0,1.0,33.6,34.5,34.5,4.2,4.3,2.7175,0.21571044143046242,-0.051733512571301765,0.935274725542967,-0.02058602734710646,-0.356132,-25.086186
11.185,2.0,1.0,1.0,33.6,34.5,34.5,4.2,4.3,2.72,0.20167030754335702,-0.05455636448066223,0.9354852754586857,-0.023156410565564,-0.381976,-24.543693
11.185,2.0,1.0,1.0,33.6,34.5,34.5,4.2,4.3,2.7225,0.1871802122484902,-0.05764954859430391,0.935130830475605,-0.02615619585398704,-0.411944,-23.971138
11.185,2.0,1.0,1.0,33.6,34.5,34.5,4.2,4.3,2.725,0.17220108133830517,-0.061043202880948465,0.9340937662401583,-0.0296891884308965,-0.447047,-23.365139
11.185,2.0,1.0,1.0,33.6,34.5,34.5,4.2,4.3,2.7275,0.15669332163915747,-0.06476680599849978,0.9322197410192781,-0.033892087214322714,-0.488634,-22.721813
11.185,2.0,1.0,1.0,33.6,34.5,34.5,4.2,4.3,2.73,0.14062146599030184,-0.06884457801969188,0.929303429830289,-0.03894715953162783,-0.538528,-22.036715
11.185,2.0,1.0,1.0,33.6,34.5,34.5,4.2,4.3,2.7325,0.12396379352961324,-0.07328622512895061,0.925068004797402,-0.04510038728739813,-0.599231,-21.304799
11.185,2.0,1.0,1.0,33.6,34.5,34.5,4.2,4.3,2.735,0.10673165713103051,-0.07806869851349912,0.9191357284753532,-0.05268731058048138,-0.674237,-20.520434
11.185,2.0,1.0,1.0,33.6,34.5,34.5,4.2,4.3,2.7375,0.0890078386606692,-0.083100503950981,0.9109866754622149,-0.062168974705363526,-0.768497,-19.677571
11.185,2.0,1.0,1.0,33.6,34.5,34.5,4.2,4.3,2.74,0.07102231420170468,-0.08815200249943292,0.8999041586944481,-0.07417871553939918,-0.889108,-18.770225
11.185,2.0,1.0,1.0,33.6,34.5,34.5,4.2,4.3,2.7425,0.053301073446666646,-0.0927198871220852,0.8849140696164365,-0.08957225019344921,-1.04625,-17.793647
11.185,2.0,1.0,1.0,33.6,34.5,34.5,4.2,4.3,2.745,0.03695291994347865,-0.09576862985662618,0.8647564944079286,-0.10944467967368257,-1.2542,-16.746944
11.185,2.0,1.0,1.0,33.6,34.5,34.5,4.2,4.3,2.7475,0.024191108358919692,-0.09526581728461524,0.8380230209655711,-0.13499165254201628,-1.531264,-15.63864
11.185,2.0,1.0,1.0,33.6,34.5,34.5,4.2,4.3,2.75,0.0191350923889374,-0.087481852262595,0.80383655985528,-0.166874741984235,-1.894185,-14.497685
11.185,2.0,1.0,1.0,33.6,34.5,34.5,4.2,4.3,2.7525,0.028440278969182716,-0.06648371874920309,0.7638648795957136,-0.20339346588612725,-2.333653,-13.39239
11.185,2.0,1.0,1.0,33.6,34.5,34.5,4.2,4.3,2.755,0.059598176164292624,-0.0257777640339596,0.7262121187929894,-0.23703883109028837,-2.749578,-12.45255
11.185,2.0,1.0,1.0,33.6,34.5,34.5,4.2,4.3,2.7575,0.11306231990215918,0.0345506640627479,0.7075830333378393,-0.25278209292079984,-2.894961,-11.864688
11.185,2.0,1.0,1.0,33.6,34.5,34.5,4.2,4.3,2.76,0.17246961341367717,0.09934883926935267,0.7232261600518052,-0.237401707249773,-2.574305,-11.789468
11.185,2.0,1.0,1.0,33.6,34.5,34.5,4.2,4.3,2.7625,0.21319612009306987,0.14662533826778196,0.7687206114093075,-0.19559493223277227,-1.962808,-12.236158
11.185,2.0,1.0,1.0,33.6,34.5,34.5,4.2,4.3,2.765,0.22507694353651703,0.16785661503577898,0.8236199271132756,-0.14602879760937376,-1.372669,-13.053926
11.185,2.0,1.0,1.0,33.6,34.5,34.5,4.2,4.3,2.7675,0.21481608966159133,0.16954388616101515,0.8719327127125047,-0.10286615432315187,-0.934427,-14.053139
11.185,2.0,1.0,1.0,33.6,34.5,34.5,4.2,4.3,2.77,0.19286657435187868,0.16122885218091237,0.9087216650993133,-0.07022616088034571,-0.64003,-15.096698
11.185,2.0,1.0,1.0,33.6,34.5,34.5,4.2,4.3,2.7725,0.16635510816305205,0.14928614311552033,0.935070634368095,-0.046916407866894494,-0.447785,-16.110555
11.185,2.0,1.0,1.0,33.6,34.5,34.5,4.2,4.3,2.775,0.13888506648751933,0.1368813635071562,0.9535363578574875,-0.03052521422368839,-0.322084,-17.062333
11.185,2.0,1.0,1.0,33.6,34.5,34.5,4.2,4.3,2.7775,0.11197666643990643,0.12531701222038777,0.9663985635207067,-0.01895105496761746,-0.238955,-17.941599
11.185,2.0,1.0,1.0,33.6,34.5,34.5,4.2,4.3,2.78,0.08614239028262435,0.11500876228654228,0.9753225925185974,-0.010673717977941824,-0.183287,-18.748134
11.185,2.0,1.0,1.0,33.6,34.5,34.5,4.2,4.3,2.7825,0.061456497903705075,0.10599460125645009,0.9814469285589936,-0.0046587029179835406,-0.145668,-19.485943
11.185,2.0,1.0,1.0,33.6,34.5,34.5,4.2,4.3,2.785,0.037821531870893176,0.09816984818464485,0.9855345515045075,-0.00021325325492570554,-0.120171,-20.160417
11.185,2.0,1.0,1.0,33.6,34.5,34.5,4.2,4.3,2.7875,0.01508549036195825,0.09138884347042174,0.9880962567904713,0.0031280098780756887,-0.103003,-20.777052
11.185,2.0,1.0,1.0,33.6,34.5,34.5,4.2,4.3,2.79,-0.006909471847648155,0.0855062532244894,0.9894761302757898,0.00568143893392396,-0.091682,-21.340911
11.185,2.0,1.0,1.0,33.6,34.5,34.5,4.2,4.3,2.7925,-0.02830868674845197,0.0803919933103233,0.9899077069245812,0.007665492826292692,-0.084556,-21.856437
11.185,2.0,1.0,1.0,33.6,34.5,34.5,4.2,4.3,2.795,-0.04923968421588673,0.07593501682699216,0.9895502968884131,0.009233688669356964,-0.080503,-22.327411
11.185,2.0,1.0,1.0,33.6,34.5,34.5,4.2,4.3,2.7975,-0.06981227229299589,0.0720426773852443,0.9885124887156901,0.010495904179661886,-0.078749,-22.756986
11.185,2.0,1.0,1.0,33.6,34.5,34.5,4.2,4.3,2.8,-0.09012060351785298,0.06863857459404438,0.9868674590862848,0.011532297500491095,-0.078756,-23.147736
11.185,2.0,1.0,1.0,33.6,34.5,34.5,4.2,4.3,2.8025,-0.11024577867271655,0.06566010117349506,0.9846630277524665,0.01240253680286097,-0.080144,-23.501716
11.185,2.0,1.0,1.0,33.6,34.5,34.5,4.2,4.3,2.805,-0.13025840368365488,0.06305616818922377,0.9819283007620108,0.013152024634106892,-0.082644,-23.820507
11.185,2.0,1.0,1.0,33.6,34.5,34.5,4.2,4.3,2.8075,-0.15022089789512502,0.0607852631448124,0.9786780571438922,0.01381617603954546,-0.086069,-24.105268
11.185,2.0,1.0,1.0,33.6,34.5,34.5,4.2,4.3,2.81,-0.17018951708917845,0.05881386194342238,0.974915604957431,0.014423423498489327,-0.090289,-24.356766
11.185,2.0,1.0,1.0,33.6,34.5,34.5,4.2,4.3,2.8125,-0.190216122208303,0.0571151654800836,0.970634562502255,0.0149973832542805,-0.095219,-24.575401
11.185,2.0,1.0,1.0,33.6,34.5,34.5,4.2,4.3,2.815,-0.21034974945563992,0.055668117741574576,0.9658198470720311,0.015558469569752044,-0.10081,-24.761228
11.185,2.0,1.0,1.0,33.6,34.5,34.5,4.2,4.3,2.8175,-0.23063804439090094,0.05445666357750413,0.9604480382587095,0.01612515128853618,-0.10704,-24.913964
11.185,2.0,1.0,1.0,33.6,34.5,34.5,4.2,4.3,2.82,-0.25112862338664366,0.053469211365823784,0.9544872012917559,0.01671498816690184,-0.113914,-25.03299
11.185,2.0,1.0,1.0,33.6,34.5,34.5,4.2,4.3,2.8225,-0.2718704257289448,0.05269827463021064,0.94789619243734,0.017345550525863517,-0.121458,-25.117347
11.185,2.0,1.0,1.0,33.6,34.5,34.5,4.2,4.3,2.825,-0.2929151213049608,0.05214027575210578,0.9406234117894277,0.01803530784515731,-0.129724,-25.165724
11.185,2.0,1.0,1.0,33.6,34.5,34.5,4.2,4.3,2.8275,-0.31431864355454625,0.051795503860463867,0.9326049093784674,0.01880456638278873,-0.138788,-25.17643
11.185,2.0,1.0,1.0,33.6,34.5,34.5,4.2,4.3,2.83,-0.3361429259896591,0.05166822787928758,0.9237616785670781,0.0196765416828753,-0.148756,-25.147369
