1,w,sub_t,h,l1,l2,l3,g1,g2,Freq,S11_re,S21_re,S11_img,S21_img,S11_dB,S21_dB
11.185,2.0,1.0,1.0,33.5,34.3,34.3,2.1,3.6,2.5,0.843566159739752,-0.00929259230150706,0.523699773792755,0.00767002583264857,-0.061824,-38.380885
11.185,2.0,1.0,1.0,33.5,34.3,34.3,2.1,3.6,2.5025,0.8398992832771431,-0.009491754270149757,0.5294177779571868,0.007712171543027176,-0.062491,-38.251526
11.185,2.0,1.0,1.0,33.5,34.3,34.3,2.1,3.6,2.505,0.8361753684254544,-0.009694990757137369,0.5351358927327029,0.007753607127143665,-0.063171,-38.121656
11.185,2.0,1.0,1.0,33.5,34.3,34.3,2.1,3.6,2.5075,0.8323937691398225,-0.009902401177373985,0.5408538567464605,0.007794289918637783,-0.063864,-37.991262
11.185,2.0,1.0,1.0,33.5,34.3,34.3,2.1,3.6,2.51,0.8285538270829278,-0.010114088029209907,0.5465713996776359,0.007834175279522035,-0.064572,-37.860334
11.185,2.0,1.0,1.0,33.5,34.3,34.3,2.1,3.6,2.5125,0.8246548713414473,-0.010330157010606994,0.5522882419242425,0.007873216501785312,-0.065294,-37.728857
11.185,2.0,1.0,1.0,33.5,34.3,34.3,2.1,3.6,2.515,0.8206962181342355,-0.010550717140465031,0.5580040942564966,0.007911364703507423,-0.066031,-37.596821
11.185,2.0,1.0,1.0,33.5,34.3,34.3,2.1,3.6,2.5175,0.8166771705119241,-0.010775880885371715,0.5637186574560793,0.007948568719139812,-0.066783,-37.464213
11.185,2.0,1.0,1.0,33.5,34.3,34.3,2.1,3.6,2.52,0.8125970180475949,-0.011005764292057348,0.569431621940636,0.007984774983583456,-0.06755,-37.331019
11.185,2.0,1.0,1.0,33.5,34.3,34.3,2.1,3.6,2.5225,0.8084550365181925,-0.01124048712584837,0.5751426673727776,0.008019927409668648,-0.068334,-37.197227
11.185,2.0,1.0,1.0,33.5,34.3,34.3,2.1,3.6,2.525,0.8042504875762919,-0.011480173015433817,0.5808514622528532,0.008053967258613291,-0.069134,-37.062823
11.185,2.0,1.0,1.0,33.5,34.3,34.3,2.1,3.6,2.5275,0.7999826184118418,-0.011724949604275349,0.5865576634946809,0.008086833003005677,-0.069952,-36.927794
11.185,2.0,1.0,1.0,33.5,34.3,34.3,2.1,3.6,2.53,0.7956506614034745,-0.011974948709012117,0.5922609159833908,0.008118460181824834,-0.070786,-36.792125
11.185,2.0,1.0,1.0,33.5,34.3,34.3,2.1,3.6,2.5325,0.7912538337589605,-0.012230306485231348,0.597960852114491,0.008148781246975908,-0.071639,-36.655804
11.185,2.0,1.0,1.0,33.5,34.3,34.3,2.1,3.6,2.535,0.7867913371443385,-0.012491163600999805,0.6036570913132026,0.008177725400779512,-0.07251,-36.518814
11.185,2.0,1.0,1.0,33.5,34.3,34.3,2.1,3.6,2.5375,0.7822623573012684,-0.012757665418571928,0.6093492395330451,0.008205218423812369,-0.073401,-36.381143
11.185,2.0,1.0,1.0,33.5,34.3,34.3,2.1,3.6,2.54,0.7776660636520912,-0.01302996218471828,0.6150368887326192,0.00823118249245132,-0.074311,-36.242774
11.185,2.0,1.0,1.0,33.5,34.3,34.3,2.1,3.6,2.5425,0.773001608892068,-0.013308209230143737,0.6207196163294307,0.008255535985424048,-0.075241,-36.103692
11.185,2.0,1.0,1.0,33.5,34.3,34.3,2.1,3.6,2.545,0.7682681285682453,-0.013592567178492831,0.626396984629556,0.008278193278616744,-0.076192,-35.963882
11.185,2.0,1.0,1.0,33.5,34.3,34.3,2.1,3.6,2.5475,0.7634647406443617,-0.01388320216547109,0.6320685402318531,0.008299064527331458,-0.077165,-35.823328
11.185,2.0,1.0,1.0,33.5,34.3,34.3,2.1,3.6,2.55,0.758590545051157,-0.014180286068643579,0.6377338134053576,0.008318055435123704,-0.07816,-35.682013
11.185,2.0,1.0,1.0,33.5,34.3,34.3,2.1,3.6,2.5525,0.7536446232214542,-0.014483996748505706,0.6433923174383829,0.008335067008282623,-0.079177,-35.53992
11.185,2.0,1.0,1.0,33.5,34.3,34.3,2.1,3.6,2.555,0.7486260376092974,-0.014794518301459777,0.6490435479577881,0.00834999529494303,-0.080219,-35.397034
11.185,2.0,1.0,1.0,33.5,34.3,34.3,2.1,3.6,2.5575,0.7435338311924182,-0.015112041325369231,0.6546869822167405,0.008362731107737895,-0.081285,-35.253335
11.185,2.0,1.0,1.0,33.5,34.3,34.3,2.1,3.6,2.56,0.7383670269572603,-0.015436763198404894,0.6603220783491892,0.00837315972881309,-0.082375,-35.108808
11.185,2.0,1.0,1.0,33.5,34.3,34.3,2.1,3.6,2.5625,0.7331246273657371,-0.015768888371942447,0.665948274589167,0.008381160595931112,-0.083492,-34.963432
11.185,2.0,1.0,1.0,33.5,34.3,34.3,2.1,3.6,2.565,0.7278056138028414,-0.01610862867831959,0.6715649884528833,0.00838660696828698,-0.084636,-34.817189
11.185,2.0,1.0,1.0,33.5,34.3,34.3,2.1,3.6,2.5675,0.7224089460042072,-0.01645620365431026,0.6771716158814316,0.008389365570546745,-0.085807,-34.670061
11.185,2.0,1.0,1.0,33.5,34.3,34.3,2.1,3.6,2.57,0.7169335614626248,-0.01681184088123061,0.6827675303417942,0.008389296213495871,-0.087007,-34.522028
11.185,2.0,1.0,1.0,33.5,34.3,34.3,2.1,3.6,2.5725,0.7113783748124856,-0.017175776342648594,0.6883520818836389,0.008386251389550167,-0.088237,-34.373069
11.185,2.0,1.0,1.0,33.5,34.3,34.3,2.1,3.6,2.575,0.7057422771910477,-0.017548254800731435,0.6939245961492381,0.008380075841235074,-0.089497,-34.223165
11.185,2.0,1.0,1.0,33.5,34.3,34.3,2.1,3.6,2.5775,0.7000241355753719,-0.017929530192332628,0.6994843733336331,0.008370606100578104,-0.090788,-34.072293
11.185,2.0,1.0,1.0,33.5,34.3,34.3,2.1,3.6,2.58,0.694222792093672,-0.018319866045990653,0.7050306870919468,0.008357669997183423,-0.092113,-33.920433
11.185,2.0,1.0,1.0,33.5,34.3,34.3,2.1,3.6,2.5825,0.6883370633097776,-0.018719535921088576,0.710562783390531,0.008341086132564414,-0.093471,-33.767561
11.185,2.0,1.0,1.0,33.5,34.3,34.3,2.1,3.6,2.585,0.682365739479308,-0.019128823870503322,0.7160798792983585,0.008320663318099072,-0.094865,-33.613657
11.185,2.0,1.0,1.0,33.5,34.3,34.3,2.1,3.6,2.5875,0.6763075837760746,-0.019548024928162034,0.7215811617148085,0.008296199973740582,-0.096295,-33.458695
11.185,2.0,1.0,1.0,33.5,34.3,34.3,2.1,3.6,2.59,0.6701613314871372,-0.01997744562301359,0.7270657860296784,0.008267483484361054,-0.097762,-33.302652
11.185,2.0,1.0,1.0,33.5,34.3,34.3,2.1,3.6,2.5925,0.663925689174835,-0.020417404521022982,0.7325328747109346,0.00823428951032604,-0.099269,-33.145503
11.185,2.0,1.0,1.0,33.5,34.3,34.3,2.1,3.6,2.595,0.6575993338040216,-0.020868232796900272,0.7379815158153273,0.008196381248589981,-0.100816,-32.987224
11.185,2.0,1.0,1.0,33.5,34.3,34.3,2.1,3.6,2.5975,0.6511809118325932,-0.02133027483738954,0.7434107614166413,0.008153508640262706,-0.102405,-32.827787
11.185,2.0,1.0,1.0,33.5,34.3,34.3,2.1,3.6,2.6,0.6446690382633082,-0.02180388887805999,0.7488196259458691,0.008105407520224577,-0.104038,-32.667167
11.185,2.0,1.0,1.0,33.5,34.3,34.3,2.1,3.6,2.6025,0.6380622956547606,-0.022289447675670253,0.7542070844371459,0.008051798703954624,-0.105716,-32.505335
11.185,2.0,1.0,1.0,33.5,34.3,34.3,2.1,3.6,2.605,0.6313592330892117,-0.022787339218310398,0.7595720706727533,0.007992387006281871,-0.107441,-32.342264
11.185,2.0,1.0,1.0,33.5,34.3,34.3,2.1,3.6,2.6075,0.624558365094878,-0.023297967475669527,0.7649134752199203,0.007926860186266897,-0.109215,-32.177923
11.185,2.0,1.0,1.0,33.5,34.3,34.3,2.1,3.6,2.61,0.6176581705200874,-0.02382175319192811,0.7702301433515072,0.007854887811865035,-0.11104,-32.012284
11.185,2.0,1.0,1.0,33.5,34.3,34.3,2.1,3.6,2.6125,0.6106570913565798,-0.02435913472393538,0.7755208728419757,0.007776120037406791,-0.112918,-31.845315
11.185,2.0,1.0,1.0,33.5,34.3,34.3,2.1,3.6,2.615,0.6035535315090187,-0.02491056892750134,0.780784411629262,0.007690186286249434,-0.114851,-31.676984
11.185,2.0,1.0,1.0,33.5,34.3,34.3,2.1,3.6,2.6175,0.5963458555076576,-0.025476532094810694,0.7860194553323128,0.007596693830197139,-0.116841,-31.507259
11.185,2.0,1.0,1.0,33.5,34.3,34.3,2.1,3.6,2.62,0.5890323871608588,-0.026057520946155894,0.7912246446131211,0.007495226256447117,-0.118891,-31.336106
11.185,2.0,1.0,1.0,33.5,34.3,34.3,2.1,3.6,2.6225,0.5816114081439819,-0.02665405367938233,0.7963985623710373,0.007385341811885827,-0.121003,-31.163489
11.185,2.0,1.0,1.0,33.5,34.3,34.3,2.1,3.6,2.625,0.574081156520982,-0.0272666710806435,0.801539730755975,0.00726657161352097,-0.12318,-30.989372
11.185,2.0,1.0,1.0,33.5,34.3,34.3,2.1,3.6,2.6275,0.5664398251947731,-0.027895937700281835,0.8066466079858606,0.007138417712677905,-0.125425,-30.81372
11.185,2.0,1.0,1.0,33.5,34.3,34.3,2.1,3.6,2.63,0.5586855602822516,-0.028542443097867423,0.8117175849522454,0.007000350999299945,-0.127741,-30.636492
11.185,2.0,1.0,1.0,33.5,34.3,34.3,2.1,3.6,2.6325,0.5508164594096079,-0.02920680316065892,0.816750981596397,0.006851808931252252,-0.13013,-30.457649
11.185,2.0,1.0,1.0,33.5,34.3,34.3,2.1,3.6,2.635,0.5428305699233169,-0.029889661499980007,0.8217450430364603,0.00669219307192086,-0.132596,-30.277151
11.185,2.0,1.0,1.0,33.5,34.3,34.3,2.1,3.6,2.6375,0.5347258870119895,-0.03059169093024038,0.8266979354242618,0.006520866417599036,-0.135143,-30.094954
11.185,2.0,1.0,1.0,33.5,34.3,34.3,2.1,3.6,2.64,0.526500351733968,-0.03131359503556465,0.831607741508184,0.00633715049413766,-0.137775,-29.911016
11.185,2.0,1.0,1.0,33.5,34.3,34.3,2.1,3.6,2.6425,0.5181518489453832,-0.03205610982921858,0.8364724558760491,0.0061403222000776525,-0.140495,-29.72529
11.185,2.0,1.0,1.0,33.5,34.3,34.3,2.1,3.6,2.645,0.5096782051231074,-0.03282000551124273,0.8412899798492125,0.00592961037094526,-0.143308,-29.53773
11.185,2.0,1.0,1.0,33.5,34.3,34.3,2.1,3.6,2.6475,0.5010771860768654,-0.03360608832990423,0.8460581159959977,0.005704192036540847,-0.146217,-29.348286
11.185,2.0,1.0,1.0,33.5,34.3,34.3,2.1,3.6,2.65,0.49234649454453944,-0.03441520255275616,0.8507745622291443,0.0054631883398429575,-0.149229,-29.15691
11.185,2.0,1.0,1.0,33.5,34.3,34.3,2.1,3.6,2.6525,0.48348376766461076,-0.0352482325532315,0.855436905448054,0.005205660082536118,-0.152347,-28.963547
11.185,2.0,1.0,1.0,33.5,34.3,34.3,2.1,3.6,2.655,0.4744865743195057,-0.03610610501879617,0.8600426146822683,0.0049306028580916195,-0.155578,-28.768145
11.185,2.0,1.0,1.0,33.5,34.3,34.3,2.1,3.6,2.6575,0.4653524123436299,-0.03698979128670794,0.8645890336876776,0.004636941728725557,-0.158928,-28.570646
11.185,2.0,1.0,1.0,33.5,34.3,34.3,2.1,3.6,2.66,0.4560787055898922,-0.03790030981337081,0.8690733729414305,0.00432352539734772,-0.162401,-28.370993
11.185,2.0,1.0,1.0,33.5,34.3,34.3,2.1,3.6,2.6625,0.44666280084869403,-0.03883872878309984,0.873492700975213,0.003989119819715451,-0.166005,-28.169125
11.185,2.0,1.0,1.0,33.5,34.3,34.3,2.1,3.6,2.665,0.43710196461362905,-0.03980616886179615,0.8778439349795116,0.003632401195313702,-0.169748,-27.964979
11.185,2.0,1.0,1.0,33.5,34.3,34.3,2.1,3.6,2.6675,0.4273933796886818,-0.04080380610052244,0.8821238306033969,0.003251948267885884,-0.173636,-27.758489
11.185,2.0,1.0,1.0,33.5,34.3,34.3,2.1,3.6,2.67,0.4175341416323715,-0.04183287499323456,0.8863289708652837,0.002846233857896838,-0.177678,-27.549588
11.185,2.0,1.0,1.0,33.5,34.3,34.3,2.1,3.6,2.6725,0.40752125503534475,-0.042894671691878695,0.8904557540797147,0.002413615539371302,-0.181882,-27.338204
11.185,2.0,1.0,1.0,33.5,34.3,34.3,2.1,3.6,2.675,0.39735162962932374,-0.04399055738064582,0.8945003806934589,0.001952325362330265,-0.186258,-27.124265
11.185,2.0,1.0,1.0,33.5,34.3,34.3,2.1,3.6,2.6775,0.38702207622716855,-0.04512196180928134,0.8984588389107571,0.0014604585092346577,-0.190815,-26.907693
11.185,2.0,1.0,1.0,33.5,34.3,34.3,2.1,3.6,2.68,0.37652930249627536,-0.04629038698285391,0.9023268889721795,0.0009359607591938568,-0.195566,-26.688409
11.185,2.0,1.0,1.0,33.5,34.3,34.3,2.1,3.6,2.6825,0.365869908570808,-0.04749741100214516,0.9061000459340663,0.0003766146169177785,-0.200521,-26.466328
11.185,2.0,1.0,1.0,33.5,34.3,34.3,2.1,3.6,2.685,0.35504038251232245,-0.048744692044645474,0.9097735607753809,-0.00021997605585187904,-0.205693,-26.241365
11.185,2.0,1.0,1.0,33.5,34.3,34.3,2.1,3.6,2.6875,0.344037095633767,-0.0500339724707886,0.913342399635821,-0.0008564030907947,-0.211095,-26.013428
11.185,2.0,1.0,1.0,33.5,34.3,34.3,2.1,3.6,2.69,0.33285629770858816,-0.051367083033237136,0.9168012209625682,-0.0015354729551270516,-0.216744,-25.782423
11.185,2.0,1.0,1.0,33.5,34.3,34.3,2.1,3.6,2.6925,0.32149411209530987,-0.05274594715838449,0.9201443503126322,-0.002260227824432776,-0.222654,-25.548251
11.185,2.0,1.0,1.0,33.5,34.3,34.3,2.1,3.6,2.695,0.30994653081893997,-0.05417258525828236,0.9233657525227404,-0.0030339690590172786,-0.228843,-25.310808
11.185,2.0,1.0,1.0,33.5,34.3,34.3,2.1,3.6,2.6975,0.2982094096642972,-0.05564911901739654,0.9264590009183119,-0.0038602833955882457,-0.23533,-25.069986
11.185,2.0,1.0,1.0,33.5,34.3,34.3,2.1,3.6,2.7,0.2862784633538796,-0.05717777558116561,0.9294172431863861,-0.004743072211149812,-0.242137,-24.825673
11.185,2.0,1.0,1.0,33.5,34.3,34.3,2.1,3.6,2.7025,0.2741492609047532,-0.05876089155142484,0.9322331634834146,-0.005686584268213145,-0.249284,-24.577748
11.185,2.0,1.0,1.0,33.5,34.3,34.3,2.1,3.6,2.705,0.2618172212866374,-0.060400916666166905,0.9348989402863129,-0.006695452410954531,-0.256798,-24.32609
11.185,2.0,1.0,1.0,33.5,34.3,34.3,2.1,3.6,2.7075,0.24927760953814218,-0.06210041700642591,0.9374061994227151,-0.0077747347522158705,-0.264705,-24.070566
11.185,2.0,1.0,1.0,33.5,34.3,34.3,2.1,3.6,2.71,0.2365255335418098,-0.06386207752942735,0.9397459616322067,-0.008929960972878058,-0.273035,-23.811041
11.185,2.0,1.0,1.0,33.5,34.3,34.3,2.1,3.6,2.7125,0.22355594171380577,-0.06568870367223431,0.9419085839126202,-0.01016718445008883,-0.281821,-23.547372
11.185,2.0,1.0,1.0,33.5,34.3,34.3,2.1,3.6,2.715,0.21036362193343025,-0.06758322170096322,0.9438836937917136,-0.01149304104133683,-0.291098,-23.279408
11.185,2.0,1.0,1.0,33.5,34.3,34.3,2.1,3.6,2.7175,0.1969432021251827,-0.06954867739348171,0.9456601155323301,-0.012914815480071392,-0.300906,-23.006991
11.185,2.0,1.0,1.0,33.5,34.3,34.3,2.1,3.6,2.72,0.1832891530165471,-0.07158823253350771,0.9472257871250438,-0.014440516488507032,-0.311289,-22.729956
11.185,2.0,1.0,1.0,33.5,34.3,34.3,2.1,3.6,2.7225,0.16939579373428293,-0.07370515855506428,0.9485676667429985,-0.016078961887947905,-0.322295,-22.448127
11.185,2.0,1.0,1.0,33.5,34.3,34.3,2.1,3.6,2.725,0.1552573010787413,-0.07590282650036487,0.9496716271248682,-0.01783987519040864,-0.333979,-22.161321
11.185,2.0,1.0,1.0,33.5,34.3,34.3,2.1,3.6,2.7275,0.1408677235397314,-0.07818469223130554,0.9505223361090316,-0.019733995392063716,-0.3464,-21.869346
11.185,2.0,1.0,1.0,33.5,34.3,34.3,2.1,3.6,2.73,0.1262210014020844,-0.08055427555165644,0.9511031212600287,-0.021773201964123173,-0.359626,-21.571996
11.185,2.0,1.0,1.0,33.5,34.3,34.3,2.1,3.6,2.7325,0.11131099465116183,-0.0830151315369212,0.9513958162014312,-0.023970657355624682,-0.37373,-21.269059
11.185,2.0,1.0,1.0,33.5,34.3,34.3,2.1,3.6,2.735,0.09613152085030498,-0.08557081190971182,0.9513805858916116,-0.026340969691042167,-0.388798,-20.960309
11.185,2.0,1.0,1.0,33.5,34.3,34.3,2.1,3.6,2.7375,0.08067640575223743,-0.08822481371197251,0.9510357276445838,-0.028900378769214176,-0.404923,-20.645507
11.185,2.0,1.0,1.0,33.5,34.3,34.3,2.1,3.6,2.74,0.06493955016193559,-0.09098051177449844,0.9503374442020164,-0.031666968953839116,-0.422211,-20.324403
11.185,2.0,1.0,1.0,33.5,34.3,34.3,2.1,3.6,2.7425,0.04891501753791476,-0.09384107052081535,0.9492595846009364,-0.034660913092981784,-0.440784,-19.996733
11.185,2.0,1.0,1.0,33.5,34.3,34.3,2.1,3.6,2.745,0.032597148065722364,-0.09680932940379511,0.9477733479544831,-0.037904752215635155,-0.460776,-19.662219
11.185,2.0,1.0,1.0,33.5,34.3,34.3,2.1,3.6,2.7475,0.015980706544044782,-0.09988765467741248,0.9458469445756721,-0.04142371642144913,-0.482343,-19.320567
11.185,2.0,1.0,1.0,33.5,34.3,34.3,2.1,3.6,2.75,-0.000938926501502088,-0.103077748145672,0.943445208142347,-0.0452460930892535,-0.505662,-18.971469
11.185,2.0,1.0,1.0,33.5,34.3,34.3,2.1,3.6,2.7525,-0.01816550837822091,-0.10638040086605428,0.9405291518571619,-0.04940364924848732,-0.530935,-18.614602
11.185,2.0,1.0,1.0,33.5,34.3,34.3,2.1,3.6,2.755,-0.035701616884396284,-0.10979517633338053,0.9370554608582822,-0.05393211562618579,-0.558394,-18.249623
11.185,2.0,1.0,1.0,33.5,34.3,34.3,2.1,3.6,2.7575,-0.053548241980859654,-0.11332000319440194,0.9329759125846321,-0.05887174040012931,-0.588308,-17.876178
11.185,2.0,1.0,1.0,33.5,34.3,34.3,2.1,3.6,2.76,-0.07170426053889557,-0.11695065173627522,0.9282367165599509,-0.06426792089017364,-0.620987,-17.493892
11.185,2.0,1.0,1.0,33.5,34.3,34.3,2.1,3.6,2.7625,-0.09016576063312398,-0.12068006085830855,0.9227777653996746,-0.07017192103773191,-0.65679,-17.102377
11.185,2.0,1.0,1.0,33.5,34.3,34.3,2.1,3.6,2.765,-0.1089251720039872,-0.12449747247369172,0.9165317901874549,-0.07664168113518458,-0.696138,-16.70123
11.185,2.0,1.0,1.0,33.5,34.3,34.3,2.1,3.6,2.7675,-0.12797014658659164,-0.12838731766905587,0.9094234163767855,-0.08374272321197808,-0.739523,-16.290033
11.185,2.0,1.0,1.0,33.5,34.3,34.3,2.1,3.6,2.77,-0.14728211661865231,-0.13232778271201925,0.9013681220749522,-0.09154914973937897,-0.787525,-15.868363
11.185,2.0,1.0,1.0,33.5,34.3,34.3,2.1,3.6,2.7725,-0.16683443690124586,-0.13628896225363038,0.8922711105394209,-0.1001447233108033,-0.840826,-15.435786
11.185,2.0,1.0,1.0,33.5,34.3,34.3,2.1,3.6,2.775,-0.18658999132381726,-0.14023048087182,0.8820261253657086,-0.10962399829810902,-0.900238,-14.991873
11.185,2.0,1.0,1.0,33.5,34.3,34.3,2.1,3.6,2.7775,-0.2064981108983341,-0.14409843158167512,0.8705142638016602,-0.1200934485672582,-0.966731,-14.536203
11.185,2.0,1.0,1.0,33.5,34.3,34.3,2.1,3.6,2.78,-0.22649061082282707,-0.14782144066825062,0.8576028863109402,-0.13167249277128246,-1.041463,-14.068378
11.185,2.0,1.0,1.0,33.5,34.3,34.3,2.1,3.6,2.7825,-0.24647670817468598,-0.15130562286460392,0.8431447869185352,-0.14449425259360515,-1.125831,-13.588038
11.185,2.0,1.0,1.0,33.5,34.3,34.3,2.1,3.6,2.785,-0.26633653280592373,-0.15442814260795243,0.8269778905383193,-0.15870577814772024,-1.221522,-13.094887
11.185,2.0,1.0,1.0,33.5,34.3,34.3,2.1,3.6,2.7875,-0.28591289976916934,-0.15702905375515533,0.8089258965811028,-0.17446732252029928,-1.330589,-12.588723
11.185,2.0,1.0,1.0,33.5,34.3,34.3,2.1,3.6,2.79,-0.3050009890208548,-0.15890106855736663,0.7888005143174635,-0.1919500227412562,-1.455532,-12.069478
11.185,2.0,1.0,1.0,33.5,34.3,34.3,2.1,3.6,2.7925,-0.3233356100938757,-0.15977693960947237,0.7664062614812807,-0.2113310208259008,-1.599413,-11.53728
11.185,2.0,1.0,1.0,33.5,34.3,34.3,2.1,3.6,2.795,-0.3405758758929543,-0.15931428555881555,0.7415492515912778,-0.23278460823042155,-1.765993,-10.992522
11.185,2.0,1.0,1.0,33.5,34.3,34.3,2.1,3.6,2.7975,-0.3562874740785865,-0.15707805523774904,0.7140519954514196,-0.25646738257331425,-1.959894,-10.435961
11.185,2.0,1.0,1.0,33.5,34.3,34.3,2.1,3.6,2.8,-0.36992347361969036,-0.15252157125516191,0.6837769685406607,-0.2824946869749325,-2.186796,-9.868843
11.185,2.0,1.0,1.0,33.5,34.3,34.3,2.1,3.6,2.8025,-0.38080598528907245,-0.14496846803632335,0.650662433688056,-0.31090487472909334,-2.453652,-9.293058
11.185,2.0,1.0,1.0,33.5,34.3,34.3,2.1,3.6,2.805,-0.38811332534119364,-0.13360015463248634,0.6147744424885393,-0.34160751915479803,-2.768896,-8.711334
11.185,2.0,1.0,1.0,33.5,34.3,34.3,2.1,3.6,2.8075,-0.3908809049307876,-0.11745697839941324,0.5763783897707675,-0.37431224609419933,-3.142583,-8.12745
11.185,2.0,1.0,1.0,33.5,34.3,34.3,2.1,3.6,2.81,-0.38802887078716697,-0.09546602438483202,0.5360307277761854,-0.40843763097224345,-3.586297,-7.546476
11.185,2.0,1.0,1.0,33.5,34.3,34.3,2.1,3.6,2.8125,-0.378434615461659,-0.0665135174358163,0.494684613899078,-0.443006403620546,-4.112515,-6.974987
11.185,2.0,1.0,1.0,33.5,34.3,34.3,2.1,3.6,2.815,-0.36107077480662114,-0.029582230247712064,0.4537904193983047,-0.476545966423192,-4.732759,-6.421201
11.185,2.0,1.0,1.0,33.5,34.3,34.3,2.1,3.6,2.8175,-0.3352234167652423,0.01603163745579576,0.4153529403724705,-0.5070321586302398,-5.453185,-5.89495
11.185,2.0,1.0,1.0,33.5,34.3,34.3,2.1,3.6,2.82,-0.30078267206534604,0.07043000568942834,0.38188703439921245,-0.5319340928593475,-6.265217,-5.407368
11.185,2.0,1.0,1.0,33.5,34.3,34.3,2.1,3.6,2.8225,-0.25855387584064166,0.13280466889570147,0.35620710193734395,-0.5484239922309805,-7.12795,-4.970188
11.185,2.0,1.0,1.0,33.5,34.3,34.3,2.1,3.6,2.825,-0.21048077616082808,0.20121703763801874,0.34101647191005763,-0.5537853370816003,-7.942696,-4.594622
11.185,2.0,1.0,1.0,33.5,34.3,34.3,2.1,3.6,2.8275,-0.15963867065487042,0.27260680610182386,0.33834543763637637,-0.5459704196017114,-8.539894,-4.289925
11.185,2.0,1.0,1.0,33.5,34.3,34.3,2.1,3.6,2.83,-0.10989541499752785,0.34313029640255566,0.34899818011803485,-0.5241478572504327,-8.732949,-4.061942
