1,w,sub_t,h,l1,l2,l3,g1,g2,Freq,S11_re,S21_re,S11_img,S21_img,S11_dB,S21_dB
11.185,2.0,1.0,1.0,33.1,33.1,33.1,2.0,1.9,2.5,0.886494963949097,-0.00936045453109101,0.44891427489453,0.011394206263438,-0.05508,-36.626485
11.185,2.0,1.0,1.0,33.1,33.1,33.1,2.0,1.9,2.5025,0.8836140060035146,-0.00956820420465064,0.45442746531986145,0.011482443694040388,-0.055605,-36.509226
11.185,2.0,1.0,1.0,33.1,33.1,33.1,2.0,1.9,2.505,0.8806865557487251,-0.009780116542454018,0.45994324648622925,0.011570697300711327,-0.056139,-36.391573
11.185,2.0,1.0,1.0,33.1,33.1,33.1,2.0,1.9,2.5075,0.8777121474131844,-0.009996282251483938,0.4654614711602977,0.011658939814277949,-0.056683,-36.273521
11.185,2.0,1.0,1.0,33.1,33.1,33.1,2.0,1.9,2.51,0.8746903068134454,-0.01021679437736922,0.47098198720101914,0.011747142721944779,-0.057237,-36.155064
11.185,2.0,1.0,1.0,33.1,33.1,33.1,2.0,1.9,2.5125,0.8716205511782381,-0.01044174837986432,0.47650463737941673,0.01183527621345682,-0.057801,-36.036195
11.185,2.0,1.0,1.0,33.1,33.1,33.1,2.0,1.9,2.515,0.8685023889682683,-0.010671242211247971,0.482029259191659,0.011923309124556561,-0.058375,-35.91691
11.185,2.0,1.0,1.0,33.1,33.1,33.1,2.0,1.9,2.5175,0.8653353196916177,-0.01090537639776089,0.48755568466512805,0.012011208877578845,-0.05896,-35.797201
11.185,2.0,1.0,1.0,33.1,33.1,33.1,2.0,1.9,2.52,0.8621188337146067,-0.011144254124212096,0.49308374015720774,0.012098941419022777,-0.059555,-35.677063
11.185,2.0,1.0,1.0,33.1,33.1,33.1,2.0,1.9,2.5225,0.8588524120680029,-0.011387981321885694,0.49861324614645874,0.012186471153925361,-0.060162,-35.556488
11.185,2.0,1.0,1.0,33.1,33.1,33.1,2.0,1.9,2.525,0.8555355262484231,-0.011636666759888644,0.504144017015877,0.012273760876853777,-0.060781,-35.435471
11.185,2.0,1.0,1.0,33.1,33.1,33.1,2.0,1.9,2.5275,0.8521676380147937,-0.01189042214008452,0.509675860827891,0.012360771699321161,-0.061411,-35.314004
11.185,2.0,1.0,1.0,33.1,33.1,33.1,2.0,1.9,2.53,0.8487481991797249,-0.012149362195764787,0.5152085790907341,0.012447462973417719,-0.062053,-35.192081
11.185,2.0,1.0,1.0,33.1,33.1,33.1,2.0,1.9,2.5325,0.845276651395642,-0.012413604794215653,0.5207419665158265,0.012533792211438688,-0.062707,-35.069694
11.185,2.0,1.0,1.0,33.1,33.1,33.1,2.0,1.9,2.535,0.8417524259355168,-0.012683271043347755,0.5262758107657745,0.012619715001275025,-0.063375,-34.946837
11.185,2.0,1.0,1.0,33.1,33.1,33.1,2.0,1.9,2.5375,0.8381749434680417,-0.012958485402559998,0.5318098921925656,0.01270518491731746,-0.064055,-34.823502
11.185,2.0,1.0,1.0,33.1,33.1,33.1,2.0,1.9,2.54,0.8345436138270681,-0.013239375798018147,0.5373439835655366,0.012790153426613105,-0.064749,-34.69968
11.185,2.0,1.0,1.0,33.1,33.1,33.1,2.0,1.9,2.5425,0.8308578357751435,-0.013526073742539025,0.5428778497886533,0.012874569789991826,-0.065456,-34.575366
11.185,2.0,1.0,1.0,33.1,33.1,33.1,2.0,1.9,2.545,0.8271169967609551,-0.01381871446027463,0.548411247606625,0.01295838095786575,-0.066178,-34.45055
11.185,2.0,1.0,1.0,33.1,33.1,33.1,2.0,1.9,2.5475,0.8233204726705072,-0.014117437016405405,0.5539439252993457,0.013041531460386576,-0.066914,-34.325224
11.185,2.0,1.0,1.0,33.1,33.1,33.1,2.0,1.9,2.55,0.8194676275718165,-0.014422384452055544,0.5594756223641398,0.01312396329162115,-0.067666,-34.199381
11.185,2.0,1.0,1.0,33.1,33.1,33.1,2.0,1.9,2.5525,0.8155578134529461,-0.014733703924657553,0.5650060691852403,0.013205615787389746,-0.068432,-34.073012
11.185,2.0,1.0,1.0,33.1,33.1,33.1,2.0,1.9,2.555,0.8115903699531496,-0.015051546854001273,0.5705349866899223,0.013286425496384638,-0.069214,-33.946107
11.185,2.0,1.0,1.0,33.1,33.1,33.1,2.0,1.9,2.5575,0.807564624086916,-0.015376069074213275,0.5760620859906694,0.013366326044162753,-0.070013,-33.818659
11.185,2.0,1.0,1.0,33.1,33.1,33.1,2.0,1.9,2.56,0.8034798899606911,-0.015707430991924436,0.5815870680127134,0.01344524798958042,-0.070828,-33.690658
11.185,2.0,1.0,1.0,33.1,33.1,33.1,2.0,1.9,2.5625,0.7993354684820374,-0.01604579775089709,0.5871096231062602,0.013523118673210419,-0.071661,-33.562095
11.185,2.0,1.0,1.0,33.1,33.1,33.1,2.0,1.9,2.565,0.7951306470609881,-0.016391339403390656,0.5926294306426801,0.013599862057249132,-0.072511,-33.432961
11.185,2.0,1.0,1.0,33.1,33.1,33.1,2.0,1.9,2.5675,0.7908646993033509,-0.016744231088563398,0.5981461585938779,0.013675398556391247,-0.073379,-33.303245
11.185,2.0,1.0,1.0,33.1,33.1,33.1,2.0,1.9,2.57,0.786536884695691,-0.017104653218218312,0.6036594630940482,0.013749644859114228,-0.074266,-33.172938
11.185,2.0,1.0,1.0,33.1,33.1,33.1,2.0,1.9,2.5725,0.7821464482817243,-0.017472791670216068,0.6091689879829474,0.013822513738776241,-0.075172,-33.042029
11.185,2.0,1.0,1.0,33.1,33.1,33.1,2.0,1.9,2.575,0.7776926203298392,-0.017848837989893195,0.6146743643297756,0.013893913853892655,-0.076098,-32.910509
11.185,2.0,1.0,1.0,33.1,33.1,33.1,2.0,1.9,2.5775,0.7731746159914545,-0.018232989599839704,0.620175209936714,0.0139637495369116,-0.077045,-32.778366
11.185,2.0,1.0,1.0,33.1,33.1,33.1,2.0,1.9,2.58,0.76859163494991,-0.01862545001840589,0.6256711288210929,0.014031920570765051,-0.078012,-32.645591
11.185,2.0,1.0,1.0,33.1,33.1,33.1,2.0,1.9,2.5825,0.7639428610595679,-0.019026429087327115,0.6311617106751208,0.01409832195241863,-0.079001,-32.51217
11.185,2.0,1.0,1.0,33.1,33.1,33.1,2.0,1.9,2.585,0.7592274619748062,-0.019436143208870476,0.6366465303020334,0.014162843642593483,-0.080012,-32.378094
11.185,2.0,1.0,1.0,33.1,33.1,33.1,2.0,1.9,2.5875,0.7544445887685531,-0.019854815592930036,0.6421251470274524,0.01422537030077293,-0.081047,-32.243351
11.185,2.0,1.0,1.0,33.1,33.1,33.1,2.0,1.9,2.59,0.7495933755400215,-0.020282676514513487,0.6475971040846726,0.014285781004546902,-0.082105,-32.107928
11.185,2.0,1.0,1.0,33.1,33.1,33.1,2.0,1.9,2.5925,0.7446729390112584,-0.02071996358208579,0.6530619279725198,0.014343948952276905,-0.083187,-31.971813
11.185,2.0,1.0,1.0,33.1,33.1,33.1,2.0,1.9,2.595,0.7396823781121535,-0.021166922017256187,0.6585191277843231,0.014399741147997743,-0.084295,-31.834994
11.185,2.0,1.0,1.0,33.1,33.1,33.1,2.0,1.9,2.5975,0.7346207735534858,-0.02162380494631826,0.663968194506486,0.014453018067386041,-0.085429,-31.697459
11.185,2.0,1.0,1.0,33.1,33.1,33.1,2.0,1.9,2.6,0.7294871873876115,-0.02209087370417514,0.6694086002850089,0.0145036333035514,-0.08659,-31.559194
11.185,2.0,1.0,1.0,33.1,33.1,33.1,2.0,1.9,2.6025,0.7242806625563727,-0.022568398151206523,0.6748397976582283,0.014551433191306154,-0.087778,-31.420185
11.185,2.0,1.0,1.0,33.1,33.1,33.1,2.0,1.9,2.605,0.7190002224257689,-0.023056657003659838,0.6802612187539342,0.014596256408478296,-0.088995,-31.280419
11.185,2.0,1.0,1.0,33.1,33.1,33.1,2.0,1.9,2.6075,0.7136448703069505,-0.023555938178176573,0.685672274448891,0.014637933552722244,-0.090242,-31.139882
11.185,2.0,1.0,1.0,33.1,33.1,33.1,2.0,1.9,2.61,0.7082135889630546,-0.02406653915108456,0.69107235348866,0.014676286692168762,-0.091519,-30.99856
11.185,2.0,1.0,1.0,33.1,33.1,33.1,2.0,1.9,2.6125,0.7027053401013904,-0.024588767333126774,0.696460821565494,0.014711128888132498,-0.092828,-30.856437
11.185,2.0,1.0,1.0,33.1,33.1,33.1,2.0,1.9,2.615,0.6971190638504702,-0.025122940460316028,0.7018370203519224,0.014742263687957679,-0.094169,-30.7135
11.185,2.0,1.0,1.0,33.1,33.1,33.1,2.0,1.9,2.6175,0.6914536782213623,-0.02566938700164033,0.7072002664874573,0.014769484585940997,-0.095544,-30.569731
11.185,2.0,1.0,1.0,33.1,33.1,33.1,2.0,1.9,2.62,0.6857080785528247,-0.026228446584374263,0.7125498505157193,0.01479257445010925,-0.096954,-30.425116
11.185,2.0,1.0,1.0,33.1,33.1,33.1,2.0,1.9,2.6225,0.6798811369396565,-0.02680047043778195,0.7178850357690615,0.014811304912460624,-0.0984,-30.279639
11.185,2.0,1.0,1.0,33.1,33.1,33.1,2.0,1.9,2.625,0.673971701643705,-0.02738582185603,0.723205057197569,0.0148254357200891,-0.099884,-30.133282
11.185,2.0,1.0,1.0,33.1,33.1,33.1,2.0,1.9,2.6275,0.6679785964869209,-0.027984876681164114,0.7285091201391093,0.014834714044414762,-0.101406,-29.986029
11.185,2.0,1.0,1.0,33.1,33.1,33.1,2.0,1.9,2.63,0.6619006202258662,-0.028598023807030012,0.7337963990268499,0.014838873745515376,-0.102968,-29.837863
11.185,2.0,1.0,1.0,33.1,33.1,33.1,2.0,1.9,2.6325,0.6557365459070498,-0.029225665705062468,0.7390660360304123,0.014837634588323972,-0.104572,-29.688765
11.185,2.0,1.0,1.0,33.1,33.1,33.1,2.0,1.9,2.635,0.649485120202452,-0.029868218972889632,0.744317139626551,0.014830701407190136,-0.106219,-29.538717
11.185,2.0,1.0,1.0,33.1,33.1,33.1,2.0,1.9,2.6375,0.6431450627246015,-0.03052611490673846,0.7495487830949208,0.01481776321502359,-0.10791,-29.387701
11.185,2.0,1.0,1.0,33.1,33.1,33.1,2.0,1.9,2.64,0.6367150653205293,-0.031199800098659417,0.7547600029342192,0.014798492252928563,-0.109648,-29.235697
11.185,2.0,1.0,1.0,33.1,33.1,33.1,2.0,1.9,2.6425,0.6301937913439483,-0.03188973705961777,0.759949797193558,0.014772542975900431,-0.111433,-29.082686
11.185,2.0,1.0,1.0,33.1,33.1,33.1,2.0,1.9,2.645,0.6235798749049826,-0.032596404869526446,0.7651171237135913,0.014739550969789253,-0.113269,-28.928647
11.185,2.0,1.0,1.0,33.1,33.1,33.1,2.0,1.9,2.6475,0.6168719200967792,-0.03332029985532756,0.7702608982714678,0.014699131794334405,-0.115156,-28.77356
11.185,2.0,1.0,1.0,33.1,33.1,33.1,2.0,1.9,2.65,0.6100685001983182,-0.034061936298251966,0.7753799926232293,0.014650879746634104,-0.117097,-28.617403
11.185,2.0,1.0,1.0,33.1,33.1,33.1,2.0,1.9,2.6525,0.6031681568527936,-0.03482184717139915,0.7804732324367557,0.014594366538937156,-0.119093,-28.460155
11.185,2.0,1.0,1.0,33.1,33.1,33.1,2.0,1.9,2.655,0.5961693992208873,-0.03560058490880669,0.7855393951078298,0.014529139884116173,-0.121148,-28.301794
11.185,2.0,1.0,1.0,33.1,33.1,33.1,2.0,1.9,2.6575,0.589070703108339,-0.03639872220717824,0.7905772074512758,0.014454721981612111,-0.123263,-28.142296
11.185,2.0,1.0,1.0,33.1,33.1,33.1,2.0,1.9,2.66,0.5818705100672179,-0.03721685286144348,0.7955853432584802,0.014370607896005121,-0.125441,-27.981637
11.185,2.0,1.0,1.0,33.1,33.1,33.1,2.0,1.9,2.6625,0.5745672264703591,-0.03805559263531237,0.800562420711868,0.014276263819680371,-0.127684,-27.819795
11.185,2.0,1.0,1.0,33.1,33.1,33.1,2.0,1.9,2.665,0.5671592225584694,-0.038915580167969845,0.805506999646166,0.014171125210300834,-0.129995,-27.656743
11.185,2.0,1.0,1.0,33.1,33.1,33.1,2.0,1.9,2.6675,0.5596448314595154,-0.0397974779180196,0.8104175786453524,0.01405459479296366,-0.132377,-27.492457
11.185,2.0,1.0,1.0,33.1,33.1,33.1,2.0,1.9,2.67,0.5520223481800568,-0.04070197314573349,0.815292591963324,0.013926040416005205,-0.134832,-27.326909
11.185,2.0,1.0,1.0,33.1,33.1,33.1,2.0,1.9,2.6725,0.5442900285683335,-0.041629778934596164,0.8201304062552222,0.013784792748416838,-0.137365,-27.160074
11.185,2.0,1.0,1.0,33.1,33.1,33.1,2.0,1.9,2.675,0.5364460882490584,-0.0425816352530354,0.8249293171052422,0.013630142805721635,-0.139978,-26.991923
11.185,2.0,1.0,1.0,33.1,33.1,33.1,2.0,1.9,2.6775,0.5284887015300165,-0.04355831005710244,0.8296875453355042,0.013461339289950346,-0.142675,-26.822429
11.185,2.0,1.0,1.0,33.1,33.1,33.1,2.0,1.9,2.68,0.5204160002808104,-0.04456060043471339,0.8344032330791762,0.013277585728005466,-0.145459,-26.651561
11.185,2.0,1.0,1.0,33.1,33.1,33.1,2.0,1.9,2.6825,0.5122260727843378,-0.045589333791854814,0.8390744395995181,0.013078037391225405,-0.148334,-26.47929
11.185,2.0,1.0,1.0,33.1,33.1,33.1,2.0,1.9,2.685,0.5039169625618758,-0.04664536908091535,0.8436991368348805,0.012861797977321997,-0.151305,-26.305585
11.185,2.0,1.0,1.0,33.1,33.1,33.1,2.0,1.9,2.6875,0.49548666717304274,-0.04772959807099425,0.8482752046477919,0.012627916034058391,-0.154376,-26.130413
11.185,2.0,1.0,1.0,33.1,33.1,33.1,2.0,1.9,2.69,0.4869331369923285,-0.048842946659661025,0.8528004257542888,0.012375381102035647,-0.157552,-25.953743
11.185,2.0,1.0,1.0,33.1,33.1,33.1,2.0,1.9,2.6925,0.4782542739644015,-0.049986376225194105,0.8572724803073544,0.012103119551744123,-0.160837,-25.775541
11.185,2.0,1.0,1.0,33.1,33.1,33.1,2.0,1.9,2.695,0.46944793034104737,-0.05116088501776241,0.861688940105862,0.011809990087588868,-0.164237,-25.595771
11.185,2.0,1.0,1.0,33.1,33.1,33.1,2.0,1.9,2.6975,0.46051190740329073,-0.052367509587360375,0.8660472623976666,0.011494778888881356,-0.167757,-25.414398
11.185,2.0,1.0,1.0,33.1,33.1,33.1,2.0,1.9,2.7,0.4514439541731726,-0.05360732624550499,0.8703447832424285,0.011156194354781608,-0.171403,-25.231385
11.185,2.0,1.0,1.0,33.1,33.1,33.1,2.0,1.9,2.7025,0.44224176612065125,-0.05488145255674692,0.8745787103963589,0.010792861416830397,-0.175181,-25.046694
11.185,2.0,1.0,1.0,33.1,33.1,33.1,2.0,1.9,2.705,0.4329029838723408,-0.05619104885490977,0.8787461156773716,0.010403315379005629,-0.179099,-24.860286
11.185,2.0,1.0,1.0,33.1,33.1,33.1,2.0,1.9,2.7075,0.42342519193024963,-0.0575373197776051,0.8828439267648764,0.00998599524110136,-0.183162,-24.672121
11.185,2.0,1.0,1.0,33.1,33.1,33.1,2.0,1.9,2.71,0.4138059174103926,-0.05892151581095421,0.8868689183838875,0.009539236456647652,-0.187379,-24.482156
11.185,2.0,1.0,1.0,33.1,33.1,33.1,2.0,1.9,2.7125,0.40404262881316694,-0.060344934834508646,0.8908177028179102,0.0090612630714709,-0.191758,-24.290349
11.185,2.0,1.0,1.0,33.1,33.1,33.1,2.0,1.9,2.715,0.394132734839795,-0.06180892365407737,0.8946867196893656,0.008550179183309671,-0.196307,-24.096656
11.185,2.0,1.0,1.0,33.1,33.1,33.1,2.0,1.9,2.7175,0.3840735832719415,-0.06331487950743202,0.8984722249398845,0.008003959656547896,-0.201036,-23.901029
11.185,2.0,1.0,1.0,33.1,33.1,33.1,2.0,1.9,2.72,0.37386245993499334,-0.06486425152463014,0.9021702789356787,0.0074204400190535594,-0.205953,-23.703423
11.185,2.0,1.0,1.0,33.1,33.1,33.1,2.0,1.9,2.7225,0.3634965877693825,-0.06645854212085509,0.9057767336152635,0.006797305460210474,-0.211071,-23.503788
11.185,2.0,1.0,1.0,33.1,33.1,33.1,2.0,1.9,2.725,0.35297312603908576,-0.0680993082951033,0.9092872185878776,0.006132078840403434,-0.216399,-23.302074
11.185,2.0,1.0,1.0,33.1,33.1,33.1,2.0,1.9,2.7275,0.3422891697118819,-0.06978816280264737,0.9126971260810651,0.005422107612364685,-0.221951,-23.098228
11.185,2.0,1.0,1.0,33.1,33.1,33.1,2.0,1.9,2.73,0.33144174905256635,-0.07152677516276756,0.9160015946247712,0.004664549543766575,-0.227738,-22.892196
11.185,2.0,1.0,1.0,33.1,33.1,33.1,2.0,1.9,2.7325,0.32042782947801296,-0.0733168724556247,0.9191954913469168,0.0038563571181247933,-0.233775,-22.683923
11.185,2.0,1.0,1.0,33.1,33.1,33.1,2.0,1.9,2.735,0.30924431173220357,-0.0751602398530768,0.9222733927415585,0.0029942604772917785,-0.240078,-22.47335
11.185,2.0,1.0,1.0,33.1,33.1,33.1,2.0,1.9,2.7375,0.29788803245022816,-0.07705872081748211,0.9252295637551915,0.0020747487534031562,-0.246661,-22.260417
11.185,2.0,1.0,1.0,33.1,33.1,33.1,2.0,1.9,2.74,0.28635576519317335,-0.07901421688971808,0.92805793501948,0.0010940496208872242,-0.253542,-22.045063
11.185,2.0,1.0,1.0,33.1,33.1,33.1,2.0,1.9,2.7425,0.2746442220512045,-0.08102868697242072,0.9307520780391912,4.8106879842786e-05,-0.260741,-21.827222
11.185,2.0,1.0,1.0,33.1,33.1,33.1,2.0,1.9,2.745,0.2627500559303999,-0.08310414599630475,0.933305178122476,-0.001067444139489825,-0.268277,-21.60683
11.185,2.0,1.0,1.0,33.1,33.1,33.1,2.0,1.9,2.7475,0.25066986366064603,-0.08524266283581183,0.9357100048162931,-0.0022573035855793385,-0.276173,-21.383815
11.185,2.0,1.0,1.0,33.1,33.1,33.1,2.0,1.9,2.75,0.238400190087778,-0.0874463573145626,0.937958879582701,-0.00352653676915294,-0.284451,-21.158108
11.185,2.0,1.0,1.0,33.1,33.1,33.1,2.0,1.9,2.7525,0.22593753334408842,-0.08971739611031268,0.9400436404213914,-0.004880606812916594,-0.293139,-20.929634
11.185,2.0,1.0,1.0,33.1,33.1,33.1,2.0,1.9,2.755,0.21327835152816493,-0.09205798733235215,0.9419556031101074,-0.006325410592464422,-0.302264,-20.698315
11.185,2.0,1.0,1.0,33.1,33.1,33.1,2.0,1.9,2.7575,0.2004190710691023,-0.09447037350031653,0.9436855186969517,-0.007867318330726507,-0.311855,-20.464072
11.185,2.0,1.0,1.0,33.1,33.1,33.1,2.0,1.9,2.76,0.1873560971029441,-0.09695682260072756,0.9452235268368369,-0.009513217249742629,-0.321948,-20.226822
11.185,2.0,1.0,1.0,33.1,33.1,33.1,2.0,1.9,2.7625,0.17408582625230462,-0.09951961683447703,0.9465591045180809,-0.011270559729426139,-0.332577,-19.98648
11.185,2.0,1.0,1.0,33.1,33.1,33.1,2.0,1.9,2.765,0.1606046622760545,-0.10216103859275866,0.947681009674017,-0.013147416473565307,-0.343783,-19.742956
11.185,2.0,1.0,1.0,33.1,33.1,33.1,2.0,1.9,2.7675,0.14690903514686146,-0.10488335310798737,0.94857721911851,-0.015152535238830638,-0.355607,-19.496157
11.185,2.0,1.0,1.0,33.1,33.1,33.1,2.0,1.9,2.77,0.13299542422391294,-0.10768878711688779,0.9492348601829121,-0.01729540574310205,-0.368099,-19.245988
11.185,2.0,1.0,1.0,33.1,33.1,33.1,2.0,1.9,2.7725,0.11886038631983983,-0.11057950274125357,0.9496401353657119,-0.019586331434917673,-0.38131,-18.992349
11.185,2.0,1.0,1.0,33.1,33.1,33.1,2.0,1.9,2.775,0.1045005896196298,-0.11355756563320514,0.9497782392349501,-0.022036508875954024,-0.395297,-18.735138
11.185,2.0,1.0,1.0,33.1,33.1,33.1,2.0,1.9,2.7775,0.08991285460080925,-0.11662490624035227,0.949633266748287,-0.02465811556237318,-0.410122,-18.474245
11.185,2.0,1.0,1.0,33.1,33.1,33.1,2.0,1.9,2.78,0.07509420333544438,-0.11978327281512127,0.9491881120775068,-0.027464407087342435,-0.425856,-18.209562
11.185,2.0,1.0,1.0,33.1,33.1,33.1,2.0,1.9,2.7825,0.06004191883406169,-0.1230341745131433,0.9484243569455283,-0.030469824623840958,-0.442575,-17.940971
11.185,2.0,1.0,1.0,33.1,33.1,33.1,2.0,1.9,2.785,0.04475361642963406,-0.12637881258774109,0.9473221474076834,-0.03369011378074331,-0.460364,-17.668356
11.185,2.0,1.0,1.0,33.1,33.1,33.1,2.0,1.9,2.7875,0.029227329609219203,-0.12981799727861823,0.9458600579400951,-0.037142455951119896,-0.479317,-17.391592
11.185,2.0,1.0,1.0,33.1,33.1,33.1,2.0,1.9,2.79,0.013461613196428426,-0.13335204749779234,0.9440149416434443,-0.04084561332256048,-0.49954,-17.110551
11.185,2.0,1.0,1.0,33.1,33.1,33.1,2.0,1.9,2.7925,-0.0025443326114758186,-0.13698066981626486,0.9417617653404591,-0.04482008874471984,-0.521147,-16.825103
11.185,2.0,1.0,1.0,33.1,33.1,33.1,2.0,1.9,2.795,-0.018790513120775756,-0.14070281252900924,0.9390734283545539,-0.04908830163460256,-0.54427,-16.535112
11.185,2.0,1.0,1.0,33.1,33.1,33.1,2.0,1.9,2.7975,-0.035275959820768796,-0.14451648969728617,0.9359205638254401,-0.05367478102471165,-0.569055,-16.240439
11.185,2.0,1.0,1.0,33.1,33.1,33.1,2.0,1.9,2.8,-0.05199851468817603,-0.14841856900511358,0.9322713215737627,-0.05860637669448667,-0.595664,-15.940942
11.185,2.0,1.0,1.0,33.1,33.1,33.1,2.0,1.9,2.8025,-0.06895457065193854,-0.15240451598445914,0.9280911318100933,-0.06391248903165894,-0.62428,-15.636474
11.185,2.0,1.0,1.0,33.1,33.1,33.1,2.0,1.9,2.805,-0.08613875920262866,-0.15646808561953335,0.9233424494483673,-0.0696253177925606,-0.655111,-15.326887
11.185,2.0,1.0,1.0,33.1,33.1,33.1,2.0,1.9,2.8075,-0.10354357426726221,-0.1606009504871517,0.9179844795048021,-0.07578012919398787,-0.688388,-15.012031
11.185,2.0,1.0,1.0,33.1,33.1,33.1,2.0,1.9,2.81,-0.12115891924150418,-0.16479225237601203,0.9119728851422955,-0.08241553967141535,-0.724377,-14.691755
11.185,2.0,1.0,1.0,33.1,33.1,33.1,2.0,1.9,2.8125,-0.13897156142273365,-0.16902806169964482,0.9052594814965315,-0.08957381303989226,-0.763375,-14.365907
11.185,2.0,1.0,1.0,33.1,33.1,33.1,2.0,1.9,2.815,-0.15696447496625845,-0.17329072592591738,0.8977919206812385,-0.09730116550645601,-0.805724,-14.034338
11.185,2.0,1.0,1.0,33.1,33.1,33.1,2.0,1.9,2.8175,-0.17511604985284646,-0.1775580846525283,0.889513376570131,-0.10564806975294695,-0.851812,-13.696902
11.185,2.0,1.0,1.0,33.1,33.1,33.1,2.0,1.9,2.82,-0.19339914019323534,-0.18180252485263354,0.8803622424306559,-0.11466954479722881,-0.902082,-13.353462
11.185,2.0,1.0,1.0,33.1,33.1,33.1,2.0,1.9,2.8225,-0.21177992054092246,-0.18598984523927461,0.870271860690175,-0.1244254121006723,-0.957044,-13.003885
11.185,2.0,1.0,1.0,33.1,33.1,33.1,2.0,1.9,2.825,-0.2302165138632129,-0.1900778937847475,0.8591703126393442,-0.13498048983268088,-1.017284,-12.648057
11.185,2.0,1.0,1.0,33.1,33.1,33.1,2.0,1.9,2.8275,-0.2486573497083469,-0.19401493746725212,0.8469803074855369,-0.14640468557005423,-1.083476,-12.28588
11.185,2.0,1.0,1.0,33.1,33.1,33.1,2.0,1.9,2.83,-0.2670392064230831,-0.1977377188337616,0.8336192258339307,-0.1587729320382909,-1.156403,-11.917279
