1,w,sub_t,h,l1,l2,l3,g1,g2,Freq,S11_re,S21_re,S11_img,S21_img,S11_dB,S21_dB
11.185,2.0,1.0,1.0,33.5,34.5,34.5,3.0,2.0,2.5,0.845925460855243,-0.0104381456142947,0.519619347244912,0.00935826427280538,-0.063019,-37.065667
11.185,2.0,1.0,1.0,33.5,34.5,34.5,3.0,2.0,2.5025,0.8423331938456746,-0.010669278884021204,0.5252732309464949,0.009422275447728253,-0.063711,-36.933332
11.185,2.0,1.0,1.0,33.5,34.5,34.5,3.0,2.0,2.505,0.8386856559832753,-0.010905478598708574,0.530926813251848,0.009485935501338957,-0.064417,-36.800357
11.185,2.0,1.0,1.0,33.5,34.5,34.5,3.0,2.0,2.5075,0.8349822311336458,-0.01114688308264928,0.5365798444373744,0.009549208789240607,-0.065138,-36.666729
11.185,2.0,1.0,1.0,33.5,34.5,34.5,3.0,2.0,2.51,0.831222290842786,-0.011393635627405573,0.5422320665405108,0.009612057750275531,-0.065875,-36.532431
11.185,2.0,1.0,1.0,33.5,34.5,34.5,3.0,2.0,2.5125,0.8274051940027257,-0.011645884714339087,0.5478832130510933,0.009674442796201246,-0.066628,-36.397447
11.185,2.0,1.0,1.0,33.5,34.5,34.5,3.0,2.0,2.515,0.8235302865038273,-0.011903784249129004,0.5535330085894375,0.009736322194194798,-0.067398,-36.261761
11.185,2.0,1.0,1.0,33.5,34.5,34.5,3.0,2.0,2.5175,0.8195969008730215,-0.01216749380903334,0.5591811685703862,0.009797651941655994,-0.068184,-36.125356
11.185,2.0,1.0,1.0,33.5,34.5,34.5,3.0,2.0,2.52,0.8156043558971562,-0.012437178903703274,0.5648273988525652,0.009858385632733432,-0.068988,-35.988215
11.185,2.0,1.0,1.0,33.5,34.5,34.5,3.0,2.0,2.5225,0.811551956230617,-0.012713011250418954,0.5704713953719813,0.009918474315950047,-0.06981,-35.85032
11.185,2.0,1.0,1.0,33.5,34.5,34.5,3.0,2.0,2.525,0.8074389919862793,-0.012995169064680328,0.5761128437590906,0.00997786634225095,-0.07065,-35.711653
11.185,2.0,1.0,1.0,33.5,34.5,34.5,3.0,2.0,2.5275,0.8032647383088091,-0.013283837367153427,0.5817514189383632,0.010036507202739258,-0.07151,-35.572196
11.185,2.0,1.0,1.0,33.5,34.5,34.5,3.0,2.0,2.53,0.799028454929247,-0.013579208308048383,0.5873867847093026,0.010094339355299879,-0.07239,-35.431929
11.185,2.0,1.0,1.0,33.5,34.5,34.5,3.0,2.0,2.5325,0.7947293856997366,-0.013881481510087218,0.5930185933078145,0.010151302039243984,-0.07329,-35.290834
11.185,2.0,1.0,1.0,33.5,34.5,34.5,3.0,2.0,2.535,0.7903667581071568,-0.014190864431303966,0.5986464849467225,0.01020733107702616,-0.074212,-35.148889
11.185,2.0,1.0,1.0,33.5,34.5,34.5,3.0,2.0,2.5375,0.7859397827643503,-0.014507572749019038,0.6042700873341317,0.010262358662006603,-0.075156,-35.006076
11.185,2.0,1.0,1.0,33.5,34.5,34.5,3.0,2.0,2.54,0.7814476528775113,-0.014831830766429403,0.6098890151682508,0.010316313131132451,-0.076122,-34.862372
11.185,2.0,1.0,1.0,33.5,34.5,34.5,3.0,2.0,2.5425,0.776889543688205,-0.015163871843371337,0.6155028696071613,0.010369118721315377,-0.077111,-34.717756
11.185,2.0,1.0,1.0,33.5,34.5,34.5,3.0,2.0,2.545,0.7722646118883597,-0.015503938852932176,0.6211112377119044,0.010420695308164626,-0.078125,-34.572206
11.185,2.0,1.0,1.0,33.5,34.5,34.5,3.0,2.0,2.5475,0.7675719950064507,-0.015852284665721483,0.6267136918611094,0.010470958125615003,-0.079165,-34.425699
11.185,2.0,1.0,1.0,33.5,34.5,34.5,3.0,2.0,2.55,0.7628108107629381,-0.01620917266375851,0.6323097891352666,0.010519817464848214,-0.08023,-34.278212
11.185,2.0,1.0,1.0,33.5,34.5,34.5,3.0,2.0,2.5525,0.7579801563928878,-0.016574877286084044,0.6378990706685412,0.010567178350756774,-0.081322,-34.129721
11.185,2.0,1.0,1.0,33.5,34.5,34.5,3.0,2.0,2.555,0.7530791079335083,-0.016949684608386674,0.6434810609658885,0.010612940194030343,-0.082442,-33.9802
11.185,2.0,1.0,1.0,33.5,34.5,34.5,3.0,2.0,2.5575,0.7481067194741701,-0.017333892959109642,0.6490552671830079,0.010656996416760057,-0.083591,-33.829625
11.185,2.0,1.0,1.0,33.5,34.5,34.5,3.0,2.0,2.56,0.7430620223662644,-0.017727813574718723,0.6546211783664475,0.010699234049247318,-0.084771,-33.677969
11.185,2.0,1.0,1.0,33.5,34.5,34.5,3.0,2.0,2.5625,0.737944024390038,-0.0181317712970274,0.66017826465095,0.0107395332954798,-0.085981,-33.525205
11.185,2.0,1.0,1.0,33.5,34.5,34.5,3.0,2.0,2.565,0.7327517088752935,-0.01854610531572793,0.6657259764108491,0.010777767064477842,-0.087225,-33.371305
11.185,2.0,1.0,1.0,33.5,34.5,34.5,3.0,2.0,2.5675,0.7274840337725874,-0.01897116995953419,0.6712637433620181,0.01081380046443707,-0.088501,-33.216241
11.185,2.0,1.0,1.0,33.5,34.5,34.5,3.0,2.0,2.57,0.7221399306712614,-0.01940733553964745,0.6767909736105654,0.01084749025627553,-0.089813,-33.059982
11.185,2.0,1.0,1.0,33.5,34.5,34.5,3.0,2.0,2.5725,0.716718303760318,-0.019854989249565174,0.6823070526440844,0.010878684262844345,-0.091162,-32.902499
11.185,2.0,1.0,1.0,33.5,34.5,34.5,3.0,2.0,2.575,0.711218028727812,-0.020314536125614145,0.6878113422608609,0.010907220729670614,-0.092548,-32.743759
11.185,2.0,1.0,1.0,33.5,34.5,34.5,3.0,2.0,2.5775,0.7056379515940381,-0.02078640007297004,0.693303179431992,0.01093292763266422,-0.093974,-32.583731
11.185,2.0,1.0,1.0,33.5,34.5,34.5,3.0,2.0,2.58,0.6999768874733723,-0.021271024962352034,0.6987818750908479,0.010955621927731116,-0.09544,-32.42238
11.185,2.0,1.0,1.0,33.5,34.5,34.5,3.0,2.0,2.5825,0.6942336192591542,-0.021768875803048395,0.7042467128437576,0.010975108736690711,-0.09695,-32.259673
11.185,2.0,1.0,1.0,33.5,34.5,34.5,3.0,2.0,2.585,0.6884068962254956,-0.022280439998438654,0.7096969475951478,0.010991180463280773,-0.098504,-32.095572
11.185,2.0,1.0,1.0,33.5,34.5,34.5,3.0,2.0,2.5875,0.6824954325393218,-0.02280622869074816,0.7151318040796614,0.011003615832344278,-0.100105,-31.93004
11.185,2.0,1.0,1.0,33.5,34.5,34.5,3.0,2.0,2.59,0.6764979056753458,-0.023346778202386335,0.720550475292976,0.011012178844522505,-0.101755,-31.76304
11.185,2.0,1.0,1.0,33.5,34.5,34.5,3.0,2.0,2.5925,0.670412954725966,-0.02390265158191366,0.7259521208121529,0.011016617637902302,-0.103455,-31.594532
11.185,2.0,1.0,1.0,33.5,34.5,34.5,3.0,2.0,2.595,0.6642391785973495,-0.02447444026343255,0.7313358649953209,0.011016663247090568,-0.105209,-31.424473
11.185,2.0,1.0,1.0,33.5,34.5,34.5,3.0,2.0,2.5975,0.6579751340820903,-0.025062765849038396,0.7367007950493846,0.011012028249076131,-0.107018,-31.252823
11.185,2.0,1.0,1.0,33.5,34.5,34.5,3.0,2.0,2.6,0.6516193337979267,-0.025668282024887717,0.7420459589531364,0.01100240528398937,-0.108885,-31.079535
11.185,2.0,1.0,1.0,33.5,34.5,34.5,3.0,2.0,2.6025,0.6451702439809814,-0.026291676622464386,0.7473703632217076,0.010987465437453442,-0.110813,-30.904565
11.185,2.0,1.0,1.0,33.5,34.5,34.5,3.0,2.0,2.605,0.6386262821208213,-0.026933673837752498,0.752672970496658,0.010966856469612247,-0.112805,-30.727864
11.185,2.0,1.0,1.0,33.5,34.5,34.5,3.0,2.0,2.6075,0.6319858144234098,-0.02759503662228031,0.7579526969441178,0.01094020087409644,-0.114864,-30.549383
11.185,2.0,1.0,1.0,33.5,34.5,34.5,3.0,2.0,2.61,0.6252471530866112,-0.028276569261382455,0.7632084094412893,0.01090709374811639,-0.116993,-30.369071
11.185,2.0,1.0,1.0,33.5,34.5,34.5,3.0,2.0,2.6125,0.6184085533713546,-0.028979120156571635,0.7684389225292009,0.010867100452505215,-0.119195,-30.186874
11.185,2.0,1.0,1.0,33.5,34.5,34.5,3.0,2.0,2.615,0.6114682104498521,-0.029703584830611092,0.773642995106854,0.010819754037840124,-0.121475,-30.002737
11.185,2.0,1.0,1.0,33.5,34.5,34.5,3.0,2.0,2.6175,0.604424256010363,-0.030450909175781152,0.7788193268387635,0.010764552409690575,-0.123837,-29.816601
11.185,2.0,1.0,1.0,33.5,34.5,34.5,3.0,2.0,2.62,0.5972747545958587,-0.03122209296793268,0.7839665542443015,0.010700955202513823,-0.126284,-29.628407
11.185,2.0,1.0,1.0,33.5,34.5,34.5,3.0,2.0,2.6225,0.5900176996515893,-0.03201819367126171,0.7890832464331466,0.010628380327673315,-0.128822,-29.438092
11.185,2.0,1.0,1.0,33.5,34.5,34.5,3.0,2.0,2.625,0.582651009253948,-0.0328403305613366,0.794167900446396,0.0105462001564105,-0.131455,-29.24559
11.185,2.0,1.0,1.0,33.5,34.5,34.5,3.0,2.0,2.6275,0.5751725214900689,-0.033689689196804276,0.7992189361574937,0.010453737293250708,-0.134189,-29.050834
11.185,2.0,1.0,1.0,33.5,34.5,34.5,3.0,2.0,2.63,0.5675799894543964,-0.03456752627341208,0.8042346906808353,0.010350259889156983,-0.137029,-28.853751
11.185,2.0,1.0,1.0,33.5,34.5,34.5,3.0,2.0,2.6325,0.5598710758248084,-0.03547517489755957,0.8092134122286965,0.010234976436617414,-0.139982,-28.654268
11.185,2.0,1.0,1.0,33.5,34.5,34.5,3.0,2.0,2.635,0.5520433469768907,-0.03641405032057011,0.8141532533487577,0.010107029980606705,-0.143053,-28.452307
11.185,2.0,1.0,1.0,33.5,34.5,34.5,3.0,2.0,2.6375,0.5440942665904697,-0.03738565617929066,0.8190522634647821,0.009965491669781543,-0.146251,-28.247787
11.185,2.0,1.0,1.0,33.5,34.5,34.5,3.0,2.0,2.64,0.5360211886975395,-0.038391591293539834,0.8239083806317565,0.009809353561154269,-0.149583,-28.040623
11.185,2.0,1.0,1.0,33.5,34.5,34.5,3.0,2.0,2.6425,0.5278213501152235,-0.03943355707637658,0.8287194224036353,0.009637520578512826,-0.153056,-27.830725
11.185,2.0,1.0,1.0,33.5,34.5,34.5,3.0,2.0,2.645,0.5194918622012685,-0.04051336561920264,0.8334830756965227,0.009448801509730143,-0.156681,-27.618001
11.185,2.0,1.0,1.0,33.5,34.5,34.5,3.0,2.0,2.6475,0.511029701862801,-0.04163294852040985,0.8381968855121895,0.009241898910382691,-0.160467,-27.402353
11.185,2.0,1.0,1.0,33.5,34.5,34.5,3.0,2.0,2.65,0.5024317017415628,-0.0427943665336766,0.8428582423658023,0.009015397760325335,-0.164424,-27.183679
11.185,2.0,1.0,1.0,33.5,34.5,34.5,3.0,2.0,2.6525,0.4936945394906311,-0.04399982012015614,0.847464368236992,0.008767752695437862,-0.168565,-26.961869
11.185,2.0,1.0,1.0,33.5,34.5,34.5,3.0,2.0,2.655,0.48481472604848264,-0.04525166099775439,0.8520123008343211,0.00849727360796356,-0.1729,-26.736812
11.185,2.0,1.0,1.0,33.5,34.5,34.5,3.0,2.0,2.6575,0.4757885928064132,-0.046552404790454,0.8564988759287453,0.008202109374838963,-0.177446,-26.508389
11.185,2.0,1.0,1.0,33.5,34.5,34.5,3.0,2.0,2.66,0.46661227755450263,-0.04790474489125318,0.8609207074709607,0.007880229433107825,-0.182215,-26.276473
11.185,2.0,1.0,1.0,33.5,34.5,34.5,3.0,2.0,2.6625,0.45728170907973387,-0.0493115676637116,0.86527416515911,0.007529402873645727,-0.187225,-26.040933
11.185,2.0,1.0,1.0,33.5,34.5,34.5,3.0,2.0,2.665,0.4477925902774518,-0.05077596911926062,0.8695553490657261,0.007147174667410567,-0.192493,-25.80163
11.185,2.0,1.0,1.0,33.5,34.5,34.5,3.0,2.0,2.6675,0.438140379624398,-0.05230127322020204,0.8737600608639835,0.006730838570356989,-0.19804,-25.558416
11.185,2.0,1.0,1.0,33.5,34.5,34.5,3.0,2.0,2.67,0.4283202708481153,-0.05389105197143124,0.8778837711109571,0.00627740617162575,-0.203887,-25.311136
11.185,2.0,1.0,1.0,33.5,34.5,34.5,3.0,2.0,2.6725,0.41832717061419883,-0.05554914747696942,0.8819215819466821,0.005783571451701713,-0.210059,-25.059627
11.185,2.0,1.0,1.0,33.5,34.5,34.5,3.0,2.0,2.675,0.40815567404016856,-0.057279696149759814,0.885868184448652,0.005245670099302813,-0.216581,-24.803714
11.185,2.0,1.0,1.0,33.5,34.5,34.5,3.0,2.0,2.6775,0.39780003783362305,-0.05908715527391331,0.8897178097374938,0.004659632693269571,-0.223483,-24.543213
11.185,2.0,1.0,1.0,33.5,34.5,34.5,3.0,2.0,2.68,0.38725415084421244,-0.06097633212632953,0.8934641727551648,0.004020930683071741,-0.230799,-24.27793
11.185,2.0,1.0,1.0,33.5,34.5,34.5,3.0,2.0,2.6825,0.3765115018158551,-0.06295241586731691,0.8971004074250563,0.0033245138916656015,-0.238564,-24.007657
11.185,2.0,1.0,1.0,33.5,34.5,34.5,3.0,2.0,2.685,0.36556514413037733,-0.06502101240463766,0.9006189916449562,0.002564738008525913,-0.24682,-23.732174
11.185,2.0,1.0,1.0,33.5,34.5,34.5,3.0,2.0,2.6875,0.354407657350612,-0.0671881824181254,0.904011660247698,0.00173528022763632,-0.255611,-23.451246
11.185,2.0,1.0,1.0,33.5,34.5,34.5,3.0,2.0,2.69,0.34303110540587645,-0.06946048269676033,0.9072693036764399,0.0008290408011038206,-0.26499,-23.164625
11.185,2.0,1.0,1.0,33.5,34.5,34.5,3.0,2.0,2.6925,0.33142699132405745,-0.07184501087841852,0.9103818496440346,-0.00016197219380007936,-0.275014,-22.872046
11.185,2.0,1.0,1.0,33.5,34.5,34.5,3.0,2.0,2.695,0.31958620851451713,-0.07434945358242115,0.9133381244563016,-0.0012467781602782011,-0.285748,-22.573223
11.185,2.0,1.0,1.0,33.5,34.5,34.5,3.0,2.0,2.6975,0.3074989887615446,-0.07698213776949812,0.9161256899486367,-0.0024355833697524056,-0.297266,-22.267856
11.185,2.0,1.0,1.0,33.5,34.5,34.5,3.0,2.0,2.7,0.29515484732390646,-0.07975208492851366,0.9187306510778878,-0.0037399693397954007,-0.309652,-21.955619
11.185,2.0,1.0,1.0,33.5,34.5,34.5,3.0,2.0,2.7025,0.2825425258866616,-0.08266906733974352,0.9211374280806627,-0.005173116230087494,-0.323002,-21.636166
11.185,2.0,1.0,1.0,33.5,34.5,34.5,3.0,2.0,2.705,0.26964993462693515,-0.0857436651511011,0.9233284856964576,-0.006750068683148625,-0.337425,-21.309127
11.185,2.0,1.0,1.0,33.5,34.5,34.5,3.0,2.0,2.7075,0.25646409540693355,-0.08898732225568501,0.9252840101847428,-0.008488053288431096,-0.353047,-20.974103
11.185,2.0,1.0,1.0,33.5,34.5,34.5,3.0,2.0,2.71,0.24297108919797708,-0.09241239787435439,0.926981522645076,-0.010406859046363163,-0.370014,-20.630665
11.185,2.0,1.0,1.0,33.5,34.5,34.5,3.0,2.0,2.7125,0.22915601241675124,-0.09603220917878191,0.9283954143598026,-0.012529294970512809,-0.388493,-20.278357
11.185,2.0,1.0,1.0,33.5,34.5,34.5,3.0,2.0,2.715,0.2150029491340879,-0.09986105802550296,0.9294963863718892,-0.014881742437512247,-0.40868,-19.916683
11.185,2.0,1.0,1.0,33.5,34.5,34.5,3.0,2.0,2.7175,0.20049496940942002,-0.10391423160029198,0.9302507711039978,-0.01749482425560314,-0.430805,-19.545113
11.185,2.0,1.0,1.0,33.5,34.5,34.5,3.0,2.0,2.72,0.18561416876653603,-0.10820796204252432,0.9306197083004788,-0.02040421788944134,-0.455136,-19.163077
11.185,2.0,1.0,1.0,33.5,34.5,34.5,3.0,2.0,2.7225,0.17034177072649678,-0.11275932326834105,0.9305581406793235,-0.023651647100068483,-0.481989,-18.76996
11.185,2.0,1.0,1.0,33.5,34.5,34.5,3.0,2.0,2.725,0.154658324335075,-0.1175860332643464,0.9300135861449019,-0.027286094701993543,-0.511742,-18.365105
11.185,2.0,1.0,1.0,33.5,34.5,34.5,3.0,2.0,2.7275,0.13854404321602404,-0.12270611564123245,0.9289246329839486,-0.03136528945017324,-0.544844,-17.947801
11.185,2.0,1.0,1.0,33.5,34.5,34.5,3.0,2.0,2.73,0.12197935399600153,-0.1281373530901324,0.9272190920051236,-0.035957532385048556,-0.581835,-17.517293
11.185,2.0,1.0,1.0,33.5,34.5,34.5,3.0,2.0,2.7325,0.10494575316285992,-0.13389643442097376,0.9248117252371104,-0.041143942129373605,-0.623365,-17.072771
11.185,2.0,1.0,1.0,33.5,34.5,34.5,3.0,2.0,2.735,0.08742711724383494,-0.13999765141738,0.9216014553747592,-0.047021213842479356,-0.670229,-16.613376
11.185,2.0,1.0,1.0,33.5,34.5,34.5,3.0,2.0,2.7375,0.06941167855973478,-0.1464509349457534,0.9174679458065736,-0.05370500065430643,-0.723395,-16.138203
11.185,2.0,1.0,1.0,33.5,34.5,34.5,3.0,2.0,2.74,0.05089497785294502,-0.15325892157750357,0.9122674325729665,-0.06133403464578903,-0.78406,-15.646309
11.185,2.0,1.0,1.0,33.5,34.5,34.5,3.0,2.0,2.7425,0.03188425033218358,-0.16041259803666907,0.9058276968819854,-0.0700750969891984,-0.853711,-15.136727
11.185,2.0,1.0,1.0,33.5,34.5,34.5,3.0,2.0,2.745,0.012404913326944511,-0.16788486108014794,0.8979421092816513,-0.08012890441709707,-0.934204,-14.60849
11.185,2.0,1.0,1.0,33.5,34.5,34.5,3.0,2.0,2.7475,-0.0074898717412866045,-0.1756210287904237,0.8883627912806208,-0.09173686501214118,-1.027884,-14.060674
11.185,2.0,1.0,1.0,33.5,34.5,34.5,3.0,2.0,2.75,-0.0277051624063372,-0.183524915515813,0.876793195914992,-0.105188402169462,-1.137723,-13.492458
11.185,2.0,1.0,1.0,33.5,34.5,34.5,3.0,2.0,2.7525,-0.0480837464754825,-0.19143851257166616,0.8628809300960241,-0.12082802792829342,-1.267518,-12.903221
11.185,2.0,1.0,1.0,33.5,34.5,34.5,3.0,2.0,2.755,-0.06837651178209955,-0.19911261169508723,0.8462126471377124,-0.13906034906422574,-1.422146,-12.292686
11.185,2.0,1.0,1.0,33.5,34.5,34.5,3.0,2.0,2.7575,-0.08820025728844992,-0.20616499047458417,0.8263146929171444,-0.16034934956319877,-1.60789,-11.661143
11.185,2.0,1.0,1.0,33.5,34.5,34.5,3.0,2.0,2.76,-0.10697919556815981,-0.21202245435434278,0.8026664543915057,-0.18520505628826,-1.832829,-11.009764
11.185,2.0,1.0,1.0,33.5,34.5,34.5,3.0,2.0,2.7625,-0.12386751293708799,-0.21584414488582562,0.7747387551323371,-0.214145348475742,-2.107273,-10.341075
11.185,2.0,1.0,1.0,33.5,34.5,34.5,3.0,2.0,2.765,-0.13765526793015417,-0.2164284076438613,0.7420776811567911,-0.24761271250633063,-2.444085,-9.659602
11.185,2.0,1.0,1.0,33.5,34.5,34.5,3.0,2.0,2.7675,-0.14667313010997438,-0.2121186325132826,0.7044638943630006,-0.28581617676968524,-2.858527,-8.972741
11.185,2.0,1.0,1.0,33.5,34.5,34.5,3.0,2.0,2.77,-0.1487398312357204,-0.20075160528865096,0.6621828959264655,-0.3284633501406489,-3.366669,-8.291829
11.185,2.0,1.0,1.0,33.5,34.5,34.5,3.0,2.0,2.7725,-0.14124501342454288,-0.17974026189277253,0.6164257266022096,-0.3743633989577563,-3.980151,-7.633254
11.185,2.0,1.0,1.0,33.5,34.5,34.5,3.0,2.0,2.775,-0.12151769121133149,-0.1464396429931949,0.5697685145602194,-0.4209523323104242,-4.692847,-7.019214
11.185,2.0,1.0,1.0,33.5,34.5,34.5,3.0,2.0,2.7775,-0.0876352581401726,-0.09894926308417303,0.5265181145582338,-0.4639517037339517,-5.453056,-6.477362
11.185,2.0,1.0,1.0,33.5,34.5,34.5,3.0,2.0,2.78,-0.039648105683084946,-0.037326515238667465,0.4924997038491335,-0.49758104911964035,-6.123825,-6.038352
11.185,2.0,1.0,1.0,33.5,34.5,34.5,3.0,2.0,2.7825,0.019262911841822324,0.03526805531435657,0.47384104165862806,-0.5157646353440254,-6.480175,-5.730709
11.185,2.0,1.0,1.0,33.5,34.5,34.5,3.0,2.0,2.785,0.08264564760464493,0.112434500221926,0.47484590261883025,-0.5142393567318901,-6.339341,-5.573891
11.185,2.0,1.0,1.0,33.5,34.5,34.5,3.0,2.0,2.7875,0.14233801165594787,0.1860840255989269,0.49603531847510096,-0.49249367496899854,-5.746107,-5.572424
11.185,2.0,1.0,1.0,33.5,34.5,34.5,3.0,2.0,2.79,0.19113901591311655,0.2490869327422338,0.5337935758026692,-0.4541143227736092,-4.928599,-5.714374
11.185,2.0,1.0,1.0,33.5,34.5,34.5,3.0,2.0,2.7925,0.22492419827836607,0.29736689856026605,0.5819443439192475,-0.40522082307806073,-4.097713,-5.975134
11.185,2.0,1.0,1.0,33.5,34.5,34.5,3.0,2.0,2.795,0.2430533130990242,0.33030149135704884,0.6340698164598237,-0.3521661779890446,-3.361866,-6.324203
11.185,2.0,1.0,1.0,33.5,34.5,34.5,3.0,2.0,2.7975,0.24736513454731252,0.34972330449444067,0.6851608484854527,-0.29990281090015886,-2.752042,-6.731562
11.185,2.0,1.0,1.0,33.5,34.5,34.5,3.0,2.0,2.8,0.24079119792009798,0.35854513577944275,0.7321277811242641,-0.25147834988341056,-2.262198,-7.171605
11.185,2.0,1.0,1.0,33.5,34.5,34.5,3.0,2.0,2.8025,0.22632118647906332,0.3597349178307307,0.7735279113587175,-0.20830731863652874,-1.873762,-7.624534
11.185,2.0,1.0,1.0,33.5,34.5,34.5,3.0,2.0,2.805,0.2064855072068754,0.35580369405104445,0.8090279432398524,-0.17070471066805445,-1.56666,-8.0761
11.185,2.0,1.0,1.0,33.5,34.5,34.5,3.0,2.0,2.8075,0.18321373109328085,0.34866607816977824,0.8389155541523049,-0.13837029275187382,-1.323283,-8.516615
11.185,2.0,1.0,1.0,33.5,34.5,34.5,3.0,2.0,2.81,0.15788367616544777,0.33968945026637715,0.8637600641189865,-0.1107248128369548,-1.129407,-8.939829
11.185,2.0,1.0,1.0,33.5,34.5,34.5,3.0,2.0,2.8125,0.131435409546465,0.329807286462637,0.88421182749538,-0.0871085951186061,-0.973957,-9.341935
11.185,2.0,1.0,1.0,33.5,34.5,34.5,3.0,2.0,2.815,0.10448777247017312,0.3196348393312262,0.9008985499924357,-0.06688404780502888,-0.848451,-9.720802
11.185,2.0,1.0,1.0,33.5,34.5,34.5,3.0,2.0,2.8175,0.07743458116613237,0.30956458288274113,0.914379961960892,-0.04948034803601843,-0.746431,-10.075413
11.185,2.0,1.0,1.0,33.5,34.5,34.5,3.0,2.0,2.82,0.05051664864315648,0.2998376430274082,0.9251341235101663,-0.034406797914197984,-0.662976,-10.405463
11.185,2.0,1.0,1.0,33.5,34.5,34.5,3.0,2.0,2.8225,0.023872923276258107,0.29059450603045944,0.9335592157795907,-0.021250848173498347,-0.594324,-10.711089
11.185,2.0,1.0,1.0,33.5,34.5,34.5,3.0,2.0,2.825,-0.002424307541986928,0.28190992404210774,0.9399818823640669,-0.009669636555346143,-0.537581,-10.992686
11.185,2.0,1.0,1.0,33.5,34.5,34.5,3.0,2.0,2.8275,-0.028345640990764955,0.27381649325078805,0.9446675232621814,0.0006204121883951338,-0.490512,-11.250786
11.185,2.0,1.0,1.0,33.5,34.5,34.5,3.0,2.0,2.83,-0.05388870068680321,0.2663203863942713,0.9478303652016636,0.009853777082366216,-0.451372,-11.48597
