1,w,sub_t,h,l1,l2,l3,g1,g2,Freq,S11_re,S21_re,S11_img,S21_img,S11_dB,S21_dB
11.185,2.0,1.0,1.0,33.9,33.2,33.2,2.2,3.9,2.5,0.796414169298503,-0.00926539079418574,0.592948180900644,0.00589904708417721,-0.061834,-39.184863
11.185,2.0,1.0,1.0,33.9,33.2,33.2,2.2,3.9,2.5025,0.7920229651962192,-0.009437160903454533,0.5986855285068786,0.005900494870962861,-0.062443,-39.070134
11.185,2.0,1.0,1.0,33.9,33.2,33.2,2.2,3.9,2.505,0.7875686193728213,-0.009611685710684662,0.6044168651275419,0.005900452538822751,-0.063063,-38.955134
11.185,2.0,1.0,1.0,33.9,33.2,33.2,2.2,3.9,2.5075,0.7830504880237206,-0.009789009705180157,0.6101417626066629,0.0058988665285096475,-0.063694,-38.839859
11.185,2.0,1.0,1.0,33.9,33.2,33.2,2.2,3.9,2.51,0.778467918510796,-0.00996917808746157,0.6158597800834448,0.005895681499182961,-0.064335,-38.724301
11.185,2.0,1.0,1.0,33.9,33.2,33.2,2.2,3.9,2.5125,0.7738202492840794,-0.010152236775237288,0.6215704636027779,0.0058908402657021856,-0.064987,-38.608456
11.185,2.0,1.0,1.0,33.9,33.2,33.2,2.2,3.9,2.515,0.7691068098057062,-0.010338232408973455,0.6272733457138604,0.005884283733573135,-0.06565,-38.492318
11.185,2.0,1.0,1.0,33.9,33.2,33.2,2.2,3.9,2.5175,0.7643269204763659,-0.010527212357022166,0.6329679450565464,0.005875950831454785,-0.066325,-38.37588
11.185,2.0,1.0,1.0,33.9,33.2,33.2,2.2,3.9,2.52,0.7594798925644765,-0.010719224720264058,0.6386537659350595,0.005865778441129002,-0.067012,-38.259136
11.185,2.0,1.0,1.0,33.9,33.2,33.2,2.2,3.9,2.5225,0.7545650281383595,-0.010914318336218401,0.6443302978786654,0.005853701324833088,-0.067711,-38.142082
11.185,2.0,1.0,1.0,33.9,33.2,33.2,2.2,3.9,2.525,0.7495816200016573,-0.011112542782570869,0.6499970151889206,0.0058396520498494335,-0.068422,-38.024709
11.185,2.0,1.0,1.0,33.9,33.2,33.2,2.2,3.9,2.5275,0.7445289516322915,-0.011313948380065823,0.6556533764730829,0.005823560910243523,-0.069146,-37.907014
11.185,2.0,1.0,1.0,33.9,33.2,33.2,2.2,3.9,2.53,0.7394062971252608,-0.01151858619470534,0.6612988241632538,0.005805355845635491,-0.069882,-37.788989
11.185,2.0,1.0,1.0,33.9,33.2,33.2,2.2,3.9,2.5325,0.7342129211395918,-0.011726508039194289,0.6669327840208237,0.005784962356887101,-0.070632,-37.670629
11.185,2.0,1.0,1.0,33.9,33.2,33.2,2.2,3.9,2.535,0.7289480788497787,-0.011937766473566383,0.6725546646257773,0.005762303418579993,-0.071395,-37.551926
11.185,2.0,1.0,1.0,33.9,33.2,33.2,2.2,3.9,2.5375,0.7236110159020758,-0.012152414804920735,0.6781638568503875,0.005737299388156299,-0.072172,-37.432876
11.185,2.0,1.0,1.0,33.9,33.2,33.2,2.2,3.9,2.54,0.7182009683760046,-0.012370507086195128,0.6837597333168324,0.005709867911587239,-0.072963,-37.313471
11.185,2.0,1.0,1.0,33.9,33.2,33.2,2.2,3.9,2.5425,0.7127171627514837,-0.012592098113896078,0.6893416478382542,0.005679923825429658,-0.073768,-37.193705
11.185,2.0,1.0,1.0,33.9,33.2,33.2,2.2,3.9,2.545,0.707158815881995,-0.012817243424700761,0.694908934842751,0.0056473790551244425,-0.074588,-37.073572
11.185,2.0,1.0,1.0,33.9,33.2,33.2,2.2,3.9,2.5475,0.7015251349742362,-0.013045999290839806,0.7004609087797883,0.00561214250938465,-0.075424,-36.953065
11.185,2.0,1.0,1.0,33.9,33.2,33.2,2.2,3.9,2.55,0.6958153175747148,-0.013278422714164701,0.7059968635085176,0.005574119970514971,-0.076274,-36.832178
11.185,2.0,1.0,1.0,33.9,33.2,33.2,2.2,3.9,2.5525,0.6900285515638012,-0.013514571418795382,0.7115160716674375,0.005533213980496956,-0.077141,-36.710904
11.185,2.0,1.0,1.0,33.9,33.2,33.2,2.2,3.9,2.555,0.6841640151577385,-0.01375450384223858,0.7170177840248604,0.005489323722667931,-0.078023,-36.589236
11.185,2.0,1.0,1.0,33.9,33.2,33.2,2.2,3.9,2.5575,0.6782208769191772,-0.013998279124858522,0.7225012288096087,0.005442344898813759,-0.078922,-36.467169
11.185,2.0,1.0,1.0,33.9,33.2,33.2,2.2,3.9,2.56,0.6721982957768116,-0.014245957097574286,0.7279656110213486,0.005392169601488418,-0.079838,-36.344694
11.185,2.0,1.0,1.0,33.9,33.2,33.2,2.2,3.9,2.5625,0.6660954210547364,-0.014497598267649668,0.7334101117199705,0.005338686181365035,-0.080772,-36.221805
11.185,2.0,1.0,1.0,33.9,33.2,33.2,2.2,3.9,2.565,0.6599113925121641,-0.014753263802432564,0.7388338872933943,0.005281779109414851,-0.081723,-36.098495
11.185,2.0,1.0,1.0,33.9,33.2,33.2,2.2,3.9,2.5675,0.6536453403942011,-0.015013015510890518,0.7442360687031642,0.005221328833701963,-0.082692,-35.974757
11.185,2.0,1.0,1.0,33.9,33.2,33.2,2.2,3.9,2.57,0.6472963854943938,-0.015276915822779878,0.7496157607071978,0.005157211630572317,-0.08368,-35.850584
11.185,2.0,1.0,1.0,33.9,33.2,33.2,2.2,3.9,2.5725,0.6408636392298114,-0.015545027765274486,0.7549720410590158,0.005089299450006663,-0.084687,-35.725969
11.185,2.0,1.0,1.0,33.9,33.2,33.2,2.2,3.9,2.575,0.6343462037294677,-0.015817414936868317,0.7603039596827768,0.005017459754896395,-0.085714,-35.600904
11.185,2.0,1.0,1.0,33.9,33.2,33.2,2.2,3.9,2.5775,0.6277431719369302,-0.016094141478353932,0.7656105378234234,0.0049415553539914345,-0.08676,-35.475383
11.185,2.0,1.0,1.0,33.9,33.2,33.2,2.2,3.9,2.58,0.6210536277280158,-0.01637527204066558,0.7708907671712266,0.004861444228258693,-0.087827,-35.349398
11.185,2.0,1.0,1.0,33.9,33.2,33.2,2.2,3.9,2.5825,0.6142766460445017,-0.016660871749361723,0.776143608960004,0.004776979350378176,-0.088915,-35.22294
11.185,2.0,1.0,1.0,33.9,33.2,33.2,2.2,3.9,2.585,0.607411293044863,-0.016951006165506245,0.7813679930382628,0.0046880084970914665,-0.090025,-35.096004
11.185,2.0,1.0,1.0,33.9,33.2,33.2,2.2,3.9,2.5875,0.6004566262730623,-0.017245741242692167,0.7865628169125193,0.004594374054106591,-0.091156,-34.96858
11.185,2.0,1.0,1.0,33.9,33.2,33.2,2.2,3.9,2.59,0.593411694846521,-0.01754514327993381,0.791726944762006,0.004495912813248966,-0.092311,-34.840662
11.185,2.0,1.0,1.0,33.9,33.2,33.2,2.2,3.9,2.5925,0.5862755396644053,-0.017849278870135734,0.7968592064239866,0.004392455761535403,-0.093488,-34.712241
11.185,2.0,1.0,1.0,33.9,33.2,33.2,2.2,3.9,2.595,0.5790471936374851,-0.01815821484382621,0.8019583963488609,0.004283827861834785,-0.094689,-34.58331
11.185,2.0,1.0,1.0,33.9,33.2,33.2,2.2,3.9,2.5975,0.5717256819408262,-0.01847201820782358,0.80702327252425,0.0041698478247630425,-0.095915,-34.45386
11.185,2.0,1.0,1.0,33.9,33.2,33.2,2.2,3.9,2.6,0.5643100222906913,-0.01879075607848011,0.8120525553672134,0.00405032787144636,-0.097166,-34.323883
11.185,2.0,1.0,1.0,33.9,33.2,33.2,2.2,3.9,2.6025,0.5567992252470866,-0.019114495609124444,0.8170449265837493,0.0039250734867700065,-0.098442,-34.193371
11.185,2.0,1.0,1.0,33.9,33.2,33.2,2.2,3.9,2.605,0.5491922945434482,-0.019443303911299198,0.8219990279947107,0.0037938831627132375,-0.099745,-34.062316
11.185,2.0,1.0,1.0,33.9,33.2,33.2,2.2,3.9,2.6075,0.5414882274450674,-0.019777247969361637,0.8269134603272608,0.0036565481313544446,-0.101075,-33.930709
11.185,2.0,1.0,1.0,33.9,33.2,33.2,2.2,3.9,2.61,0.5336860151379298,-0.020116394547987002,0.8317867819709597,0.003512852087111772,-0.102433,-33.798541
11.185,2.0,1.0,1.0,33.9,33.2,33.2,2.2,3.9,2.6125,0.5257846431497226,-0.02046081009208311,0.8366175076975915,0.003362570897766013,-0.103819,-33.665804
11.185,2.0,1.0,1.0,33.9,33.2,33.2,2.2,3.9,2.615,0.5177830918048665,-0.020810560618591167,0.841404107343801,0.003205472303792864,-0.105234,-33.532489
11.185,2.0,1.0,1.0,33.9,33.2,33.2,2.2,3.9,2.6175,0.5096803367155337,-0.021165711599611756,0.8461450044556138,0.0030413156055110204,-0.106679,-33.398587
11.185,2.0,1.0,1.0,33.9,33.2,33.2,2.2,3.9,2.62,0.5014753493106988,-0.021526327836257974,0.8508385748938959,0.0028698513375312895,-0.108156,-33.264089
11.185,2.0,1.0,1.0,33.9,33.2,33.2,2.2,3.9,2.6225,0.4931670974053873,-0.021892473322595946,0.8554831453998069,0.002690820929969243,-0.109663,-33.128985
11.185,2.0,1.0,1.0,33.9,33.2,33.2,2.2,3.9,2.625,0.484754545812412,-0.0222642110989891,0.860076992119279,0.00250395635586122,-0.111204,-32.993267
11.185,2.0,1.0,1.0,33.9,33.2,33.2,2.2,3.9,2.6275,0.476236656998978,-0.022641603094117103,0.864618339085569,0.002308979764197887,-0.112778,-32.856924
11.185,2.0,1.0,1.0,33.9,33.2,33.2,2.2,3.9,2.63,0.46761239179069297,-0.023024709954888724,0.8691053566589008,0.0021056030979655746,-0.114386,-32.719947
11.185,2.0,1.0,1.0,33.9,33.2,33.2,2.2,3.9,2.6325,0.4588807101256324,-0.023413590863415386,0.8735361599222323,0.0018935276965579555,-0.11603,-32.582327
11.185,2.0,1.0,1.0,33.9,33.2,33.2,2.2,3.9,2.635,0.4500405718612563,-0.02380830334015368,0.8779088070321633,0.0016724438818932538,-0.11771,-32.444053
11.185,2.0,1.0,1.0,33.9,33.2,33.2,2.2,3.9,2.6375,0.44109093763712914,-0.0242089030322639,0.8822212975240102,0.0014420305275434685,-0.119427,-32.305116
11.185,2.0,1.0,1.0,33.9,33.2,33.2,2.2,3.9,2.64,0.43203076979651417,-0.024615443486165952,0.8864715705700773,0.0012019546101513189,-0.121182,-32.165504
11.185,2.0,1.0,1.0,33.9,33.2,33.2,2.2,3.9,2.6425,0.4228590333701282,-0.025027975903201615,0.8906575031901433,0.0009518707423795521,-0.122977,-32.025208
11.185,2.0,1.0,1.0,33.9,33.2,33.2,2.2,3.9,2.645,0.4135746971254616,-0.025446548877237227,0.8947769084132084,0.0006914206866042928,-0.124813,-31.884217
11.185,2.0,1.0,1.0,33.9,33.2,33.2,2.2,3.9,2.6475,0.40417673468528986,-0.025871208112957858,0.8988275333895455,0.00042023284852978093,-0.126691,-31.74252
11.185,2.0,1.0,1.0,33.9,33.2,33.2,2.2,3.9,2.65,0.3946641257191411,-0.026301996123517763,0.9028070574521111,0.00013792174986516272,-0.128611,-31.600106
11.185,2.0,1.0,1.0,33.9,33.2,33.2,2.2,3.9,2.6525,0.38503585721176026,-0.02673895190611417,0.9067130901263885,-0.00015591252083091919,-0.130576,-31.456965
11.185,2.0,1.0,1.0,33.9,33.2,33.2,2.2,3.9,2.655,0.3752909248127189,-0.027182110593953895,0.9105431690877616,-0.00046168488007463526,-0.132586,-31.313084
11.185,2.0,1.0,1.0,33.9,33.2,33.2,2.2,3.9,2.6575,0.3654283342716328,-0.027631503082969598,0.9142947580655297,-0.0007798258451242614,-0.134644,-31.168452
11.185,2.0,1.0,1.0,33.9,33.2,33.2,2.2,3.9,2.66,0.3554471029636117,-0.028087155631526133,0.9179652446927099,-0.0011107821544090015,-0.13675,-31.023058
11.185,2.0,1.0,1.0,33.9,33.2,33.2,2.2,3.9,2.6625,0.34534626150986397,-0.02854908943123044,0.9215519383007919,-0.0014550174137806702,-0.138905,-30.876889
11.185,2.0,1.0,1.0,33.9,33.2,33.2,2.2,3.9,2.665,0.3351248554985759,-0.02901732014682249,0.9250520676586698,-0.001813012769696694,-0.141112,-30.729933
11.185,2.0,1.0,1.0,33.9,33.2,33.2,2.2,3.9,2.6675,0.32478194731152377,-0.02949185742297579,0.9284627786549869,-0.0021852676104893716,-0.143372,-30.582178
11.185,2.0,1.0,1.0,33.9,33.2,33.2,2.2,3.9,2.67,0.314316618062101,-0.029972704355679423,0.9317811319231967,-0.002572300296927744,-0.145686,-30.433611
11.185,2.0,1.0,1.0,33.9,33.2,33.2,2.2,3.9,2.6725,0.3037279696507753,-0.030459856925700746,0.9350041004086905,-0.0029746489233288837,-0.148056,-30.28422
11.185,2.0,1.0,1.0,33.9,33.2,33.2,2.2,3.9,2.675,0.2930151269443084,-0.030953303391443,0.9381285668773972,-0.0033928721105298083,-0.150485,-30.133991
11.185,2.0,1.0,1.0,33.9,33.2,33.2,2.2,3.9,2.6775,0.2821772400853937,-0.031453023638312726,0.9411513213653242,-0.003827549832087685,-0.152973,-29.98291
11.185,2.0,1.0,1.0,33.9,33.2,33.2,2.2,3.9,2.68,0.27121348693972,-0.0319589884814955,0.9440690585685899,-0.004279284275133438,-0.155523,-29.830965
11.185,2.0,1.0,1.0,33.9,33.2,33.2,2.2,3.9,2.6825,0.2601230756878669,-0.032471158918804185,0.9468783751735681,-0.00474870073736425,-0.158137,-29.67814
11.185,2.0,1.0,1.0,33.9,33.2,33.2,2.2,3.9,2.685,0.24890524756979382,-0.032989485330011836,0.9495757671268559,-0.005236448561723826,-0.160816,-29.524422
11.185,2.0,1.0,1.0,33.9,33.2,33.2,2.2,3.9,2.6875,0.23755927979013372,-0.03351390661880651,0.9521576268448757,-0.005743202110383016,-0.163563,-29.369797
11.185,2.0,1.0,1.0,33.9,33.2,33.2,2.2,3.9,2.69,0.22608448859294925,-0.03404434929320754,0.9546202403630232,-0.006269661779700385,-0.166381,-29.214249
11.185,2.0,1.0,1.0,33.9,33.2,33.2,2.2,3.9,2.6925,0.21448023251503187,-0.03458072647996255,0.9569597844243907,-0.006816555057912611,-0.169271,-29.057763
11.185,2.0,1.0,1.0,33.9,33.2,33.2,2.2,3.9,2.695,0.20274591582740067,-0.03512293686809075,0.959172323508222,-0.007384637627373137,-0.172235,-28.900324
11.185,2.0,1.0,1.0,33.9,33.2,33.2,2.2,3.9,2.6975,0.19088099217509588,-0.03567086357636248,0.9612538067983928,-0.007974694513234348,-0.175278,-28.741915
11.185,2.0,1.0,1.0,33.9,33.2,33.2,2.2,3.9,2.7,0.1788849684260134,-0.03622437293908675,0.9632000650923537,-0.008587541280539112,-0.1784,-28.582521
11.185,2.0,1.0,1.0,33.9,33.2,33.2,2.2,3.9,2.7025,0.16675740874004596,-0.03678331320413252,0.965006807651146,-0.009224025281768106,-0.181605,-28.422125
11.185,2.0,1.0,1.0,33.9,33.2,33.2,2.2,3.9,2.705,0.15449793887050128,-0.0373475131366164,0.9666696189912631,-0.009885026956964162,-0.184896,-28.26071
11.185,2.0,1.0,1.0,33.9,33.2,33.2,2.2,3.9,2.7075,0.14210625071039304,-0.03791678052115727,0.96818395561933,-0.01057146118863598,-0.188275,-28.098258
11.185,2.0,1.0,1.0,33.9,33.2,33.2,2.2,3.9,2.71,0.1295821070969717,-0.03849090055501426,0.9695451427107797,-0.011284278713721601,-0.191746,-27.934752
11.185,2.0,1.0,1.0,33.9,33.2,33.2,2.2,3.9,2.7125,0.11692534688860562,-0.03906963412378898,0.9707483707339125,-0.012024467594973304,-0.195312,-27.770173
11.185,2.0,1.0,1.0,33.9,33.2,33.2,2.2,3.9,2.715,0.10413589032897443,-0.03965271595067678,0.971788692020992,-0.012793054754202634,-0.198977,-27.604502
11.185,2.0,1.0,1.0,33.9,33.2,33.2,2.2,3.9,2.7175,0.09121374471442167,-0.04023985260949106,0.9726610172882607,-0.013591107569904245,-0.202744,-27.437721
11.185,2.0,1.0,1.0,33.9,33.2,33.2,2.2,3.9,2.72,0.0781590103812966,-0.04083072039085117,0.9733601121070636,-0.014419735541850208,-0.206617,-27.26981
11.185,2.0,1.0,1.0,33.9,33.2,33.2,2.2,3.9,2.7225,0.06497188703109286,-0.04142496301001213,0.9738805933285578,-0.015280092025320444,-0.210599,-27.100748
11.185,2.0,1.0,1.0,33.9,33.2,33.2,2.2,3.9,2.725,0.051652680412394625,-0.04202218914381037,0.9742169254648183,-0.016173376037697928,-0.214695,-26.930515
11.185,2.0,1.0,1.0,33.9,33.2,33.2,2.2,3.9,2.7275,0.038201809379745814,-0.042621969783102016,0.9743634170295069,-0.01710083414022131,-0.21891,-26.759088
11.185,2.0,1.0,1.0,33.9,33.2,33.2,2.2,3.9,2.73,0.02461981335095802,-0.04322383538585779,0.9743142168416483,-0.018063762397732226,-0.223247,-26.586447
11.185,2.0,1.0,1.0,33.9,33.2,33.2,2.2,3.9,2.7325,0.01090736018570499,-0.04382727281474929,0.9740633102964867,-0.019063508419297163,-0.227712,-26.412569
11.185,2.0,1.0,1.0,33.9,33.2,33.2,2.2,3.9,2.735,-0.002934745490139939,-0.04443172204159339,0.9736045156078392,-0.020101473482602866,-0.232309,-26.23743
11.185,2.0,1.0,1.0,33.9,33.2,33.2,2.2,3.9,2.7375,-0.01690555348834842,-0.04503657259940573,0.9729314800268527,-0.021179114745030047,-0.237044,-26.061007
11.185,2.0,1.0,1.0,33.9,33.2,33.2,2.2,3.9,2.74,-0.03100395876241428,-0.04564115976102693,0.9720376760426259,-0.022297947544286434,-0.241922,-25.883275
11.185,2.0,1.0,1.0,33.9,33.2,33.2,2.2,3.9,2.7425,-0.045228691581959655,-0.04624476042131469,0.9709163975707199,-0.023459547791432545,-0.246949,-25.704208
11.185,2.0,1.0,1.0,33.9,33.2,33.2,2.2,3.9,2.745,-0.059578307145332784,-0.046846588657709895,0.9695607561362583,-0.02466555445904259,-0.252132,-25.523781
11.185,2.0,1.0,1.0,33.9,33.2,33.2,2.2,3.9,2.7475,-0.07405117459587604,-0.04744579094156937,0.9679636770589888,-0.025917672167111563,-0.257476,-25.341966
11.185,2.0,1.0,1.0,33.9,33.2,33.2,2.2,3.9,2.75,-0.0886454654047137,-0.0480414409699774,0.966117895648512,-0.0272176738691303,-0.262988,-25.158737
11.185,2.0,1.0,1.0,33.9,33.2,33.2,2.2,3.9,2.7525,-0.10335914107993738,-0.04863253408477397,0.9640159534187029,-0.028567403640493778,-0.268676,-24.974063
11.185,2.0,1.0,1.0,33.9,33.2,33.2,2.2,3.9,2.755,-0.11818994015888358,-0.049217981242233276,0.961650194331365,-0.029968779571068693,-0.274547,-24.787916
11.185,2.0,1.0,1.0,33.9,33.2,33.2,2.2,3.9,2.7575,-0.1331353644366447,-0.04979660249315177,0.9590127610802059,-0.03142379676331166,-0.280609,-24.600265
11.185,2.0,1.0,1.0,33.9,33.2,33.2,2.2,3.9,2.76,-0.1481926643799125,-0.050367119929011016,0.9560955914274928,-0.032934530436764045,-0.286871,-24.411079
11.185,2.0,1.0,1.0,33.9,33.2,33.2,2.2,3.9,2.7625,-0.16335882367094862,-0.0509281500453217,0.9528904146070575,-0.03450313913905138,-0.293341,-24.220325
11.185,2.0,1.0,1.0,33.9,33.2,33.2,2.2,3.9,2.765,-0.17863054282150312,-0.051478195468164484,0.949388747808965,-0.03613186806262823,-0.30003,-24.027968
11.185,2.0,1.0,1.0,33.9,33.2,33.2,2.2,3.9,2.7675,-0.19400422179106686,-0.05201563598426022,0.9455818927628955,-0.03782305246541569,-0.306947,-23.833975
11.185,2.0,1.0,1.0,33.9,33.2,33.2,2.2,3.9,2.77,-0.20947594153772786,-0.052538718808546714,0.9414609324393636,-0.03957912119212949,-0.314102,-23.638308
11.185,2.0,1.0,1.0,33.9,33.2,33.2,2.2,3.9,2.7725,-0.22504144442306748,-0.05304554801612606,0.9370167278902625,-0.041402600291429836,-0.321507,-23.440931
11.185,2.0,1.0,1.0,33.9,33.2,33.2,2.2,3.9,2.775,-0.24069611338486263,-0.05353407305747914,0.9322399152529558,-0.043296116721990865,-0.329175,-23.241804
11.185,2.0,1.0,1.0,33.9,33.2,33.2,2.2,3.9,2.7775,-0.2564349497827558,-0.054002076266907575,0.9271209029453422,-0.0452624021380978,-0.337118,-23.040887
11.185,2.0,1.0,1.0,33.9,33.2,33.2,2.2,3.9,2.78,-0.27225254981241515,-0.05444715926413559,0.9216498690830065,-0.04730429674235287,-0.345349,-22.838138
11.185,2.0,1.0,1.0,33.9,33.2,33.2,2.2,3.9,2.7825,-0.28814307937275774,-0.054866728137736236,0.9158167591539855,-0.04942475318937611,-0.353884,-22.633514
11.185,2.0,1.0,1.0,33.9,33.2,33.2,2.2,3.9,2.785,-0.3041002472586451,-0.05525797728638066,0.9096112839917655,-0.051626840519923486,-0.362737,-22.42697
11.185,2.0,1.0,1.0,33.9,33.2,33.2,2.2,3.9,2.7875,-0.3201172765375213,-0.05561787177965365,0.9030229180932459,-0.05391374809940002,-0.371926,-22.218459
11.185,2.0,1.0,1.0,33.9,33.2,33.2,2.2,3.9,2.79,-0.33618687395293056,-0.05594312808412744,0.8960408983355626,-0.056288789528177084,-0.381468,-22.007931
11.185,2.0,1.0,1.0,33.9,33.2,33.2,2.2,3.9,2.7925,-0.35230119718013436,-0.05623019298229795,0.8886542231542537,-0.05875540648314294,-0.391382,-21.795337
11.185,2.0,1.0,1.0,33.9,33.2,33.2,2.2,3.9,2.795,-0.368451819739148,-0.05647522049159326,0.8808516522554205,-0.06131717244027915,-0.401688,-21.580623
11.185,2.0,1.0,1.0,33.9,33.2,33.2,2.2,3.9,2.7975,-0.38462969334782804,-0.05667404656765375,0.872621706946749,-0.06397779621636362,-0.412409,-21.363735
11.185,2.0,1.0,1.0,33.9,33.2,33.2,2.2,3.9,2.8,-0.40082510747216354,-0.056822161350117036,0.8639526711868372,-0.06674112525378814,-0.423568,-21.144615
11.185,2.0,1.0,1.0,33.9,33.2,33.2,2.2,3.9,2.8025,-0.4170276458018814,-0.05691467867982182,0.8548325934697933,-0.06961114855536571,-0.43519,-20.923204
11.185,2.0,1.0,1.0,33.9,33.2,33.2,2.2,3.9,2.805,-0.4332261393466345,-0.056946302583239426,0.8452492896831648,-0.0725919991553088,-0.447303,-20.699439
11.185,2.0,1.0,1.0,33.9,33.2,33.2,2.2,3.9,2.8075,-0.44940861581090175,-0.05691129038255937,0.8351903471026213,-0.07568795598749799,-0.459935,-20.473256
11.185,2.0,1.0,1.0,33.9,33.2,33.2,2.2,3.9,2.81,-0.46556224486356407,-0.05680341204764713,0.8246431297174369,-0.07890344498180565,-0.473119,-20.244588
11.185,2.0,1.0,1.0,33.9,33.2,33.2,2.2,3.9,2.8125,-0.481673278870415,-0.0566159053584588,0.813594785117889,-0.0822430391824421,-0.486889,-20.013363
11.185,2.0,1.0,1.0,33.9,33.2,33.2,2.2,3.9,2.815,-0.49772698860394815,-0.0563414263927701,0.8020322532204259,-0.08571145763769221,-0.501282,-19.779508
11.185,2.0,1.0,1.0,33.9,33.2,33.2,2.2,3.9,2.8175,-0.5137075933837403,-0.055971994793540446,0.789942277160836,-0.089313562756274,-0.516338,-19.542947
11.185,2.0,1.0,1.0,33.9,33.2,33.2,2.2,3.9,2.82,-0.5295981850319355,-0.05549893320211015,0.7773114167514747,-0.09305435575982578,-0.532102,-19.303598
11.185,2.0,1.0,1.0,33.9,33.2,33.2,2.2,3.9,2.8225,-0.5453806449508095,-0.05491280016691486,0.7641260649787468,-0.09693896978115743,-0.548621,-19.06138
11.185,2.0,1.0,1.0,33.9,33.2,33.2,2.2,3.9,2.825,-0.5610355535422806,-0.054203315751663754,0.7503724681143693,-0.10097266006076941,-0.565947,-18.816203
11.185,2.0,1.0,1.0,33.9,33.2,33.2,2.2,3.9,2.8275,-0.5765420910916564,-0.05335927897115658,0.7360367501325512,-0.10516079057591358,-0.584136,-18.567976
