1,w,sub_t,h,l1,l2,l3,g1,g2,Freq,S11_re,S21_re,S11_img,S21_img,S11_dB,S21_dB
11.185,2.0,1.0,1.0,34.2,33.8,33.8,4.4,1.6,2.5,0.756570519436375,-0.0102999420907871,0.642688235449364,0.00572153925686325,-0.063667,-38.575329
11.185,2.0,1.0,1.0,34.2,33.8,33.8,4.4,1.6,2.5025,0.7516559703745327,-0.010488550276561015,0.6483171728918801,0.005713395887899235,-0.064307,-38.457204
11.185,2.0,1.0,1.0,34.2,33.8,33.8,4.4,1.6,2.505,0.7466746828540666,-0.010680344490573023,0.6539348587534151,0.005703480574524896,-0.064959,-38.338677
11.185,2.0,1.0,1.0,34.2,33.8,33.8,4.4,1.6,2.5075,0.7416260089320271,-0.010875383782963575,0.6595407509025012,0.005691729887572764,-0.065624,-38.219739
11.185,2.0,1.0,1.0,34.2,33.8,33.8,4.4,1.6,2.51,0.7365092928585741,-0.011073728587556507,0.6651342920672187,0.00567807817786864,-0.066301,-38.100382
11.185,2.0,1.0,1.0,34.2,33.8,33.8,4.4,1.6,2.5125,0.7313238710431056,-0.01127544076308307,0.6707149093935156,0.005662457486472327,-0.066991,-37.980597
11.185,2.0,1.0,1.0,34.2,33.8,33.8,4.4,1.6,2.515,0.7260690720237432,-0.011480583635932582,0.6762820139904062,0.005644797450679261,-0.067694,-37.860374
11.185,2.0,1.0,1.0,34.2,33.8,33.8,4.4,1.6,2.5175,0.7207442164404048,-0.011689222044499988,0.6818350004616104,0.005625025205549359,-0.068411,-37.739705
11.185,2.0,1.0,1.0,34.2,33.8,33.8,4.4,1.6,2.52,0.7153486170116661,-0.011901422385205666,0.6873732464232158,0.005603065280714248,-0.069142,-37.61858
11.185,2.0,1.0,1.0,34.2,33.8,33.8,4.4,1.6,2.5225,0.7098815785156656,-0.01211725266026564,0.6928961120068753,0.005578839492198023,-0.069886,-37.496989
11.185,2.0,1.0,1.0,34.2,33.8,33.8,4.4,1.6,2.525,0.7043423977752713,-0.012336782527296518,0.698402939348093,0.00555226682896924,-0.070645,-37.374923
11.185,2.0,1.0,1.0,34.2,33.8,33.8,4.4,1.6,2.5275,0.6987303636477686,-0.012560083350843302,0.7038930520590926,0.005523263333923159,-0.071419,-37.25237
11.185,2.0,1.0,1.0,34.2,33.8,33.8,4.4,1.6,2.53,0.6930447570193303,-0.012787228255923147,0.7093657546857461,0.005491741978973352,-0.072209,-37.129322
11.185,2.0,1.0,1.0,34.2,33.8,33.8,4.4,1.6,2.5325,0.6872848508045376,-0.013018292183684409,0.7148203321480362,0.005457612533909935,-0.073013,-37.005767
11.185,2.0,1.0,1.0,34.2,33.8,33.8,4.4,1.6,2.535,0.6814499099512257,-0.013253351949285903,0.7202560491634918,0.005420781428658275,-0.073834,-36.881694
11.185,2.0,1.0,1.0,34.2,33.8,33.8,4.4,1.6,2.5375,0.6755391914509595,-0.01349248630210657,0.7256721496529981,0.005381151608547553,-0.074671,-36.757094
11.185,2.0,1.0,1.0,34.2,33.8,33.8,4.4,1.6,2.54,0.669551944355428,-0.013735775988404106,0.7310678561283903,0.005338622382170264,-0.075525,-36.631953
11.185,2.0,1.0,1.0,34.2,33.8,33.8,4.4,1.6,2.5425,0.6634874097990761,-0.01398330381654657,0.7364423690611758,0.005293089261385895,-0.076396,-36.506261
11.185,2.0,1.0,1.0,34.2,33.8,33.8,4.4,1.6,2.545,0.657344821028298,-0.014235154724949418,0.7417948662317275,0.005244443792988938,-0.077285,-36.380007
11.185,2.0,1.0,1.0,34.2,33.8,33.8,4.4,1.6,2.5475,0.6511234034375353,-0.014491415852858024,0.747124502058232,0.005192573381528281,-0.078192,-36.253177
11.185,2.0,1.0,1.0,34.2,33.8,33.8,4.4,1.6,2.55,0.644822374612605,-0.014752176614124826,0.7524304069046805,0.005137361102727459,-0.079118,-36.12576
11.185,2.0,1.0,1.0,34.2,33.8,33.8,4.4,1.6,2.5525,0.6384409443816552,-0.01501752877413834,0.7577116863671053,0.005078685506915184,-0.080062,-35.997743
11.185,2.0,1.0,1.0,34.2,33.8,33.8,4.4,1.6,2.555,0.6319783148740816,-0.015287566530072565,0.7629674205372655,0.005016420411832333,-0.081027,-35.869113
11.185,2.0,1.0,1.0,34.2,33.8,33.8,4.4,1.6,2.5575,0.6254336805878093,-0.015562386594634364,0.7681966632429317,0.004950434684134165,-0.082011,-35.739856
11.185,2.0,1.0,1.0,34.2,33.8,33.8,4.4,1.6,2.56,0.6188062284653355,-0.015842088283498073,0.7733984412638508,0.004880592008855771,-0.083016,-35.60996
11.185,2.0,1.0,1.0,34.2,33.8,33.8,4.4,1.6,2.5625,0.6120951379789347,-0.0161267736066286,0.7785717535224628,0.004806750646052771,-0.084043,-35.47941
11.185,2.0,1.0,1.0,34.2,33.8,33.8,4.4,1.6,2.565,0.6052995812254465,-0.01641654736370657,0.7837155702483538,0.004728763173769317,-0.085091,-35.348191
11.185,2.0,1.0,1.0,34.2,33.8,33.8,4.4,1.6,2.5675,0.598418723031087,-0.01671151724388277,0.7888288321153852,0.00464647621641957,-0.086162,-35.21629
11.185,2.0,1.0,1.0,34.2,33.8,33.8,4.4,1.6,2.57,0.5914517210667203,-0.017011793930103523,0.7939104493503787,0.0045597301575971486,-0.087256,-35.08369
11.185,2.0,1.0,1.0,34.2,33.8,33.8,4.4,1.6,2.5725,0.5843977259740448,-0.017317491208264008,0.798959300812165,0.00446835883624972,-0.088374,-34.950377
11.185,2.0,1.0,1.0,34.2,33.8,33.8,4.4,1.6,2.575,0.5772558815031675,-0.017628726081462834,0.8039742330397243,0.0043721892250699786,-0.089517,-34.816335
11.185,2.0,1.0,1.0,34.2,33.8,33.8,4.4,1.6,2.5775,0.5700253246620441,-0.017945618889648695,0.8089540592680784,0.004271041089862656,-0.090685,-34.681546
11.185,2.0,1.0,1.0,34.2,33.8,33.8,4.4,1.6,2.58,0.5627051858782763,-0.018268293434968243,0.8138975584104838,0.004164726628545025,-0.091879,-34.545995
11.185,2.0,1.0,1.0,34.2,33.8,33.8,4.4,1.6,2.5825,0.5552945891737604,-0.018596877113145005,0.8188034740054144,0.004053050088327707,-0.093099,-34.409664
11.185,2.0,1.0,1.0,34.2,33.8,33.8,4.4,1.6,2.585,0.5477926523527089,-0.018931501051238916,0.8236705131266713,0.003935807359501922,-0.094348,-34.272535
11.185,2.0,1.0,1.0,34.2,33.8,33.8,4.4,1.6,2.5875,0.5401984872035568,-0.019272300252159567,0.8284973452548825,0.0038127855441260463,-0.095625,-34.13459
11.185,2.0,1.0,1.0,34.2,33.8,33.8,4.4,1.6,2.59,0.5325111997152898,-0.019619413746329833,0.8332826011084993,0.0036837624977586695,-0.096931,-33.995809
11.185,2.0,1.0,1.0,34.2,33.8,33.8,4.4,1.6,2.5925,0.5247298903087222,-0.019972984750921394,0.8380248714322748,0.0035485063422262837,-0.098267,-33.856175
11.185,2.0,1.0,1.0,34.2,33.8,33.8,4.4,1.6,2.595,0.5168536540832926,-0.02033316083711053,0.8427227057410365,0.003406774947237709,-0.099635,-33.715666
11.185,2.0,1.0,1.0,34.2,33.8,33.8,4.4,1.6,2.5975,0.5088815810799003,-0.02070009410583237,0.8473746110164201,0.00325831537846451,-0.101036,-33.574262
11.185,2.0,1.0,1.0,34.2,33.8,33.8,4.4,1.6,2.6,0.5008127565603626,-0.021073941372539533,0.8519790503540272,0.0031028633094946465,-0.102469,-33.431941
11.185,2.0,1.0,1.0,34.2,33.8,33.8,4.4,1.6,2.6025,0.4926462613040553,-0.021454864361504504,0.856534441558256,0.0029401423948330115,-0.103938,-33.288682
11.185,2.0,1.0,1.0,34.2,33.8,33.8,4.4,1.6,2.605,0.48438117192228985,-0.021843029910238176,0.8610391556818511,0.0027698636008635373,-0.105442,-33.144463
11.185,2.0,1.0,1.0,34.2,33.8,33.8,4.4,1.6,2.6075,0.47601656119101154,-0.02223861018463164,0.8654915155069411,0.0025917244914044637,-0.106982,-32.999258
11.185,2.0,1.0,1.0,34.2,33.8,33.8,4.4,1.6,2.61,0.46755149840238686,-0.022641782905465188,0.8698897939640589,0.0024054084641724773,-0.108561,-32.853046
11.185,2.0,1.0,1.0,34.2,33.8,33.8,4.4,1.6,2.6125,0.4589850497358485,-0.0230527315869677,0.8742322124853347,0.0022105839341245203,-0.11018,-32.7058
11.185,2.0,1.0,1.0,34.2,33.8,33.8,4.4,1.6,2.615,0.45031627864916857,-0.023471645788148393,0.878516939287685,0.002006903459259692,-0.111839,-32.557494
11.185,2.0,1.0,1.0,34.2,33.8,33.8,4.4,1.6,2.6175,0.441544246290135,-0.023898721377664696,0.8827420875814697,0.0017940028040376163,-0.113541,-32.408103
11.185,2.0,1.0,1.0,34.2,33.8,33.8,4.4,1.6,2.62,0.4326680119293943,-0.024334160813032826,0.8869057136996112,0.0015714999350946318,-0.115287,-32.257598
11.185,2.0,1.0,1.0,34.2,33.8,33.8,4.4,1.6,2.6225,0.42368663341501756,-0.024778173435030446,0.8910058151417299,0.0013389939434126405,-0.117079,-32.10595
11.185,2.0,1.0,1.0,34.2,33.8,33.8,4.4,1.6,2.625,0.414599167649366,-0.0252309757781845,0.895040328527287,0.00109606388650946,-0.118918,-31.953131
11.185,2.0,1.0,1.0,34.2,33.8,33.8,4.4,1.6,2.6275,0.4054046710887824,-0.025692791898282153,0.8990071274511475,0.0008422675435660875,-0.120806,-31.799109
11.185,2.0,1.0,1.0,34.2,33.8,33.8,4.4,1.6,2.63,0.39610220026668713,-0.026163853717884485,0.9029040202342702,0.0005771400756790613,-0.122745,-31.643853
11.185,2.0,1.0,1.0,34.2,33.8,33.8,4.4,1.6,2.6325,0.38669081234060093,-0.026644401390864995,0.9067287475615153,0.00030019258261186193,-0.124737,-31.487329
11.185,2.0,1.0,1.0,34.2,33.8,33.8,4.4,1.6,2.635,0.3771695656636546,-0.027134683687033315,0.91047897999768,1.0910546512025158e-05,-0.126784,-31.329504
11.185,2.0,1.0,1.0,34.2,33.8,33.8,4.4,1.6,2.6375,0.3675375203811405,-0.027634958397939134,0.9141523153719356,-0.0002912478479588644,-0.128889,-31.170341
11.185,2.0,1.0,1.0,34.2,33.8,33.8,4.4,1.6,2.64,0.357793739052629,-0.028145492764981076,0.9177462760197694,-0.0006068535287742478,-0.131053,-31.009804
11.185,2.0,1.0,1.0,34.2,33.8,33.8,4.4,1.6,2.6425,0.3479372873002541,-0.028666563930964915,0.92125830587031,-0.0009365084999442357,-0.13328,-30.847855
11.185,2.0,1.0,1.0,34.2,33.8,33.8,4.4,1.6,2.645,0.33796723448373517,-0.02919845941626572,0.9246857673655613,-0.001280847967582136,-0.135572,-30.684452
11.185,2.0,1.0,1.0,34.2,33.8,33.8,4.4,1.6,2.6475,0.3278826544027693,-0.029741477620744607,0.9280259381965301,-0.0016405426446683192,-0.137931,-30.519555
11.185,2.0,1.0,1.0,34.2,33.8,33.8,4.4,1.6,2.65,0.3176826260274522,-0.030295928352548566,0.9312760078394812,-0.002016301252371558,-0.140362,-30.353121
11.185,2.0,1.0,1.0,34.2,33.8,33.8,4.4,1.6,2.6525,0.3073662342575088,-0.03086213338487197,0.9344330738735587,-0.002408873237848204,-0.142866,-30.185103
11.185,2.0,1.0,1.0,34.2,33.8,33.8,4.4,1.6,2.655,0.29693257071113505,-0.03144042704168522,0.9374941380588155,-0.0028190517307732643,-0.145447,-30.015456
11.185,2.0,1.0,1.0,34.2,33.8,33.8,4.4,1.6,2.6575,0.28638073454445917,-0.03203115681331766,0.9404561021510845,-0.0032476767634973054,-0.148109,-29.844129
11.185,2.0,1.0,1.0,34.2,33.8,33.8,4.4,1.6,2.66,0.2757098333027659,-0.03263468400261706,0.9433157634272598,-0.0036956387827178096,-0.150856,-29.671072
11.185,2.0,1.0,1.0,34.2,33.8,33.8,4.4,1.6,2.6625,0.2649189838048815,-0.033251384402182504,0.9460698098912338,-0.004163882483957383,-0.153691,-29.496232
11.185,2.0,1.0,1.0,34.2,33.8,33.8,4.4,1.6,2.665,0.25400731306239305,-0.03388164900286569,0.9487148151269729,-0.004653411004014273,-0.15662,-29.319551
11.185,2.0,1.0,1.0,34.2,33.8,33.8,4.4,1.6,2.6675,0.24297395923582898,-0.03452588473333316,0.9512472327608597,-0.005165290510963013,-0.159646,-29.140972
11.185,2.0,1.0,1.0,34.2,33.8,33.8,4.4,1.6,2.67,0.23181807263036847,-0.03518451522996653,0.9536633904905384,-0.00570065523632782,-0.162774,-28.960432
11.185,2.0,1.0,1.0,34.2,33.8,33.8,4.4,1.6,2.6725,0.2205388167343278,-0.035857981635706186,0.9559594836317908,-0.006260712999816002,-0.166011,-28.777869
11.185,2.0,1.0,1.0,34.2,33.8,33.8,4.4,1.6,2.675,0.20913536930452944,-0.03654674342558806,0.9581315681284591,-0.006846751283609338,-0.169361,-28.593215
11.185,2.0,1.0,1.0,34.2,33.8,33.8,4.4,1.6,2.6775,0.19760692350363804,-0.03725127925563538,0.9601755529629641,-0.007460143920801301,-0.172831,-28.406399
11.185,2.0,1.0,1.0,34.2,33.8,33.8,4.4,1.6,2.68,0.18595268909594811,-0.03797208783038861,0.9620871918962697,-0.008102358471299793,-0.176427,-28.217347
11.185,2.0,1.0,1.0,34.2,33.8,33.8,4.4,1.6,2.6825,0.1741718937097427,-0.03870968878261447,0.9638620744562166,-0.008774964368578624,-0.180157,-28.025981
11.185,2.0,1.0,1.0,34.2,33.8,33.8,4.4,1.6,2.685,0.16226378417646148,-0.03946462355654739,0.9654956160815491,-0.009479641932288063,-0.184028,-27.83222
11.185,2.0,1.0,1.0,34.2,33.8,33.8,4.4,1.6,2.6875,0.15022762795959269,-0.04023745628326053,0.9669830473155862,-0.010218192355189054,-0.188047,-27.635977
11.185,2.0,1.0,1.0,34.2,33.8,33.8,4.4,1.6,2.69,0.13806271468953413,-0.04102877463330585,0.9683194019279179,-0.010992548788479953,-0.192225,-27.437162
11.185,2.0,1.0,1.0,34.2,33.8,33.8,4.4,1.6,2.6925,0.1257683578248714,-0.041839190627429905,0.9694995038243831,-0.011804788667728003,-0.196571,-27.235679
11.185,2.0,1.0,1.0,34.2,33.8,33.8,4.4,1.6,2.695,0.11334389646583612,-0.04266934138072575,0.9705179525844597,-0.012657147442742524,-0.201095,-27.031427
11.185,2.0,1.0,1.0,34.2,33.8,33.8,4.4,1.6,2.6975,0.10078869735229519,-0.0435198897487645,0.9713691074404791,-0.013552033899404608,-0.205808,-26.8243
11.185,2.0,1.0,1.0,34.2,33.8,33.8,4.4,1.6,2.7,0.08810215708705618,-0.04439152483567882,0.972047069484133,-0.014492047290331466,-0.210723,-26.614186
11.185,2.0,1.0,1.0,34.2,33.8,33.8,4.4,1.6,2.7025,0.0752837046357049,-0.04528496231341429,0.9725456618517565,-0.015479996525123137,-0.215854,-26.400966
11.185,2.0,1.0,1.0,34.2,33.8,33.8,4.4,1.6,2.705,0.06233280416756041,-0.046200944487829576,0.9728584075998087,-0.016518921710752296,-0.221215,-26.184514
11.185,2.0,1.0,1.0,34.2,33.8,33.8,4.4,1.6,2.7075,0.049248958318933715,-0.04714024003028453,0.9729785049348642,-0.017612118379591576,-0.226822,-25.964696
11.185,2.0,1.0,1.0,34.2,33.8,33.8,4.4,1.6,2.71,0.036031711981150044,-0.04810364327184841,0.9728987994064903,-0.018763164798022015,-0.232694,-25.741371
11.185,2.0,1.0,1.0,34.2,33.8,33.8,4.4,1.6,2.7125,0.02268065674247653,-0.04909197293008281,0.9726117526052911,-0.01997595281425638,-0.238849,-25.514389
11.185,2.0,1.0,1.0,34.2,33.8,33.8,4.4,1.6,2.715,0.009195436147111349,-0.05010607010391373,0.9721094068296939,-0.021254722782018426,-0.245309,-25.28359
11.185,2.0,1.0,1.0,34.2,33.8,33.8,4.4,1.6,2.7175,-0.004424248022413664,-0.051146795328381435,0.9713833450913639,-0.022604103189602893,-0.252097,-25.048804
11.185,2.0,1.0,1.0,34.2,33.8,33.8,4.4,1.6,2.72,-0.018178628177956697,-0.052215024425372195,0.970424645717155,-0.024029155734719136,-0.25924,-24.809851
11.185,2.0,1.0,1.0,34.2,33.8,33.8,4.4,1.6,2.7225,-0.03206786174179735,-0.05331164281534114,0.9692238306714638,-0.025535426718233667,-0.266767,-24.566536
11.185,2.0,1.0,1.0,34.2,33.8,33.8,4.4,1.6,2.725,-0.04609201992372248,-0.05443753786395443,0.9677708065618377,-0.02712900578916544,-0.27471,-24.318654
11.185,2.0,1.0,1.0,34.2,33.8,33.8,4.4,1.6,2.7275,-0.0602510739208457,-0.05559358872054829,0.966054797096914,-0.02881659326488389,-0.283104,-24.065984
11.185,2.0,1.0,1.0,34.2,33.8,33.8,4.4,1.6,2.73,-0.07454487785173966,-0.05678065295434408,0.9640642655319123,-0.030605577481517335,-0.291991,-23.80829
11.185,2.0,1.0,1.0,34.2,33.8,33.8,4.4,1.6,2.7325,-0.0889731475421826,-0.05799954909895469,0.9617868253539658,-0.032504123908961575,-0.301416,-23.54532
11.185,2.0,1.0,1.0,34.2,33.8,33.8,4.4,1.6,2.735,-0.10353543402693367,-0.05925103396173469,0.95920913711653,-0.03452127810342494,-0.311428,-23.276801
11.185,2.0,1.0,1.0,34.2,33.8,33.8,4.4,1.6,2.7375,-0.118231090301766,-0.06053577322304128,0.9563167889152082,-0.03666708498159834,-0.322086,-23.002442
11.185,2.0,1.0,1.0,34.2,33.8,33.8,4.4,1.6,2.74,-0.13305922942673443,-0.061854303415886915,0.9530941574897549,-0.03895272740078139,-0.333453,-22.721929
11.185,2.0,1.0,1.0,34.2,33.8,33.8,4.4,1.6,2.7425,-0.1480186715106677,-0.06320698280409046,0.9495242463180086,-0.041390687638902565,-0.345604,-22.434923
11.185,2.0,1.0,1.0,34.2,33.8,33.8,4.4,1.6,2.745,-0.16310787635062707,-0.06459392791945018,0.9455884963117174,-0.04399493611200818,-0.358621,-22.14106
11.185,2.0,1.0,1.0,34.2,33.8,33.8,4.4,1.6,2.7475,-0.17832485749351268,-0.0660149315106438,0.9412665638009974,-0.046781152574349526,-0.372602,-21.839943
11.185,2.0,1.0,1.0,34.2,33.8,33.8,4.4,1.6,2.75,-0.19366707213983,-0.0674693563086667,0.936536059366607,-0.0497669861532482,-0.387656,-21.531147
11.185,2.0,1.0,1.0,34.2,33.8,33.8,4.4,1.6,2.7525,-0.20913127949712348,-0.0689559972008751,0.9313722397044182,-0.052972361919004625,-0.40391,-21.214207
11.185,2.0,1.0,1.0,34.2,33.8,33.8,4.4,1.6,2.755,-0.22471335773722423,-0.07047290195371923,0.9257476430351969,-0.05641984332598047,-0.421511,-20.888622
11.185,2.0,1.0,1.0,34.2,33.8,33.8,4.4,1.6,2.7575,-0.24040806637168224,-0.07201713728786066,0.919631656552855,-0.06013506183408127,-0.44063,-20.553844
11.185,2.0,1.0,1.0,34.2,33.8,33.8,4.4,1.6,2.76,-0.2562087362846041,-0.07358448254171558,0.912990001985243,-0.06414722737619771,-0.461468,-20.209279
11.185,2.0,1.0,1.0,34.2,33.8,33.8,4.4,1.6,2.7625,-0.27210686335593265,-0.07516902686706195,0.9057841224874172,-0.06848973610676032,-0.48426,-19.854279
11.185,2.0,1.0,1.0,34.2,33.8,33.8,4.4,1.6,2.765,-0.2880915728602334,-0.07676263717699049,0.8979704508006107,-0.07320089503844922,-0.509284,-19.488138
11.185,2.0,1.0,1.0,34.2,33.8,33.8,4.4,1.6,2.7675,-0.3041489096136679,-0.07835425189639526,0.8894995349774882,-0.07832478664959215,-0.536873,-19.110082
11.185,2.0,1.0,1.0,34.2,33.8,33.8,4.4,1.6,2.77,-0.32026089168587696,-0.07992893848091667,0.8803149942517181,-0.0839123000505276,-0.567422,-18.719269
11.185,2.0,1.0,1.0,34.2,33.8,33.8,4.4,1.6,2.7725,-0.3364042412471736,-0.0814666285447577,0.8703522743995846,-0.09002235822624642,-0.60141,-18.314779
11.185,2.0,1.0,1.0,34.2,33.8,33.8,4.4,1.6,2.775,-0.3525486716646277,-0.0829404101838749,0.8595371703971106,-0.09672337199543744,-0.639415,-17.895605
11.185,2.0,1.0,1.0,34.2,33.8,33.8,4.4,1.6,2.7775,-0.3686545607614969,-0.08431420822391358,0.8477840866432742,-0.10409494826614192,-0.682147,-17.460652
11.185,2.0,1.0,1.0,34.2,33.8,33.8,4.4,1.6,2.78,-0.38466976966693667,-0.08553961321390884,0.8349940158995266,-0.11222986845222778,-0.730478,-17.008727
11.185,2.0,1.0,1.0,34.2,33.8,33.8,4.4,1.6,2.7825,-0.40052526556603024,-0.08655151985800744,0.8210522455797233,-0.12123632425146258,-0.785491,-16.538542
11.185,2.0,1.0,1.0,34.2,33.8,33.8,4.4,1.6,2.785,-0.4161290619093412,-0.08726209252624793,0.8058258592080135,-0.13124033715022246,-0.848542,-16.048712
11.185,2.0,1.0,1.0,34.2,33.8,33.8,4.4,1.6,2.7875,-0.43135778400067537,-0.08755237279615828,0.789161219379086,-0.1423881672291976,-0.921347,-15.537766
11.185,2.0,1.0,1.0,34.2,33.8,33.8,4.4,1.6,2.79,-0.4460448806744928,-0.08726056193826655,0.7708818467064181,-0.15484828568363074,-1.006092,-15.004174
11.185,2.0,1.0,1.0,34.2,33.8,33.8,4.4,1.6,2.7925,-0.4599641151612996,-0.08616563276600828,0.750787537931305,-0.16881205313101885,-1.105588,-14.446392
11.185,2.0,1.0,1.0,34.2,33.8,33.8,4.4,1.6,2.795,-0.47280648048370105,-0.08396445367414046,0.7286563578699301,-0.18449145075026757,-1.223488,-13.862942
11.185,2.0,1.0,1.0,34.2,33.8,33.8,4.4,1.6,2.7975,-0.4841481635203805,-0.08024011505603834,0.7042525774571599,-0.202110773006078,-1.364564,-13.25256
11.185,2.0,1.0,1.0,34.2,33.8,33.8,4.4,1.6,2.8,-0.49340687889133766,-0.07441889513785796,0.6773461872282153,-0.22188664338006953,-1.535094,-12.614426
11.185,2.0,1.0,1.0,34.2,33.8,33.8,4.4,1.6,2.8025,-0.4997845230118318,-0.06571401530530345,0.6477540157393397,-0.24398635432892668,-1.743339,-11.948549
11.185,2.0,1.0,1.0,34.2,33.8,33.8,4.4,1.6,2.805,-0.5021974364241125,-0.053057802489302884,0.6154196127367849,-0.26844751997306343,-2.000095,-11.256388
11.185,2.0,1.0,1.0,34.2,33.8,33.8,4.4,1.6,2.8075,-0.4992055918617971,-0.035034067068058054,0.5805592682970422,-0.29503211810030383,-2.319132,-10.541803
11.185,2.0,1.0,1.0,34.2,33.8,33.8,4.4,1.6,2.81,-0.48897656189399424,-0.009847107101884404,0.5439120430283202,-0.32297817211689867,-2.716962,-9.812501
11.185,2.0,1.0,1.0,34.2,33.8,33.8,4.4,1.6,2.8125,-0.4693709910360235,0.02458588557684956,0.5071292981150256,-0.3506160149889815,-3.210364,-9.082063
11.185,2.0,1.0,1.0,34.2,33.8,33.8,4.4,1.6,2.815,-0.4383195057414294,0.07025136894652531,0.47328571492293103,-0.3748713554546654,-3.807779,-8.372451
11.185,2.0,1.0,1.0,34.2,33.8,33.8,4.4,1.6,2.8175,-0.3947345121205865,0.12812999599624889,0.44731441958426366,-0.3908567692855132,-4.486653,-7.716348
11.185,2.0,1.0,1.0,34.2,33.8,33.8,4.4,1.6,2.82,-0.3400815678407702,0.1966545226139872,0.4358101472103407,-0.3921029902092047,-5.148666,-7.157549
11.185,2.0,1.0,1.0,34.2,33.8,33.8,4.4,1.6,2.8225,-0.28008388353272323,0.27007803143462544,0.44534235341275114,-0.3722567835029262,-5.578703,-6.746542
11.185,2.0,1.0,1.0,34.2,33.8,33.8,4.4,1.6,2.825,-0.2248931702720502,0.3383910951873519,0.4790348994889996,-0.32843226921810764,-5.527623,-6.529115
11.185,2.0,1.0,1.0,34.2,33.8,33.8,4.4,1.6,2.8275,-0.18597326127078528,0.3904389634737579,0.533326298288068,-0.2642962879549437,-4.96178,-6.530701
