1,w,sub_t,h,l1,l2,l3,g1,g2,Freq,S11_re,S21_re,S11_img,S21_img,S11_dB,S21_dB
11.185,2.0,1.0,1.0,33.0,33.5,33.5,1.5,2.0,2.5,0.893671459841808,-0.0109988531555406,0.43335982059322,0.0144886060913074,-0.059252,-34.803105
11.185,2.0,1.0,1.0,33.0,33.5,33.5,1.5,2.0,2.5025,0.8908665672355509,-0.011260095384348464,0.4389367311650786,0.014618110538658502,-0.059871,-34.679098
11.185,2.0,1.0,1.0,33.0,33.5,33.5,1.5,2.0,2.505,0.8880138998756449,-0.01152694937620096,0.4445182887047571,0.01474811389334836,-0.060503,-34.554639
11.185,2.0,1.0,1.0,33.0,33.5,33.5,1.5,2.0,2.5075,0.8851129262599284,-0.011799553228299479,0.4501043737651374,0.014878595332883805,-0.061148,-34.429718
11.185,2.0,1.0,1.0,33.0,33.5,33.5,1.5,2.0,2.51,0.8821631039778021,-0.012078049234564087,0.45569486215041444,0.015009532579781461,-0.061805,-34.304326
11.185,2.0,1.0,1.0,33.0,33.5,33.5,1.5,2.0,2.5125,0.87916387943265,-0.012362584036599743,0.46128962471526597,0.01514090181977169,-0.062476,-34.178452
11.185,2.0,1.0,1.0,33.0,33.5,33.5,1.5,2.0,2.515,0.8761146875554661,-0.012653308780934442,0.4668885271552806,0.015272677615308821,-0.063161,-34.052088
11.185,2.0,1.0,1.0,33.0,33.5,33.5,1.5,2.0,2.5175,0.8730149515093432,-0.012950379282823892,0.4724914297881897,0.015404832814096788,-0.06386,-33.925222
11.185,2.0,1.0,1.0,33.0,33.5,33.5,1.5,2.0,2.52,0.8698640823844642,-0.013253956196931795,0.47809818732546344,0.015537338452320979,-0.064573,-33.797845
11.185,2.0,1.0,1.0,33.0,33.5,33.5,1.5,2.0,2.5225,0.866661478883222,-0.013564205195213574,0.4837086486337568,0.01567016365225448,-0.065302,-33.669947
11.185,2.0,1.0,1.0,33.0,33.5,33.5,1.5,2.0,2.525,0.8634065269950673,-0.013881297152345581,0.48932265648570755,0.015803275513886147,-0.066046,-33.541516
11.185,2.0,1.0,1.0,33.0,33.5,33.5,1.5,2.0,2.5275,0.8600985996606726,-0.014205408339063112,0.49494004729953334,0.01593663900019218,-0.066805,-33.412542
11.185,2.0,1.0,1.0,33.0,33.5,33.5,1.5,2.0,2.53,0.8567370564249835,-0.014536720623786326,0.5005606508668381,0.016070216815646847,-0.067581,-33.283014
11.185,2.0,1.0,1.0,33.0,33.5,33.5,1.5,2.0,2.5325,0.8533212430786961,-0.014875421682935888,0.5061842900680218,0.01620396927754123,-0.068374,-33.152921
11.185,2.0,1.0,1.0,33.0,33.5,33.5,1.5,2.0,2.535,0.8498504912876856,-0.015221705220361566,0.5118107805746361,0.016337854179647608,-0.069183,-33.022253
11.185,2.0,1.0,1.0,33.0,33.5,33.5,1.5,2.0,2.5375,0.8463241182098938,-0.015575771196327162,0.5174399305379894,0.016471826647733723,-0.070011,-32.890996
11.185,2.0,1.0,1.0,33.0,33.5,33.5,1.5,2.0,2.54,0.8427414260991407,-0.015937826066522543,0.523071540263267,0.016605838986398735,-0.070857,-32.759141
11.185,2.0,1.0,1.0,33.0,33.5,33.5,1.5,2.0,2.5425,0.8391017018953173,-0.016308083031596338,0.5287054018683852,0.016739840516661917,-0.071722,-32.626675
11.185,2.0,1.0,1.0,33.0,33.5,33.5,1.5,2.0,2.545,0.8354042168003802,-0.01668676229773106,0.5343412989267473,0.01687377740369709,-0.072606,-32.493586
11.185,2.0,1.0,1.0,33.0,33.5,33.5,1.5,2.0,2.5475,0.8316482258395457,-0.017074091348809304,0.5399790060930065,0.017007592474059408,-0.07351,-32.359863
11.185,2.0,1.0,1.0,33.0,33.5,33.5,1.5,2.0,2.55,0.8278329674070367,-0.017470305230752582,0.5456182887109143,0.017141225021706157,-0.074435,-32.225491
11.185,2.0,1.0,1.0,33.0,33.5,33.5,1.5,2.0,2.5525,0.8239576627957331,-0.017875646848641517,0.5512589024022272,0.017274610602060203,-0.075381,-32.09046
11.185,2.0,1.0,1.0,33.0,33.5,33.5,1.5,2.0,2.555,0.8200215157100033,-0.018290367277265122,0.5569005926356226,0.017407680813310695,-0.076349,-31.954756
11.185,2.0,1.0,1.0,33.0,33.5,33.5,1.5,2.0,2.5575,0.8160237117609914,-0.018714726085778052,0.5625430942744799,0.017540363064084852,-0.07734,-31.818366
11.185,2.0,1.0,1.0,33.0,33.5,33.5,1.5,2.0,2.56,0.811963417943583,-0.019148991677184875,0.5681861311023073,0.01767258032656175,-0.078354,-31.681277
11.185,2.0,1.0,1.0,33.0,33.5,33.5,1.5,2.0,2.5625,0.8078397820942304,-0.01959344164340828,0.5738294153245238,0.017804250874026737,-0.079392,-31.543475
11.185,2.0,1.0,1.0,33.0,33.5,33.5,1.5,2.0,2.565,0.8036519323287841,-0.020048363136743692,0.579472647045216,0.017935288001792612,-0.080456,-31.404946
11.185,2.0,1.0,1.0,33.0,33.5,33.5,1.5,2.0,2.5675,0.7993989764594269,-0.020514053258542466,0.585115513717382,0.018065599730329087,-0.081544,-31.265676
11.185,2.0,1.0,1.0,33.0,33.5,33.5,1.5,2.0,2.57,0.7950800013897636,-0.020990819466016872,0.5907576895650907,0.01819508848935438,-0.08266,-31.125651
11.185,2.0,1.0,1.0,33.0,33.5,33.5,1.5,2.0,2.5725,0.7906940724870664,-0.021478979998110152,0.5963988349758673,0.018323650781547726,-0.083803,-30.984857
11.185,2.0,1.0,1.0,33.0,33.5,33.5,1.5,2.0,2.575,0.7862402329306236,-0.021978864321422795,0.6020385958614903,0.018451176824435728,-0.084974,-30.843277
11.185,2.0,1.0,1.0,33.0,33.5,33.5,1.5,2.0,2.5775,0.7817175030350937,-0.02249081359724986,0.6076766029852676,0.01857755016889248,-0.086175,-30.700898
11.185,2.0,1.0,1.0,33.0,33.5,33.5,1.5,2.0,2.58,0.7771248795476948,-0.02301518117083476,0.6133124712537138,0.018702647292571713,-0.087406,-30.557703
11.185,2.0,1.0,1.0,33.0,33.5,33.5,1.5,2.0,2.5825,0.7724613349180042,-0.02355233308401443,0.6189457989704052,0.01882633716645385,-0.088668,-30.413676
11.185,2.0,1.0,1.0,33.0,33.5,33.5,1.5,2.0,2.585,0.7677258165390832,-0.02410264861249223,0.6245761670496196,0.018948480792547816,-0.089963,-30.268802
11.185,2.0,1.0,1.0,33.0,33.5,33.5,1.5,2.0,2.5875,0.7629172459585614,-0.024666520829046155,0.6302031381872047,0.019068930710626462,-0.091292,-30.123063
11.185,2.0,1.0,1.0,33.0,33.5,33.5,1.5,2.0,2.59,0.7580345180582594,-0.02524435719405296,0.6358262559859107,0.019187530471705867,-0.092655,-29.976443
11.185,2.0,1.0,1.0,33.0,33.5,33.5,1.5,2.0,2.5925,0.7530765002008343,-0.02583658017478764,0.6414450440322308,0.01930411407578912,-0.094055,-29.828925
11.185,2.0,1.0,1.0,33.0,33.5,33.5,1.5,2.0,2.595,0.7480420313418732,-0.02644362789503557,0.6470590049215549,0.019418505371191108,-0.095492,-29.68049
11.185,2.0,1.0,1.0,33.0,33.5,33.5,1.5,2.0,2.5975,0.7429299211057547,-0.027065954816646993,0.6526676192282147,0.019530517412540613,-0.096967,-29.531121
11.185,2.0,1.0,1.0,33.0,33.5,33.5,1.5,2.0,2.6,0.737738948823524,-0.02770403245474761,0.6582703444167172,0.019639951774309078,-0.098483,-29.380799
11.185,2.0,1.0,1.0,33.0,33.5,33.5,1.5,2.0,2.6025,0.7324678625309378,-0.02835835012841769,0.6638666136901755,0.019746597816454173,-0.100041,-29.229505
11.185,2.0,1.0,1.0,33.0,33.5,33.5,1.5,2.0,2.605,0.7271153779247195,-0.029029415748752438,0.6694558347716447,0.01985023189847364,-0.101642,-29.077221
11.185,2.0,1.0,1.0,33.0,33.5,33.5,1.5,2.0,2.6075,0.7216801772749852,-0.029717756646319676,0.6750373886137111,0.019950616537849006,-0.103288,-28.923925
11.185,2.0,1.0,1.0,33.0,33.5,33.5,1.5,2.0,2.61,0.7161609082916834,-0.03042392044014111,0.6806106280313154,0.020047499508512284,-0.10498,-28.769599
11.185,2.0,1.0,1.0,33.0,33.5,33.5,1.5,2.0,2.6125,0.7105561829427787,-0.031148475950439167,0.6861748762523895,0.020140612874588324,-0.106721,-28.61422
11.185,2.0,1.0,1.0,33.0,33.5,33.5,1.5,2.0,2.615,0.7048645762217975,-0.031892014157511236,0.6917294253804259,0.020229671954250187,-0.108512,-28.457769
11.185,2.0,1.0,1.0,33.0,33.5,33.5,1.5,2.0,2.6175,0.699084624862242,-0.03265514920921536,0.6972735347626217,0.02031437420806881,-0.110356,-28.300223
11.185,2.0,1.0,1.0,33.0,33.5,33.5,1.5,2.0,2.62,0.6932148259962361,-0.03343851947968487,0.702806429256698,0.02039439804573715,-0.112254,-28.141559
11.185,2.0,1.0,1.0,33.0,33.5,33.5,1.5,2.0,2.6225,0.6872536357546527,-0.03424278868202061,0.7083272973889282,0.020469401544501685,-0.114209,-27.981756
11.185,2.0,1.0,1.0,33.0,33.5,33.5,1.5,2.0,2.625,0.681199467805845,-0.0350686470378472,0.713835289395235,0.0205390210720276,-0.116223,-27.82079
11.185,2.0,1.0,1.0,33.0,33.5,33.5,1.5,2.0,2.6275,0.6750506918299417,-0.03591681250676336,0.7193295151365521,0.020602869805763452,-0.118299,-27.658636
11.185,2.0,1.0,1.0,33.0,33.5,33.5,1.5,2.0,2.63,0.6688056319255681,-0.03678803207886073,0.7248090418788535,0.020660536140139067,-0.120438,-27.49527
11.185,2.0,1.0,1.0,33.0,33.5,33.5,1.5,2.0,2.6325,0.6624625649456779,-0.03768308313362841,0.7302728919274059,0.02071158197212757,-0.122644,-27.330668
11.185,2.0,1.0,1.0,33.0,33.5,33.5,1.5,2.0,2.635,0.6560197187590742,-0.038602774868715294,0.7357200401038833,0.020755540854815957,-0.12492,-27.164802
11.185,2.0,1.0,1.0,33.0,33.5,33.5,1.5,2.0,2.6375,0.6494752704340395,-0.03954794980215841,0.7411494110539422,0.020791916007651443,-0.127268,-26.997646
11.185,2.0,1.0,1.0,33.0,33.5,33.5,1.5,2.0,2.64,0.6428273443403593,-0.04051948535184326,0.7465598763717409,0.020820178170953878,-0.129693,-26.829173
11.185,2.0,1.0,1.0,33.0,33.5,33.5,1.5,2.0,2.6425,0.6360740101659152,-0.041518295496088535,0.7519502515266413,0.020839763291092838,-0.132196,-26.659356
11.185,2.0,1.0,1.0,33.0,33.5,33.5,1.5,2.0,2.645,0.6292132808438791,-0.0425453325193896,0.7573192925759441,0.020850070021411343,-0.134782,-26.488164
11.185,2.0,1.0,1.0,33.0,33.5,33.5,1.5,2.0,2.6475,0.622243110386448,-0.04360158884746891,0.7626656926460228,0.020850457022523253,-0.137455,-26.315569
11.185,2.0,1.0,1.0,33.0,33.5,33.5,1.5,2.0,2.65,0.6151613916209452,-0.04468809897589545,0.7679880781625319,0.020840240043999043,-0.140218,-26.14154
11.185,2.0,1.0,1.0,33.0,33.5,33.5,1.5,2.0,2.6525,0.6079659538240861,-0.04580594149661006,0.7732850048084919,0.020818688767668705,-0.143076,-25.966046
11.185,2.0,1.0,1.0,33.0,33.5,33.5,1.5,2.0,2.655,0.6006545602500998,-0.046956241226762285,0.7785549531870699,0.020785023390790292,-0.146033,-25.789054
11.185,2.0,1.0,1.0,33.0,33.5,33.5,1.5,2.0,2.6575,0.5932249055484473,-0.04814017144428113,0.7837963241635232,0.020738410925134818,-0.149094,-25.610532
11.185,2.0,1.0,1.0,33.0,33.5,33.5,1.5,2.0,2.66,0.5856746130668823,-0.04935895623458548,0.7890074338583247,0.020677961185599076,-0.152264,-25.430445
11.185,2.0,1.0,1.0,33.0,33.5,33.5,1.5,2.0,2.6625,0.5780012320357072,-0.05061387295276498,0.7941865082606521,0.02060272243924341,-0.155548,-25.248758
11.185,2.0,1.0,1.0,33.0,33.5,33.5,1.5,2.0,2.665,0.5702022346292246,-0.051906254805417315,0.7993316774283429,0.02051167668263395,-0.158952,-25.065436
11.185,2.0,1.0,1.0,33.0,33.5,33.5,1.5,2.0,2.6675,0.5622750129006612,-0.053237493556100815,0.8044409692369524,0.020403734512012474,-0.162481,-24.880441
11.185,2.0,1.0,1.0,33.0,33.5,33.5,1.5,2.0,2.67,0.5542168755871634,-0.054609042358027625,0.8095123026367287,0.020277729547068263,-0.166144,-24.693734
11.185,2.0,1.0,1.0,33.0,33.5,33.5,1.5,2.0,2.6725,0.5460250447819682,-0.05602241871716327,0.814543480372023,0.020132412364918924,-0.169945,-24.505277
11.185,2.0,1.0,1.0,33.0,33.5,33.5,1.5,2.0,2.675,0.5376966524714978,-0.057479207588276855,0.8195321811129013,0.01996644389624465,-0.173893,-24.315028
11.185,2.0,1.0,1.0,33.0,33.5,33.5,1.5,2.0,2.6775,0.5292287369359505,-0.05898106460568015,0.8244759509434049,0.01977838823031986,-0.177995,-24.122946
11.185,2.0,1.0,1.0,33.0,33.5,33.5,1.5,2.0,2.68,0.5206182390130317,-0.06052971944935065,0.8293721941449629,0.019566704769874953,-0.18226,-23.928987
11.185,2.0,1.0,1.0,33.0,33.5,33.5,1.5,2.0,2.6825,0.5118619982258382,-0.062126979345809616,0.8342181632068293,0.01932973967021336,-0.186696,-23.733107
11.185,2.0,1.0,1.0,33.0,33.5,33.5,1.5,2.0,2.685,0.5029567487775785,-0.06377473270145942,0.839010947987999,0.019065716489733667,-0.191312,-23.535259
11.185,2.0,1.0,1.0,33.0,33.5,33.5,1.5,2.0,2.6875,0.493899115417951,-0.0654749528640057,0.843747463946754,0.0187727259708531,-0.19612,-23.335396
11.185,2.0,1.0,1.0,33.0,33.5,33.5,1.5,2.0,2.69,0.48468560918860576,-0.06722970200500669,0.8484244393446829,0.0184487148611867,-0.20113,-23.133469
11.185,2.0,1.0,1.0,33.0,33.5,33.5,1.5,2.0,2.6925,0.4753126230583251,-0.06904113511340706,0.8530384013216094,0.018091473674592143,-0.206353,-22.929428
11.185,2.0,1.0,1.0,33.0,33.5,33.5,1.5,2.0,2.695,0.46577642746255427,-0.07091150408599324,0.8575856607261536,0.01769862328018026,-0.211802,-22.723219
11.185,2.0,1.0,1.0,33.0,33.5,33.5,1.5,2.0,2.6975,0.45607316576669116,-0.072843161895911,0.8620622955735555,0.01726760019447948,-0.217491,-22.514789
11.185,2.0,1.0,1.0,33.0,33.5,33.5,1.5,2.0,2.7,0.4461988496785236,-0.07483856681451229,0.8664641329876452,0.016795640437426214,-0.223434,-22.304082
11.185,2.0,1.0,1.0,33.0,33.5,33.5,1.5,2.0,2.7025,0.43614935464233395,-0.07690028665464702,0.8707867294672963,0.01627976179654499,-0.229646,-22.09104
11.185,2.0,1.0,1.0,33.0,33.5,33.5,1.5,2.0,2.705,0.42592041525599683,-0.07903100299480655,0.8750253492991291,0.015716744325342476,-0.236145,-21.875602
11.185,2.0,1.0,1.0,33.0,33.5,33.5,1.5,2.0,2.7075,0.4155076207630002,-0.0812335153329309,0.87917494091729,0.015103108881312551,-0.242948,-21.657709
11.185,2.0,1.0,1.0,33.0,33.5,33.5,1.5,2.0,2.71,0.40490641068424127,-0.08351074510583838,0.8832301109876702,0.014435093485755219,-0.250075,-21.437294
11.185,2.0,1.0,1.0,33.0,33.5,33.5,1.5,2.0,2.7125,0.39411207067009335,-0.08586573949463092,0.887185095967472,0.013708627261514818,-0.257547,-21.214293
11.185,2.0,1.0,1.0,33.0,33.5,33.5,1.5,2.0,2.715,0.38311972867221544,-0.0883016749175047,0.8910337308613533,0.012919301675398355,-0.265388,-20.988636
11.185,2.0,1.0,1.0,33.0,33.5,33.5,1.5,2.0,2.7175,0.371924351557581,-0.09082186008845552,0.89476941486194,0.012062338779041592,-0.273621,-20.760253
11.185,2.0,1.0,1.0,33.0,33.5,33.5,1.5,2.0,2.72,0.3605207423150526,-0.09342973849256266,0.8983850735250498,0.0111325561049196,-0.282275,-20.529071
11.185,2.0,1.0,1.0,33.0,33.5,33.5,1.5,2.0,2.7225,0.34890353803858176,-0.09612889009483551,0.9018731170877852,0.010124327832575655,-0.291379,-20.295013
11.185,2.0,1.0,1.0,33.0,33.5,33.5,1.5,2.0,2.725,0.33706720891206854,-0.09892303205874547,0.9052253944904964,0.009031541793472615,-0.300963,-20.058001
11.185,2.0,1.0,1.0,33.0,33.5,33.5,1.5,2.0,2.7275,0.3250060584704478,-0.10181601820105113,0.908433142610721,0.007847551830604546,-0.311064,-19.817954
11.185,2.0,1.0,1.0,33.0,33.5,33.5,1.5,2.0,2.73,0.31271422547178546,-0.10481183684943543,0.9114869301581116,0.006565124970624473,-0.32172,-19.574787
11.185,2.0,1.0,1.0,33.0,33.5,33.5,1.5,2.0,2.7325,0.3001856877880647,-0.10791460669661232,0.9143765956135734,0.005176382801156501,-0.332971,-19.328414
11.185,2.0,1.0,1.0,33.0,33.5,33.5,1.5,2.0,2.735,0.2874142688109494,-0.1111285701560817,0.9170911785226348,0.0036727363736992133,-0.344864,-19.078744
11.185,2.0,1.0,1.0,33.0,33.5,33.5,1.5,2.0,2.7375,0.27439364697629687,-0.11445808361730839,0.9196188433722119,0.0020448138725978828,-0.357448,-18.825685
11.185,2.0,1.0,1.0,33.0,33.5,33.5,1.5,2.0,2.74,0.26111736914188677,-0.11790760386756466,0.9219467951909124,0.0002823802026984777,-0.370778,-18.569139
11.185,2.0,1.0,1.0,33.0,33.5,33.5,1.5,2.0,2.7425,0.24757886871159554,-0.12148166978904008,0.9240611859158293,-0.0016257524476345582,-0.384914,-18.309007
11.185,2.0,1.0,1.0,33.0,33.5,33.5,1.5,2.0,2.745,0.233771489592449,-0.12518487824686045,0.9259470104635983,-0.003691824115149925,-0.399923,-18.045187
11.185,2.0,1.0,1.0,33.0,33.5,33.5,1.5,2.0,2.7475,0.21968851730598207,-0.12902185284888948,0.9275879913311028,-0.005929237799717638,-0.415878,-17.777572
11.185,2.0,1.0,1.0,33.0,33.5,33.5,1.5,2.0,2.75,0.205323218861445,-0.132997203972428,0.928966450433113,-0.0083526827055768,-0.43286,-17.506054
11.185,2.0,1.0,1.0,33.0,33.5,33.5,1.5,2.0,2.7525,0.19066889334676598,-0.137115478105002,0.9300631667629705,-0.01097827137858462,-0.450959,-17.230519
11.185,2.0,1.0,1.0,33.0,33.5,33.5,1.5,2.0,2.755,0.17571893561745652,-0.14138109412275476,0.9308572183424633,-0.013823692249596337,-0.470273,-16.950851
11.185,2.0,1.0,1.0,33.0,33.5,33.5,1.5,2.0,2.7575,0.16046691598025403,-0.14579826361409007,0.9313258068146468,-0.01690837920342483,-0.490915,-16.666933
11.185,2.0,1.0,1.0,33.0,33.5,33.5,1.5,2.0,2.76,0.1449066793974668,-0.15037089172817936,0.9314440629382409,-0.02025369988437306,-0.513005,-16.378642
11.185,2.0,1.0,1.0,33.0,33.5,33.5,1.5,2.0,2.7625,0.1290324685033657,-0.1551024542639238,0.9311848311783221,-0.023883164509081116,-0.536683,-16.085854
11.185,2.0,1.0,1.0,33.0,33.5,33.5,1.5,2.0,2.765,0.11283907565459762,-0.15999584578625808,0.9305184315754438,-0.027822656965192556,-0.562102,-15.788442
11.185,2.0,1.0,1.0,33.0,33.5,33.5,1.5,2.0,2.7675,0.09632203036635013,-0.16505319242952202,0.929412397142214,-0.032100689901696754,-0.589433,-15.486279
11.185,2.0,1.0,1.0,33.0,33.5,33.5,1.5,2.0,2.77,0.07947782985464917,-0.17027562168239252,0.9278311852227186,-0.03674868532387962,-0.61887,-15.179235
11.185,2.0,1.0,1.0,33.0,33.5,33.5,1.5,2.0,2.7725,0.062304222058745744,-0.17566297979993623,0.9257358616110158,-0.04180128183725939,-0.650631,-14.867181
11.185,2.0,1.0,1.0,33.0,33.5,33.5,1.5,2.0,2.775,0.044800552507622785,-0.18121348550453253,0.9230837568365098,-0.047296669064359434,-0.68496,-14.549986
11.185,2.0,1.0,1.0,33.0,33.5,33.5,1.5,2.0,2.7775,0.026968188777272275,-0.18692330626302117,0.9198280949909028,-0.053276948781102895,-0.722135,-14.227524
11.185,2.0,1.0,1.0,33.0,33.5,33.5,1.5,2.0,2.78,0.008811039118660742,-0.19278604060536508,0.9159175969356659,-0.059788520843634896,-0.76247,-13.89967
11.185,2.0,1.0,1.0,33.0,33.5,33.5,1.5,2.0,2.7825,-0.00966381482601656,-0.1987920866272197,0.9112960618832701,-0.0668824898090432,-0.806322,-13.566306
11.185,2.0,1.0,1.0,33.0,33.5,33.5,1.5,2.0,2.785,-0.028445347418650877,-0.20492787295582493,0.9059019344478808,-0.07461508503661055,-0.854096,-13.227322
11.185,2.0,1.0,1.0,33.0,33.5,33.5,1.5,2.0,2.7875,-0.047517652293335266,-0.21117492404618682,0.8996678686556958,-0.08304808264639285,-0.906257,-12.882617
11.185,2.0,1.0,1.0,33.0,33.5,33.5,1.5,2.0,2.79,-0.06685880630964204,-0.21750872675971225,0.8925203065442102,-0.09224921155735036,-0.963335,-12.532105
11.185,2.0,1.0,1.0,33.0,33.5,33.5,1.5,2.0,2.7925,-0.08643949568540417,-0.22389735990444895,0.8843790974513607,-0.10229251734108077,-1.025939,-12.175719
11.185,2.0,1.0,1.0,33.0,33.5,33.5,1.5,2.0,2.795,-0.10622136041847846,-0.23029984308941753,0.8751571956505776,-0.11325864606095538,-1.094767,-11.813418
11.185,2.0,1.0,1.0,33.0,33.5,33.5,1.5,2.0,2.7975,-0.12615500820948047,-0.23666415642332178,0.8647604895627228,-0.12523499468701596,-1.170625,-11.445188
11.185,2.0,1.0,1.0,33.0,33.5,33.5,1.5,2.0,2.8,-0.1461776456333571,-0.24292487921935652,0.8530878365002152,-0.13831565396025844,-1.254447,-11.071059
11.185,2.0,1.0,1.0,33.0,33.5,33.5,1.5,2.0,2.8025,-0.1662102738059863,-0.24900039548622163,0.8400314040689001,-0.1526010424374235,-1.34731,-10.691107
11.185,2.0,1.0,1.0,33.0,33.5,33.5,1.5,2.0,2.805,-0.1861544006336071,-0.2547896189743954,0.825477454337788,-0.16819709552242917,-1.450467,-10.305468
11.185,2.0,1.0,1.0,33.0,33.5,33.5,1.5,2.0,2.8075,-0.20588823549636234,-0.2601682044858171,0.8093077509106085,-0.18521382937502778,-1.565374,-9.914354
11.185,2.0,1.0,1.0,33.0,33.5,33.5,1.5,2.0,2.81,-0.22526236010182407,-0.2649842402404097,0.7914018227543499,-0.2037630460457687,-1.693729,-9.518068
11.185,2.0,1.0,1.0,33.0,33.5,33.5,1.5,2.0,2.8125,-0.24409491852345,-0.269053465586273,0.771640381398267,-0.223954883709638,-1.837513,-9.117024
11.185,2.0,1.0,1.0,33.0,33.5,33.5,1.5,2.0,2.815,-0.262166449824067,-0.27215413892810575,0.7499102566851072,-0.24589284772337688,-1.999041,-8.711771
11.185,2.0,1.0,1.0,33.0,33.5,33.5,1.5,2.0,2.8175,-0.2792146103228018,-0.27402180455043856,0.7261112829068815,-0.26966689218399753,-2.181022,-8.303015
11.185,2.0,1.0,1.0,33.0,33.5,33.5,1.5,2.0,2.82,-0.29492921330965605,-0.27434438776199405,0.7001656168786567,-0.29534407277125085,-2.386623,-7.891654
11.185,2.0,1.0,1.0,33.0,33.5,33.5,1.5,2.0,2.8225,-0.3089482648601906,-0.27275829837440524,0.6720299763860462,-0.3229562858490529,-2.619545,-7.478807
11.185,2.0,1.0,1.0,33.0,33.5,33.5,1.5,2.0,2.825,-0.3208560022931592,-0.26884654970906546,0.6417112107149583,-0.3524846868318353,-2.884105,-7.065846
11.185,2.0,1.0,1.0,33.0,33.5,33.5,1.5,2.0,2.8275,-0.3301843380026425,-0.2621402951171401,0.6092853961404562,-0.38384060107959156,-3.185323,-6.654434
11.185,2.0,1.0,1.0,33.0,33.5,33.5,1.5,2.0,2.83,-0.33641953625992743,-0.25212560650259397,0.5749202134419824,-0.4168431776848281,-3.528995,-6.246555
