1,w,sub_t,h,l1,l2,l3,g1,g2,Freq,S11_re,S21_re,S11_img,S21_img,S11_dB,S21_dB
11.185,2.0,1.0,1.0,33.4,34.7,34.7,2.3,4.4,2.5,0.853375007872308,-0.00775634436719625,0.507512924987178,0.00599979956523424,-0.062031,-40.170124
11.185,2.0,1.0,1.0,33.4,34.7,34.7,2.3,4.4,2.5025,0.8499114888936072,-0.007929260902985583,0.5131384356465453,0.006037121337137331,-0.062726,-40.029632
11.185,2.0,1.0,1.0,33.4,34.7,34.7,2.3,4.4,2.505,0.8463937546460375,-0.008106084313381357,0.5187649939636024,0.006074053987605477,-0.063436,-39.888411
11.185,2.0,1.0,1.0,33.4,34.7,34.7,2.3,4.4,2.5075,0.8428211709293709,-0.00828692953027598,0.5243923946989786,0.006110569025453141,-0.064161,-39.746439
11.185,2.0,1.0,1.0,33.4,34.7,34.7,2.3,4.4,2.51,0.8391930895465529,-0.008471916056969885,0.5300204254023076,0.006146636414603706,-0.064903,-39.603698
11.185,2.0,1.0,1.0,33.4,34.7,34.7,2.3,4.4,2.5125,0.8355088478714382,-0.00866116819760275,0.5356488661206708,0.006182224479342833,-0.065661,-39.460165
11.185,2.0,1.0,1.0,33.4,34.7,34.7,2.3,4.4,2.515,0.8317677683970826,-0.008854815300517495,0.5412774890933602,0.00621729980285939,-0.066436,-39.315819
11.185,2.0,1.0,1.0,33.4,34.7,34.7,2.3,4.4,2.5175,0.8279691582634126,-0.009052992016550647,0.5469060584321157,0.006251827118526529,-0.067229,-39.170639
11.185,2.0,1.0,1.0,33.4,34.7,34.7,2.3,4.4,2.52,0.8241123087629686,-0.009255838573325197,0.5525343297859635,0.006285769193323758,-0.06804,-39.0246
11.185,2.0,1.0,1.0,33.4,34.7,34.7,2.3,4.4,2.5225,0.820196494823343,-0.009463501066709401,0.5581620499896665,0.006319086702744955,-0.06887,-38.877681
11.185,2.0,1.0,1.0,33.4,34.7,34.7,2.3,4.4,2.525,0.8162209744648126,-0.009676131770704272,0.5637889566947726,0.00635173809647582,-0.069719,-38.729856
11.185,2.0,1.0,1.0,33.4,34.7,34.7,2.3,4.4,2.5275,0.8121849882315422,-0.009893889467127513,0.5694147779821289,0.006383679454054693,-0.070589,-38.581102
11.185,2.0,1.0,1.0,33.4,34.7,34.7,2.3,4.4,2.53,0.8080877585946242,-0.010116939796578819,0.5750392319546331,0.006414864329654545,-0.071479,-38.431392
11.185,2.0,1.0,1.0,33.4,34.7,34.7,2.3,4.4,2.5325,0.803928489325055,-0.010345455632299395,0.5806620263089189,0.006445243585040453,-0.072391,-38.2807
11.185,2.0,1.0,1.0,33.4,34.7,34.7,2.3,4.4,2.535,0.7997063648346069,-0.010579617478679047,0.5862828578845426,0.0064747652096620815,-0.073326,-38.129
11.185,2.0,1.0,1.0,33.4,34.7,34.7,2.3,4.4,2.5375,0.7954205494823826,-0.010819613896317578,0.5919014121890996,0.006503374126737127,-0.074283,-37.976263
11.185,2.0,1.0,1.0,33.4,34.7,34.7,2.3,4.4,2.54,0.7910701868446447,-0.011065641955717681,0.5975173628975997,0.006531011984065902,-0.075264,-37.822462
11.185,2.0,1.0,1.0,33.4,34.7,34.7,2.3,4.4,2.5425,0.7866543989453156,-0.011317907721872272,0.603130371324243,0.006557616928188042,-0.07627,-37.667567
11.185,2.0,1.0,1.0,33.4,34.7,34.7,2.3,4.4,2.545,0.7821722854443101,-0.011576626772214573,0.6087400858645949,0.006583123360348261,-0.077302,-37.511546
11.185,2.0,1.0,1.0,33.4,34.7,34.7,2.3,4.4,2.5475,0.7776229227806255,-0.011842024750625879,0.6143461414059442,0.006607461672577955,-0.078361,-37.354369
11.185,2.0,1.0,1.0,33.4,34.7,34.7,2.3,4.4,2.55,0.7730053632668207,-0.012114337960445842,0.6199481587034686,0.006630557962019558,-0.079447,-37.196004
11.185,2.0,1.0,1.0,33.4,34.7,34.7,2.3,4.4,2.5525,0.7683186341312453,-0.012393813999705352,0.6255457437195415,0.006652333721419293,-0.080562,-37.036416
11.185,2.0,1.0,1.0,33.4,34.7,34.7,2.3,4.4,2.555,0.7635617365040103,-0.012680712442108336,0.6311384869233078,0.00667270550349003,-0.081706,-36.875572
11.185,2.0,1.0,1.0,33.4,34.7,34.7,2.3,4.4,2.5575,0.7587336443423498,-0.012975305567626029,0.6367259625473509,0.006691584556591419,-0.082882,-36.713435
11.185,2.0,1.0,1.0,33.4,34.7,34.7,2.3,4.4,2.56,0.7538333032906149,-0.013277879146941427,0.6423077277979456,0.006708876428892504,-0.08409,-36.549968
11.185,2.0,1.0,1.0,33.4,34.7,34.7,2.3,4.4,2.5625,0.748859629469674,-0.0135887332843976,0.647883322015045,0.00672448053786104,-0.085331,-36.385133
11.185,2.0,1.0,1.0,33.4,34.7,34.7,2.3,4.4,2.565,0.7438115081900109,-0.01390818332456451,0.653452265777753,0.006738289701564395,-0.086607,-36.218891
11.185,2.0,1.0,1.0,33.4,34.7,34.7,2.3,4.4,2.5675,0.7386877925822566,-0.014236560828051548,0.6590140599505633,0.006750189627862007,-0.08792,-36.0512
11.185,2.0,1.0,1.0,33.4,34.7,34.7,2.3,4.4,2.57,0.7334873021382626,-0.01457421462276491,0.6645681846651623,0.006760058357107605,-0.089271,-35.882017
11.185,2.0,1.0,1.0,33.4,34.7,34.7,2.3,4.4,2.5725,0.72820882115515,-0.014921511937444232,0.6701140982320087,0.006767765653463467,-0.090661,-35.711298
11.185,2.0,1.0,1.0,33.4,34.7,34.7,2.3,4.4,2.575,0.7228510970740035,-0.01527883962502376,0.6756512359752651,0.006773172339338261,-0.092092,-35.538998
11.185,2.0,1.0,1.0,33.4,34.7,34.7,2.3,4.4,2.5775,0.7174128387040257,-0.015646605484156095,0.6811790089839178,0.006776129566792127,-0.093566,-35.365069
11.185,2.0,1.0,1.0,33.4,34.7,34.7,2.3,4.4,2.58,0.7118927143220202,-0.016025239688123995,0.6866968027711139,0.006776478018993422,-0.095085,-35.18946
11.185,2.0,1.0,1.0,33.4,34.7,34.7,2.3,4.4,2.5825,0.7062893496359988,-0.016415196331360137,0.6922039758327914,0.006774047033946969,-0.096651,-35.012121
11.185,2.0,1.0,1.0,33.4,34.7,34.7,2.3,4.4,2.585,0.7006013256005358,-0.016816955104908392,0.6976998580956261,0.006768653641723131,-0.098267,-34.832999
11.185,2.0,1.0,1.0,33.4,34.7,34.7,2.3,4.4,2.5875,0.6948271760701353,-0.017231023113412743,0.7031837492431028,0.006760101505293989,-0.099933,-34.652036
11.185,2.0,1.0,1.0,33.4,34.7,34.7,2.3,4.4,2.59,0.6889653852754026,-0.01765793684762648,0.708654916907129,0.006748179753785736,-0.101654,-34.469176
11.185,2.0,1.0,1.0,33.4,34.7,34.7,2.3,4.4,2.5925,0.6830143851050964,-0.01809826432802017,0.7141125947110459,0.006732661695478959,-0.103431,-34.284357
11.185,2.0,1.0,1.0,33.4,34.7,34.7,2.3,4.4,2.595,0.6769725521752777,-0.01855260743685196,0.719555980148048,0.006713303396181999,-0.105268,-34.097516
11.185,2.0,1.0,1.0,33.4,34.7,34.7,2.3,4.4,2.5975,0.6708382046645889,-0.01902160445808396,0.7249842322769838,0.006689842106645301,-0.107166,-33.908589
11.185,2.0,1.0,1.0,33.4,34.7,34.7,2.3,4.4,2.6,0.6646095988923097,-0.019505932846807645,0.7303964692150784,0.006661994520418777,-0.10913,-33.717505
11.185,2.0,1.0,1.0,33.4,34.7,34.7,2.3,4.4,2.6025,0.6582849256131004,-0.02000631225242575,0.7357917654043715,0.006629454840942766,-0.111163,-33.524193
11.185,2.0,1.0,1.0,33.4,34.7,34.7,2.3,4.4,2.605,0.6518623059992179,-0.020523507822768933,0.7411691486254843,0.006591892633628462,-0.113268,-33.328578
11.185,2.0,1.0,1.0,33.4,34.7,34.7,2.3,4.4,2.6075,0.6453397872775161,-0.021058333819652157,0.7465275967286095,0.006548950435169771,-0.11545,-33.130581
11.185,2.0,1.0,1.0,33.4,34.7,34.7,2.3,4.4,2.61,0.6387153379845173,-0.0216116575801621,0.7518660340473431,0.0065002410882309125,-0.117712,-32.930119
11.185,2.0,1.0,1.0,33.4,34.7,34.7,2.3,4.4,2.6125,0.631986842798311,-0.022184403862280423,0.7571833274559694,0.006445344764881067,-0.120059,-32.727107
11.185,2.0,1.0,1.0,33.4,34.7,34.7,2.3,4.4,2.615,0.6251520969008465,-0.02277755961836819,0.7624782820249879,0.006383805636562718,-0.122496,-32.521454
11.185,2.0,1.0,1.0,33.4,34.7,34.7,2.3,4.4,2.6175,0.6182087998182859,-0.023392179245661185,0.7677496362228363,0.006315128141838517,-0.125028,-32.313065
11.185,2.0,1.0,1.0,33.4,34.7,34.7,2.3,4.4,2.62,0.6111545486802986,-0.024029390369363954,0.7729960566037702,0.006238772795471284,-0.127661,-32.10184
11.185,2.0,1.0,1.0,33.4,34.7,34.7,2.3,4.4,2.6225,0.6039868308314362,-0.024690400221311345,0.7782161319124529,0.006154151473338501,-0.130401,-31.887673
11.185,2.0,1.0,1.0,33.4,34.7,34.7,2.3,4.4,2.625,0.596703015718849,-0.025376502685639,0.783408366524683,0.00606062209698196,-0.133254,-31.670455
11.185,2.0,1.0,1.0,33.4,34.7,34.7,2.3,4.4,2.6275,0.5893003459703507,-0.026089086092654274,0.7885711731305928,0.005957482628925973,-0.136227,-31.450069
11.185,2.0,1.0,1.0,33.4,34.7,34.7,2.3,4.4,2.63,0.5817759275651081,-0.026829641853322397,0.7937028645510457,0.005843964274846257,-0.139329,-31.226393
11.185,2.0,1.0,1.0,33.4,34.7,34.7,2.3,4.4,2.6325,0.5741267189856468,-0.0275997740397357,0.7988016445594355,0.005719223770744431,-0.142568,-30.999296
11.185,2.0,1.0,1.0,33.4,34.7,34.7,2.3,4.4,2.635,0.566349519224211,-0.028401210031896672,0.8038655975589705,0.005582334611857469,-0.145952,-30.768642
11.185,2.0,1.0,1.0,33.4,34.7,34.7,2.3,4.4,2.6375,0.5584409544983991,-0.02923581236845747,0.8088926769390218,0.005432277054354246,-0.149493,-30.534287
11.185,2.0,1.0,1.0,33.4,34.7,34.7,2.3,4.4,2.64,0.5503974635100051,-0.030105591959119,0.8138806919023,0.005267926689983985,-0.153201,-30.296077
11.185,2.0,1.0,1.0,33.4,34.7,34.7,2.3,4.4,2.6425,0.54221528105669,-0.031012722839659546,0.8188272925162353,0.0050880413565791306,-0.157088,-30.05385
11.185,2.0,1.0,1.0,33.4,34.7,34.7,2.3,4.4,2.645,0.5338904197778308,-0.03195955867759086,0.8237299526955056,0.004891246102192596,-0.161167,-29.807434
11.185,2.0,1.0,1.0,33.4,34.7,34.7,2.3,4.4,2.6475,0.525418649783078,-0.0329486512678571,0.8285859507662794,0.004676015865812928,-0.165454,-29.556646
11.185,2.0,1.0,1.0,33.4,34.7,34.7,2.3,4.4,2.65,0.5167954758739159,-0.03398277129454953,0.8333923471940058,0.0044406554707187695,-0.169963,-29.301292
11.185,2.0,1.0,1.0,33.4,34.7,34.7,2.3,4.4,2.6525,0.5080161120240997,-0.03506493167715751,0.838145958972463,0.0041832764446405385,-0.174714,-29.041164
11.185,2.0,1.0,1.0,33.4,34.7,34.7,2.3,4.4,2.655,0.4990754527329841,-0.036198413869423504,0.8428433300684409,0.0039017700802092587,-0.179726,-28.776042
11.185,2.0,1.0,1.0,33.4,34.7,34.7,2.3,4.4,2.6575,0.48996804080552897,-0.03738679753652187,0.8474806971888899,0.0035937760248898605,-0.18502,-28.505691
11.185,2.0,1.0,1.0,33.4,34.7,34.7,2.3,4.4,2.66,0.48068803104258834,-0.03863399410333065,0.852053949979333,0.0032566455355032206,-0.190622,-28.229858
11.185,2.0,1.0,1.0,33.4,34.7,34.7,2.3,4.4,2.6625,0.4712291492436407,-0.039944284744386556,0.8565585845655737,0.0028873983405505563,-0.196559,-27.948273
11.185,2.0,1.0,1.0,33.4,34.7,34.7,2.3,4.4,2.665,0.4615846458296988,-0.04132236347620405,0.8609896491046737,0.0024826718134819607,-0.202862,-27.660649
11.185,2.0,1.0,1.0,33.4,34.7,34.7,2.3,4.4,2.6675,0.4517472432852426,-0.042773386116463794,0.8653416797018793,0.0020386608582705396,-0.209564,-27.366673
11.185,2.0,1.0,1.0,33.4,34.7,34.7,2.3,4.4,2.67,0.4417090764930252,-0.044303025993503685,0.8696086246595647,0.0015510465273974989,-0.216706,-27.066012
11.185,2.0,1.0,1.0,33.4,34.7,34.7,2.3,4.4,2.6725,0.4314616248934954,-0.04591753742447809,0.8737837545282909,0.0010149109082321498,-0.224331,-26.758307
11.185,2.0,1.0,1.0,33.4,34.7,34.7,2.3,4.4,2.675,0.4209956352410684,-0.04762382813157476,0.8778595547969705,0.00042463519575642596,-0.232491,-26.443169
11.185,2.0,1.0,1.0,33.4,34.7,34.7,2.3,4.4,2.6775,0.41030103355378233,-0.04942954193123752,0.881827597246513,-0.00022622292377130038,-0.241241,-26.120177
11.185,2.0,1.0,1.0,33.4,34.7,34.7,2.3,4.4,2.68,0.3993668246652482,-0.051343153207026634,0.8856783849422208,-0.0009450774778310629,-0.250648,-25.788878
11.185,2.0,1.0,1.0,33.4,34.7,34.7,2.3,4.4,2.6825,0.38818097759719083,-0.05337407485325753,0.8894011644777751,-0.0017404942310288894,-0.260787,-25.448777
11.185,2.0,1.0,1.0,33.4,34.7,34.7,2.3,4.4,2.685,0.3767302947944885,-0.055532781536407956,0.8929836973035232,-0.002622410494329941,-0.271746,-25.099338
11.185,2.0,1.0,1.0,33.4,34.7,34.7,2.3,4.4,2.6875,0.365000263133417,-0.0578309502333791,0.896411979631128,-0.00360240497228255,-0.283626,-24.739974
11.185,2.0,1.0,1.0,33.4,34.7,34.7,2.3,4.4,2.69,0.35297488458115117,-0.060281620016601006,0.8996698973092593,-0.004694030923306972,-0.296544,-24.370048
11.185,2.0,1.0,1.0,33.4,34.7,34.7,2.3,4.4,2.6925,0.34063648454104545,-0.06289937287550007,0.9027387979392153,-0.005913229934006221,-0.310641,-23.988859
11.185,2.0,1.0,1.0,33.4,34.7,34.7,2.3,4.4,2.695,0.32796549641562434,-0.0657005368413911,0.9055969569671256,-0.007278849005495812,-0.326078,-23.595641
11.185,2.0,1.0,1.0,33.4,34.7,34.7,2.3,4.4,2.6975,0.3149402220098968,-0.06870341156842392,0.9082189070219205,-0.008813290932868506,-0.34305,-23.189549
11.185,2.0,1.0,1.0,33.4,34.7,34.7,2.3,4.4,2.7,0.30153656950156704,-0.07192851440210159,0.9105745896220825,-0.010543337851406893,-0.361789,-22.769654
11.185,2.0,1.0,1.0,33.4,34.7,34.7,2.3,4.4,2.7025,0.2877277745197317,-0.07539884115065308,0.9126282745011045,-0.012501201344533423,-0.382574,-22.334931
11.185,2.0,1.0,1.0,33.4,34.7,34.7,2.3,4.4,2.705,0.27348411656520194,-0.07914012911569941,0.914337172720384,-0.014725871097804216,-0.405741,-21.884242
11.185,2.0,1.0,1.0,33.4,34.7,34.7,2.3,4.4,2.7075,0.25877265452815384,-0.0831810985147948,0.9156496433592644,-0.017264859769215414,-0.431703,-21.41633
11.185,2.0,1.0,1.0,33.4,34.7,34.7,2.3,4.4,2.71,0.24355702471346777,-0.08755362899693075,0.9165028569630622,-0.020176477371367667,-0.460966,-20.929797
11.185,2.0,1.0,1.0,33.4,34.7,34.7,2.3,4.4,2.7125,0.22779737818719892,-0.09229279500162871,0.9168197280321491,-0.02353281795439255,-0.494161,-20.423088
11.185,2.0,1.0,1.0,33.4,34.7,34.7,2.3,4.4,2.715,0.21145059104478642,-0.09743662779708069,0.9165048581797397,-0.02742371002013565,-0.532077,-19.894475
11.185,2.0,1.0,1.0,33.4,34.7,34.7,2.3,4.4,2.7175,0.19447097804264685,-0.1030253768272703,0.9154391341972528,-0.03196197659519899,-0.575714,-19.342039
11.185,2.0,1.0,1.0,33.4,34.7,34.7,2.3,4.4,2.72,0.17681190599861443,-0.1090998800608571,0.9134724932701482,-0.037290478748784994,-0.626354,-18.763651
11.185,2.0,1.0,1.0,33.4,34.7,34.7,2.3,4.4,2.7225,0.15842898946916412,-0.1156983725003417,0.9104141948837594,-0.04359158319495934,-0.685656,-18.156965
11.185,2.0,1.0,1.0,33.4,34.7,34.7,2.3,4.4,2.725,0.1392860472817133,-0.12285057616825545,0.9060197293637272,-0.05109989617032634,-0.755799,-17.519418
11.185,2.0,1.0,1.0,33.4,34.7,34.7,2.3,4.4,2.7275,0.11936586228798478,-0.1305670698937966,0.8999732822159068,-0.060119306150805234,-0.839673,-16.848257
11.185,2.0,1.0,1.0,33.4,34.7,34.7,2.3,4.4,2.73,0.0986892913912811,-0.13882046705483703,0.8918645850363766,-0.07104545474027917,-0.941167,-16.140618
11.185,2.0,1.0,1.0,33.4,34.7,34.7,2.3,4.4,2.7325,0.0773488745160133,-0.14751239091749366,0.8811593667690745,-0.08439436445626876,-1.065575,-15.39368
11.185,2.0,1.0,1.0,33.4,34.7,34.7,2.3,4.4,2.735,0.055567486204697446,-0.1564159558829819,0.8671643753805945,-0.10083620888656389,-1.220175,-14.604987
11.185,2.0,1.0,1.0,33.4,34.7,34.7,2.3,4.4,2.7375,0.0337995881785669,-0.1650766458647762,0.8489932685317504,-0.12122796194503369,-1.415037,-13.773041
11.185,2.0,1.0,1.0,33.4,34.7,34.7,2.3,4.4,2.74,0.012902348962680686,-0.1726450885554347,0.8255536153682106,-0.14662498323536205,-1.664034,-12.898385
11.185,2.0,1.0,1.0,33.4,34.7,34.7,2.3,4.4,2.7425,-0.005587974597696492,-0.17760749549286167,0.7956082686299414,-0.17821929903279818,-1.9858,-11.985514
11.185,2.0,1.0,1.0,33.4,34.7,34.7,2.3,4.4,2.745,-0.01905248807486973,-0.1773931523207609,0.7580336592091875,-0.21708475098196572,-2.403488,-11.046099
11.185,2.0,1.0,1.0,33.4,34.7,34.7,2.3,4.4,2.7475,-0.023335693405189914,-0.16793542431212014,0.7125125755704271,-0.26349749225621366,-2.939493,-10.104023
11.185,2.0,1.0,1.0,33.4,34.7,34.7,2.3,4.4,2.75,-0.0126414808417119,-0.143579299092722,0.660979136741566,-0.315524098757643,-3.594657,-9.202022
11.185,2.0,1.0,1.0,33.4,34.7,34.7,2.3,4.4,2.7525,0.01917120424994522,-0.09836036640634177,0.6097797241987715,-0.3669193360884648,-4.29225,-8.407199
11.185,2.0,1.0,1.0,33.4,34.7,34.7,2.3,4.4,2.755,0.07454064475164322,-0.02996567614197925,0.5709327937497978,-0.40592130540598304,-4.794895,-7.80756
11.185,2.0,1.0,1.0,33.4,34.7,34.7,2.3,4.4,2.7575,0.14652321325019696,0.054741939190708,0.5586684146647104,-0.4186664492817422,-4.768007,-7.489016
11.185,2.0,1.0,1.0,33.4,34.7,34.7,2.3,4.4,2.76,0.21816204879183634,0.13916565971666525,0.5801089920033251,-0.3982943047491653,-4.155318,-7.495667
11.185,2.0,1.0,1.0,33.4,34.7,34.7,2.3,4.4,2.7625,0.27180631648150094,0.20611579165477883,0.6288066086060599,-0.35120060703749134,-3.285713,-7.803485
11.185,2.0,1.0,1.0,33.4,34.7,34.7,2.3,4.4,2.765,0.29956231366308034,0.24798411662307873,0.689896634077285,-0.29193957912651514,-2.474177,-8.334964
11.185,2.0,1.0,1.0,33.4,34.7,34.7,2.3,4.4,2.7675,0.30395140951365557,0.2673242504579623,0.7501783764851041,-0.23337514880549534,-1.836566,-8.998839
11.185,2.0,1.0,1.0,33.4,34.7,34.7,2.3,4.4,2.77,0.2919427603481578,0.2709959651946379,0.8026693897137245,-0.18226979146261713,-1.369695,-9.71994
11.185,2.0,1.0,1.0,33.4,34.7,34.7,2.3,4.4,2.7725,0.2701528766994395,0.2654839845862844,0.8454654925147508,-0.14042724207990778,-1.035871,-10.44786
11.185,2.0,1.0,1.0,33.4,34.7,34.7,2.3,4.4,2.775,0.24323359658301175,0.25533906879221446,0.8792281957746522,-0.1071561760338142,-0.797698,-11.153151
11.185,2.0,1.0,1.0,33.4,34.7,34.7,2.3,4.4,2.7775,0.2140056676093613,0.24331912423927668,0.9054612933510412,-0.0809524488573735,-0.626534,-11.820547
11.185,2.0,1.0,1.0,33.4,34.7,34.7,2.3,4.4,2.78,0.1840298540283134,0.2309520191259176,0.9257049251597558,-0.060282564238796806,-0.502215,-12.443323
11.185,2.0,1.0,1.0,33.4,34.7,34.7,2.3,4.4,2.7825,0.15410378123059412,0.21902262666564776,0.9412592649112939,-0.04385029181169925,-0.410937,-13.019538
11.185,2.0,1.0,1.0,33.4,34.7,34.7,2.3,4.4,2.785,0.12459224677611812,0.20789580300447896,0.9531391937938999,-0.0306386713868721,-0.343292,-13.549769
11.185,2.0,1.0,1.0,33.4,34.7,34.7,2.3,4.4,2.7875,0.09562453701510318,0.19770898255353384,0.9621089849797924,-0.01987465040613869,-0.292823,-14.035806
11.185,2.0,1.0,1.0,33.4,34.7,34.7,2.3,4.4,2.79,0.06720644959594194,0.18848136410600375,0.9687344574263096,-0.01097714040337084,-0.255053,-14.479926
11.185,2.0,1.0,1.0,33.4,34.7,34.7,2.3,4.4,2.7925,0.03928214621605336,0.18017412823537776,0.9734308241067421,-0.003509536478762259,-0.226832,-14.884504
11.185,2.0,1.0,1.0,33.4,34.7,34.7,2.3,4.4,2.795,0.01176762103819472,0.17272299775044028,0.9765007669514308,0.0028581037333888287,-0.205918,-15.251808
11.185,2.0,1.0,1.0,33.4,34.7,34.7,2.3,4.4,2.7975,-0.015431598292692417,0.1660554623991238,0.9781629725622577,0.008377540119797503,-0.190695,-15.583897
11.185,2.0,1.0,1.0,33.4,34.7,34.7,2.3,4.4,2.8,-0.04241142310213859,0.16009958430539403,0.9785729145464408,0.013243292153525914,-0.179986,-15.882581
11.185,2.0,1.0,1.0,33.4,34.7,34.7,2.3,4.4,2.8025,-0.06926490886558125,0.15478821925437575,0.9778377597018854,0.01760791925442241,-0.172927,-16.149404
11.185,2.0,1.0,1.0,33.4,34.7,34.7,2.3,4.4,2.805,-0.09608051264699669,0.15006077023395326,0.9760269448822466,0.021593186498760304,-0.168881,-16.385649
11.185,2.0,1.0,1.0,33.4,34.7,34.7,2.3,4.4,2.8075,-0.12294169699781271,0.1458636379684893,0.9731795870679573,0.025298286828365157,-0.167377,-16.592347
11.185,2.0,1.0,1.0,33.4,34.7,34.7,2.3,4.4,2.81,-0.1499272130647517,0.1421500062300984,0.9693095615863311,0.02880597455152727,-0.168072,-16.770284
11.185,2.0,1.0,1.0,33.4,34.7,34.7,2.3,4.4,2.8125,-0.177111692802565,0.138879306778285,0.964408831223788,0.0321872255676399,-0.17072,-16.920019
11.185,2.0,1.0,1.0,33.4,34.7,34.7,2.3,4.4,2.815,-0.20456634302173438,0.13601654474206312,0.9584494220840608,0.03550486743198832,-0.17515,-17.04189
11.185,2.0,1.0,1.0,33.4,34.7,34.7,2.3,4.4,2.8175,-0.2323596210980826,0.13353157214812836,0.951384304412331,0.03881650176855487,-0.181257,-17.136019
11.185,2.0,1.0,1.0,33.4,34.7,34.7,2.3,4.4,2.82,-0.26055781535782013,0.1313983428540334,0.9431473334608746,0.04217695892677118,-0.188987,-17.202322
11.185,2.0,1.0,1.0,33.4,34.7,34.7,2.3,4.4,2.8225,-0.28922546933299964,0.1295941480466267,0.9336523249834394,0.045640469659327096,-0.198338,-17.24051
11.185,2.0,1.0,1.0,33.4,34.7,34.7,2.3,4.4,2.825,-0.3184255865552109,0.1280988068513604,0.922791273003036,0.04926270347741117,-0.209351,-17.250086
11.185,2.0,1.0,1.0,33.4,34.7,34.7,2.3,4.4,2.8275,-0.34821953424452184,0.12689376441358957,0.9104316570443489,0.053102803081662,-0.222112,-17.230345
11.185,2.0,1.0,1.0,33.4,34.7,34.7,2.3,4.4,2.83,-0.37866652916100757,0.12596102463313502,0.8964127264102366,0.057225535422533655,-0.236756,-17.180367
