1,w,sub_t,h,l1,l2,l3,g1,g2,Freq,S11_re,S21_re,S11_img,S21_img,S11_dB,S21_dB
11.185,2.0,1.0,1.0,33.6,34.0,34.0,3.7,2.9,2.5,0.836741853915083,-0.00686148869014821,0.535948490380396,0.00490458297253838,-0.055167,-41.479169
11.185,2.0,1.0,1.0,33.6,34.0,34.0,3.7,2.9,2.5025,0.8330786005999353,-0.006995109133293295,0.5415173265114115,0.004918619865605363,-0.05568,-41.359378
11.185,2.0,1.0,1.0,33.6,34.0,34.0,3.7,2.9,2.505,0.8293620753180614,-0.007131057187996463,0.5470838627025069,0.004931858101780536,-0.056203,-41.239254
11.185,2.0,1.0,1.0,33.6,34.0,34.0,3.7,2.9,2.5075,0.8255917601255379,-0.00726937976091331,0.5526478250482039,0.004944266269372493,-0.056734,-41.118787
11.185,2.0,1.0,1.0,33.6,34.0,34.0,3.7,2.9,2.51,0.8217671290950429,-0.007410124986817669,0.5582089315960055,0.004955811805804262,-0.057275,-40.997967
11.185,2.0,1.0,1.0,33.6,34.0,34.0,3.7,2.9,2.5125,0.8178876481928065,-0.007553342268630475,0.5637668920912402,0.00496646094999412,-0.057826,-40.876785
11.185,2.0,1.0,1.0,33.6,34.0,34.0,3.7,2.9,2.515,0.813952775153931,-0.007699082319036652,0.5693214077136013,0.004976178692480985,-0.058386,-40.755231
11.185,2.0,1.0,1.0,33.6,34.0,34.0,3.7,2.9,2.5175,0.8099619593560766,-0.007847397203764987,0.5748721708050559,0.004984928723171683,-0.058957,-40.633297
11.185,2.0,1.0,1.0,33.6,34.0,34.0,3.7,2.9,2.52,0.8059146416914917,-0.007998340386610993,0.5804188645888365,0.004992673376579133,-0.059538,-40.510971
11.185,2.0,1.0,1.0,33.6,34.0,34.0,3.7,2.9,2.5225,0.8018102544373912,-0.00815196677628583,0.5859611628791548,0.004999373574413106,-0.060129,-40.388244
11.185,2.0,1.0,1.0,33.6,34.0,34.0,3.7,2.9,2.525,0.797648221124659,-0.00830833277518095,0.5914987297813217,0.0050049887653756285,-0.060731,-40.265105
11.185,2.0,1.0,1.0,33.6,34.0,34.0,3.7,2.9,2.5275,0.7934279564048687,-0.008467496330141272,0.5970312193819083,0.0050094768620041474,-0.061344,-40.141545
11.185,2.0,1.0,1.0,33.6,34.0,34.0,3.7,2.9,2.53,0.7891488659156163,-0.008629516985346093,0.6025582754285652,0.005012794174395297,-0.061969,-40.017552
11.185,2.0,1.0,1.0,33.6,34.0,34.0,3.7,2.9,2.5325,0.7848103461441445,-0.008794455937402409,0.6080795309991218,0.005014895340631167,-0.062605,-39.893116
11.185,2.0,1.0,1.0,33.6,34.0,34.0,3.7,2.9,2.535,0.7804117842892545,-0.008962376092761196,0.6135946081595567,0.005015733253718684,-0.063253,-39.768226
11.185,2.0,1.0,1.0,33.6,34.0,34.0,3.7,2.9,2.5375,0.7759525581214898,-0.009133342127573467,0.6191031176104005,0.00501525898483953,-0.063914,-39.642871
11.185,2.0,1.0,1.0,33.6,34.0,34.0,3.7,2.9,2.54,0.7714320358415809,-0.009307420550110277,0.6246046583211424,0.005013421702695374,-0.064587,-39.51704
11.185,2.0,1.0,1.0,33.6,34.0,34.0,3.7,2.9,2.5425,0.7668495759371357,-0.009484679765877729,0.6300988171521604,0.0050101685887179725,-0.065273,-39.390721
11.185,2.0,1.0,1.0,33.6,34.0,34.0,3.7,2.9,2.545,0.762204527037559,-0.009665190145565754,0.6355851684636943,0.005005444747898819,-0.065972,-39.263902
11.185,2.0,1.0,1.0,33.6,34.0,34.0,3.7,2.9,2.5475,0.7574962277671977,-0.009849024095977927,0.6410632737113374,0.004999193114975459,-0.066684,-39.136572
11.185,2.0,1.0,1.0,33.6,34.0,34.0,3.7,2.9,2.55,0.7527240065966728,-0.010036256134098583,0.6465326810275274,0.004991354355694549,-0.067411,-39.008719
11.185,2.0,1.0,1.0,33.6,34.0,34.0,3.7,2.9,2.5525,0.7478871816924075,-0.010226962964462101,0.6519929247884468,0.004981866762850965,-0.068152,-38.880329
11.185,2.0,1.0,1.0,33.6,34.0,34.0,3.7,2.9,2.555,0.7429850607643078,-0.010421223560000584,0.6574435251657631,0.004970666146782736,-0.068907,-38.751392
11.185,2.0,1.0,1.0,33.6,34.0,34.0,3.7,2.9,2.5575,0.7380169409115844,-0.010619119246555857,0.6628839876625764,0.004957685719977603,-0.069677,-38.621892
11.185,2.0,1.0,1.0,33.6,34.0,34.0,3.7,2.9,2.56,0.7329821084666914,-0.010820733791253482,0.6683138026329148,0.004942855975423155,-0.070463,-38.491819
11.185,2.0,1.0,1.0,33.6,34.0,34.0,3.7,2.9,2.5625,0.727879838837353,-0.0110261534949491,0.673732444784095,0.00492610455830644,-0.071265,-38.361157
11.185,2.0,1.0,1.0,33.6,34.0,34.0,3.7,2.9,2.565,0.7227093963466426,-0.011235467288970312,0.6791393726612237,0.004907356130638862,-0.072083,-38.229894
11.185,2.0,1.0,1.0,33.6,34.0,34.0,3.7,2.9,2.5675,0.7174700340710921,-0.011448766836391094,0.6845340281130643,0.004886532228353264,-0.072918,-38.098015
11.185,2.0,1.0,1.0,33.6,34.0,34.0,3.7,2.9,2.57,0.7121609936767809,-0.011666146638091462,0.689915835738474,0.004863551110384657,-0.073771,-37.965507
11.185,2.0,1.0,1.0,33.6,34.0,34.0,3.7,2.9,2.5725,0.7067815052533662,-0.011887704143870454,0.695284202312554,0.004838327599210952,-0.074641,-37.832354
11.185,2.0,1.0,1.0,33.6,34.0,34.0,3.7,2.9,2.575,0.701330787146007,-0.012113539868898543,0.7006385161916138,0.0048107729122900626,-0.075529,-37.698542
11.185,2.0,1.0,1.0,33.6,34.0,34.0,3.7,2.9,2.5775,0.6958080457851253,-0.012343757515813125,0.705978146695998,0.004780794483786983,-0.076436,-37.564056
11.185,2.0,1.0,1.0,33.6,34.0,34.0,3.7,2.9,2.58,0.6902124755139458,-0.01257846410278135,0.7113024434697683,0.0047482957759387035,-0.077362,-37.428879
11.185,2.0,1.0,1.0,33.6,34.0,34.0,3.7,2.9,2.5825,0.6845432584137412,-0.01281777009787561,0.7166107358161786,0.004713176079353027,-0.078308,-37.292996
11.185,2.0,1.0,1.0,33.6,34.0,34.0,3.7,2.9,2.585,0.6787995641267076,-0.01306178956012931,0.7219023320078037,0.004675330301483817,-0.079275,-37.156391
11.185,2.0,1.0,1.0,33.6,34.0,34.0,3.7,2.9,2.5875,0.6729805496763799,-0.013310640287665567,0.7271765185701358,0.004634648742464635,-0.080263,-37.019046
11.185,2.0,1.0,1.0,33.6,34.0,34.0,3.7,2.9,2.59,0.6670853592854952,-0.013564443973317327,0.7324325595373568,0.004591016857417895,-0.081272,-36.880945
11.185,2.0,1.0,1.0,33.6,34.0,34.0,3.7,2.9,2.5925,0.6611131241911811,-0.013823326368185772,0.73766969567895,0.004544315004285838,-0.082304,-36.74207
11.185,2.0,1.0,1.0,33.6,34.0,34.0,3.7,2.9,2.595,0.6550629624573643,-0.014087417453613499,0.7428871436956856,0.004494418176152,-0.08336,-36.602403
11.185,2.0,1.0,1.0,33.6,34.0,34.0,3.7,2.9,2.5975,0.6489339787842392,-0.01435685162208248,0.748084095383467,0.004441195716937524,-0.084438,-36.461926
11.185,2.0,1.0,1.0,33.6,34.0,34.0,3.7,2.9,2.6,0.6427252643146519,-0.014631767867580843,0.75325971676338,0.004384511019264505,-0.085542,-36.320619
11.185,2.0,1.0,1.0,33.6,34.0,34.0,3.7,2.9,2.6025,0.6364358964372298,-0.01491230998601957,0.7584131471761986,0.004324221203177039,-0.086671,-36.178462
11.185,2.0,1.0,1.0,33.6,34.0,34.0,3.7,2.9,2.605,0.630064938586046,-0.015198626786322096,0.763543498339475,0.004260176774300821,-0.087826,-36.035437
11.185,2.0,1.0,1.0,33.6,34.0,34.0,3.7,2.9,2.6075,0.6236114400366147,-0.015490872312851314,0.7686498533652085,0.004192221259900727,-0.089008,-35.891522
11.185,2.0,1.0,1.0,33.6,34.0,34.0,3.7,2.9,2.61,0.6170744356979696,-0.015789206079885657,0.7737312657359415,0.0041201908211628705,-0.090218,-35.746696
11.185,2.0,1.0,1.0,33.6,34.0,34.0,3.7,2.9,2.6125,0.6104529459005511,-0.016093793318906698,0.7787867582369765,0.0040439138398827195,-0.091456,-35.600937
11.185,2.0,1.0,1.0,33.6,34.0,34.0,3.7,2.9,2.615,0.6037459761795984,-0.016404805239513418,0.7838153218422436,0.003963210477579654,-0.092725,-35.454224
11.185,2.0,1.0,1.0,33.6,34.0,34.0,3.7,2.9,2.6175,0.5969525170537165,-0.01672241930483678,0.7888159145511386,0.0038778922048838633,-0.094024,-35.306532
11.185,2.0,1.0,1.0,33.6,34.0,34.0,3.7,2.9,2.62,0.5900715437982386,-0.017046819522390434,0.7937874601734761,0.003787761298846693,-0.095355,-35.157839
11.185,2.0,1.0,1.0,33.6,34.0,34.0,3.7,2.9,2.6225,0.5831020162129603,-0.01737819675136065,0.79872884705945,0.0036926103056130364,-0.096719,-35.00812
11.185,2.0,1.0,1.0,33.6,34.0,34.0,3.7,2.9,2.625,0.576042878383804,-0.0177167490274097,0.803638926771258,0.00359222146565916,-0.098117,-34.857349
11.185,2.0,1.0,1.0,33.6,34.0,34.0,3.7,2.9,2.6275,0.5688930584378739,-0.018062681906145822,0.8085165126927797,0.0034863660985392127,-0.099551,-34.705501
11.185,2.0,1.0,1.0,33.6,34.0,34.0,3.7,2.9,2.63,0.5616514682913533,-0.018416208826495438,0.8133603785733856,0.0033748039437984777,-0.101021,-34.552549
11.185,2.0,1.0,1.0,33.6,34.0,34.0,3.7,2.9,2.6325,0.5543170033896055,-0.01877755149530241,0.818169257001634,0.0032572824543924714,-0.102529,-34.398466
11.185,2.0,1.0,1.0,33.6,34.0,34.0,3.7,2.9,2.635,0.5468885424387838,-0.019146940294576992,0.8229418378042394,0.003133536038601629,-0.104077,-34.243223
11.185,2.0,1.0,1.0,33.6,34.0,34.0,3.7,2.9,2.6375,0.539364947128191,-0.019524614712918924,0.8276767663652995,0.0030032852460415522,-0.105665,-34.08679
11.185,2.0,1.0,1.0,33.6,34.0,34.0,3.7,2.9,2.64,0.5317450618425201,-0.01991082380275168,0.832372641860324,0.0028662358929370836,-0.107295,-33.929138
11.185,2.0,1.0,1.0,33.6,34.0,34.0,3.7,2.9,2.6425,0.5240277133630621,-0.020305826665123067,0.8370280153991004,0.0027220781213495343,-0.10897,-33.770235
11.185,2.0,1.0,1.0,33.6,34.0,34.0,3.7,2.9,2.645,0.5162117105568361,-0.020709892963955746,0.8416413880709006,0.0025704853865127,-0.11069,-33.610048
11.185,2.0,1.0,1.0,33.6,34.0,34.0,3.7,2.9,2.6475,0.5082958440525215,-0.021123303471768464,0.8462112088849061,0.002411113365841076,-0.112458,-33.448544
11.185,2.0,1.0,1.0,33.6,34.0,34.0,3.7,2.9,2.65,0.5002788859019222,-0.02154635064903466,0.850735872598069,0.0022435987825099295,-0.114274,-33.285689
11.185,2.0,1.0,1.0,33.6,34.0,34.0,3.7,2.9,2.6525,0.492159589225635,-0.021979339259501667,0.8552137174218452,0.0020675581357715326,-0.116143,-33.121446
11.185,2.0,1.0,1.0,33.6,34.0,34.0,3.7,2.9,2.655,0.4839366878413846,-0.022422587023961958,0.859643022598421,0.0018825863293446266,-0.118064,-32.955779
11.185,2.0,1.0,1.0,33.6,34.0,34.0,3.7,2.9,2.6575,0.4756088958734114,-0.022876425315143414,0.8640220058360889,0.001688255188292892,-0.120042,-32.788648
11.185,2.0,1.0,1.0,33.6,34.0,34.0,3.7,2.9,2.66,0.46717490734110795,-0.023341199896576615,0.868348820592388,0.001484111853774159,-0.122077,-32.620014
11.185,2.0,1.0,1.0,33.6,34.0,34.0,3.7,2.9,2.6625,0.45863339572496264,-0.023817271708493837,0.8726215531924256,0.0012696770438830982,-0.124173,-32.449835
11.185,2.0,1.0,1.0,33.6,34.0,34.0,3.7,2.9,2.665,0.4499830135076613,-0.02430501770402923,0.8768382197684976,0.0010444431675072103,-0.126332,-32.278069
11.185,2.0,1.0,1.0,33.6,34.0,34.0,3.7,2.9,2.6675,0.441222391688064,-0.024804831739205356,0.8809967630056028,0.0008078722766532185,-0.128557,-32.10467
11.185,2.0,1.0,1.0,33.6,34.0,34.0,3.7,2.9,2.67,0.4323501392655286,-0.025317125520426868,0.8850950486757885,0.0005593938410502193,-0.130851,-31.929592
11.185,2.0,1.0,1.0,33.6,34.0,34.0,3.7,2.9,2.6725,0.42336484269187796,-0.025842329613439192,0.8891308619423711,0.0002984023269765265,-0.133216,-31.752788
11.185,2.0,1.0,1.0,33.6,34.0,34.0,3.7,2.9,2.675,0.4142650652881003,-0.02638089451795557,0.8931019034129316,2.42545601565323e-05,-0.135657,-31.574206
11.185,2.0,1.0,1.0,33.6,34.0,34.0,3.7,2.9,2.6775,0.40504934662264047,-0.026933291812408396,0.8970057849175759,-0.00026373314980247944,-0.138177,-31.393795
11.185,2.0,1.0,1.0,33.6,34.0,34.0,3.7,2.9,2.68,0.39571620184792927,-0.02750001537353007,0.9008400249862203,-0.0005662881486569631,-0.14078,-31.2115
11.185,2.0,1.0,1.0,33.6,34.0,34.0,3.7,2.9,2.6825,0.386264120991592,-0.028081582675716046,0.9046020439955439,-0.000884184868733464,-0.143469,-31.027265
11.185,2.0,1.0,1.0,33.6,34.0,34.0,3.7,2.9,2.685,0.3766915681985522,-0.02867853617535933,0.908289158952746,-0.0012182485838448602,-0.146248,-30.841031
11.185,2.0,1.0,1.0,33.6,34.0,34.0,3.7,2.9,2.6875,0.366996980920072,-0.0292914447855637,0.911898577879217,-0.00156935952361653,-0.149124,-30.652735
11.185,2.0,1.0,1.0,33.6,34.0,34.0,3.7,2.9,2.69,0.3571787690456079,-0.02992090544682765,0.9154273937526598,-0.0019384573874297144,-0.152099,-30.462315
11.185,2.0,1.0,1.0,33.6,34.0,34.0,3.7,2.9,2.6925,0.3472353139732129,-0.030567544799438545,0.9188725779609853,-0.0023265463033361484,-0.155181,-30.269703
11.185,2.0,1.0,1.0,33.6,34.0,34.0,3.7,2.9,2.695,0.33716496761420345,-0.03123202096338966,0.9222309732153089,-0.0027347002831847496,-0.158373,-30.074828
11.185,2.0,1.0,1.0,33.6,34.0,34.0,3.7,2.9,2.6975,0.32696605132775947,-0.031915025431631466,0.9254992858625457,-0.003164069231953513,-0.161682,-29.877618
11.185,2.0,1.0,1.0,33.6,34.0,34.0,3.7,2.9,2.7,0.31663685478132925,-0.03261728508233736,0.9286740775302115,-0.0036158855770271237,-0.165115,-29.677997
11.185,2.0,1.0,1.0,33.6,34.0,34.0,3.7,2.9,2.7025,0.30617563473292403,-0.03333956431558284,0.9317517560270088,-0.004091471592079061,-0.168679,-29.475882
11.185,2.0,1.0,1.0,33.6,34.0,34.0,3.7,2.9,2.705,0.29558061373193095,-0.034082667319342445,0.9347285654123262,-0.004592247500492416,-0.17238,-29.271192
11.185,2.0,1.0,1.0,33.6,34.0,34.0,3.7,2.9,2.7075,0.2848499787357659,-0.03484744046894293,0.9376005751357388,-0.005119740455123714,-0.176228,-29.063837
11.185,2.0,1.0,1.0,33.6,34.0,34.0,3.7,2.9,2.71,0.27398187964082604,-0.03563477486298545,0.9403636681336551,-0.005675594504946836,-0.18023,-28.853725
11.185,2.0,1.0,1.0,33.6,34.0,34.0,3.7,2.9,2.7125,0.2629744277277037,-0.0364456089971621,0.9430135277540819,-0.0062615816750401215,-0.184396,-28.640759
11.185,2.0,1.0,1.0,33.6,34.0,34.0,3.7,2.9,2.715,0.2518256940227928,-0.03728093157520291,0.9455456233616938,-0.006879614304883364,-0.188736,-28.424837
11.185,2.0,1.0,1.0,33.6,34.0,34.0,3.7,2.9,2.7175,0.2405337075812717,-0.0381417844532256,0.9479551944535197,-0.007531758811478692,-0.193261,-28.205852
11.185,2.0,1.0,1.0,33.6,34.0,34.0,3.7,2.9,2.72,0.22909645370035328,-0.039029265709796514,0.9502372330900077,-0.008220251068951516,-0.197984,-27.983691
11.185,2.0,1.0,1.0,33.6,34.0,34.0,3.7,2.9,2.7225,0.21751187207677372,-0.03994453282876471,0.9523864644163953,-0.008947513625696185,-0.202917,-27.758235
11.185,2.0,1.0,1.0,33.6,34.0,34.0,3.7,2.9,2.725,0.2057778549293364,-0.0408888059750198,0.9543973250142738,-0.009716175014595478,-0.208074,-27.529359
11.185,2.0,1.0,1.0,33.6,34.0,34.0,3.7,2.9,2.7275,0.19389224511610206,-0.04186337133429429,0.9562639387821299,-0.010529091452343356,-0.213471,-27.296931
11.185,2.0,1.0,1.0,33.6,34.0,34.0,3.7,2.9,2.73,0.18185283428750876,-0.042869584476338006,0.9579800899951947,-0.011389371271580604,-0.219125,-27.060811
11.185,2.0,1.0,1.0,33.6,34.0,34.0,3.7,2.9,2.7325,0.1696573611317147,-0.043908873685474546,0.9595391931377538,-0.012300402485845206,-0.225055,-26.820851
11.185,2.0,1.0,1.0,33.6,34.0,34.0,3.7,2.9,2.735,0.157303509788167,-0.044982743182646785,0.9609342590334179,-0.013265883953934217,-0.23128,-26.576897
11.185,2.0,1.0,1.0,33.6,34.0,34.0,3.7,2.9,2.7375,0.14478890853085444,-0.04609277613725436,0.9621578567185884,-0.014289860689264433,-0.237823,-26.328782
11.185,2.0,1.0,1.0,33.6,34.0,34.0,3.7,2.9,2.74,0.132111128855881,-0.04724063733361887,0.9632020704089368,-0.01537676395373216,-0.24471,-26.076333
11.185,2.0,1.0,1.0,33.6,34.0,34.0,3.7,2.9,2.7425,0.11926768515099044,-0.04842807531350915,0.9640584507949563,-0.016531456887502606,-0.251967,-25.819362
11.185,2.0,1.0,1.0,33.6,34.0,34.0,3.7,2.9,2.745,0.10625603518063657,-0.04965692375981333,0.9647179597667368,-0.01775928655988928,-0.259624,-25.557674
11.185,2.0,1.0,1.0,33.6,34.0,34.0,3.7,2.9,2.7475,0.09307358169298591,-0.05092910181322395,0.9651709075053185,-0.019066143486640114,-0.267716,-25.291059
11.185,2.0,1.0,1.0,33.6,34.0,34.0,3.7,2.9,2.75,0.0797176755500785,-0.0522466129184862,0.965406880682488,-0.0204585298512225,-0.27628,-25.019294
11.185,2.0,1.0,1.0,33.6,34.0,34.0,3.7,2.9,2.7525,0.06618562090627367,-0.053611541672440324,0.9654146602756634,-0.021943637899049337,-0.285358,-24.742142
11.185,2.0,1.0,1.0,33.6,34.0,34.0,3.7,2.9,2.755,0.05247468312221757,-0.055026047983570574,0.9651821272207438,-0.023529440252590274,-0.294996,-24.45935
11.185,2.0,1.0,1.0,33.6,34.0,34.0,3.7,2.9,2.7575,0.03858210031422167,-0.056492357639749476,0.9646961537828289,-0.025224794232478472,-0.305248,-24.170647
11.185,2.0,1.0,1.0,33.6,34.0,34.0,3.7,2.9,2.76,0.024505099718912012,-0.05801274810081714,0.9639424781093353,-0.02703956267793369,-0.316172,-23.875746
11.185,2.0,1.0,1.0,33.6,34.0,34.0,3.7,2.9,2.7625,0.010240920422367409,-0.05958952796330392,0.9629055589261509,-0.028984754254888827,-0.327835,-23.574338
11.185,2.0,1.0,1.0,33.6,34.0,34.0,3.7,2.9,2.765,-0.004213155507585097,-0.06122500805579277,0.9615684067253747,-0.031072686841332766,-0.340313,-23.266092
11.185,2.0,1.0,1.0,33.6,34.0,34.0,3.7,2.9,2.7675,-0.01885976079665435,-0.06292146147406429,0.9599123870490339,-0.033317178309917185,-0.353692,-22.950653
11.185,2.0,1.0,1.0,33.6,34.0,34.0,3.7,2.9,2.77,-0.033701386089242225,-0.06468106899908528,0.957916990568217,-0.03573376991578233,-0.36807,-22.627642
11.185,2.0,1.0,1.0,33.6,34.0,34.0,3.7,2.9,2.7725,-0.048740303701692335,-0.06650584518084997,0.9555595635572764,-0.03833998857595748,-0.38356,-22.296649
11.185,2.0,1.0,1.0,33.6,34.0,34.0,3.7,2.9,2.775,-0.06397846571468112,-0.06839753881040002,0.952814991028612,-0.04115565563392051,-0.400291,-21.957235
11.185,2.0,1.0,1.0,33.6,34.0,34.0,3.7,2.9,2.7775,-0.07941736799616944,-0.0703574993929125,0.9496553231806735,-0.04420325128171157,-0.418413,-21.608926
11.185,2.0,1.0,1.0,33.6,34.0,34.0,3.7,2.9,2.78,-0.09505786886583041,-0.07238649836995793,0.9460493338734366,-0.04750834570723514,-0.438098,-21.251213
11.185,2.0,1.0,1.0,33.6,34.0,34.0,3.7,2.9,2.7825,-0.11089994717806057,-0.0744844899292369,0.9419619975376303,-0.051100110287456375,-0.459548,-20.883545
11.185,2.0,1.0,1.0,33.6,34.0,34.0,3.7,2.9,2.785,-0.12694237920190438,-0.07665029087751724,0.9373538682162104,-0.05501192478608007,-0.482999,-20.50533
11.185,2.0,1.0,1.0,33.6,34.0,34.0,3.7,2.9,2.7875,-0.1431823062294742,-0.0788811516604521,0.9321803413335217,-0.059282099528231824,-0.508729,-20.115925
11.185,2.0,1.0,1.0,33.6,34.0,34.0,3.7,2.9,2.79,-0.15961465452292148,-0.08117218037346939,0.9263907753673702,-0.06395473483135823,-0.537066,-19.714641
11.185,2.0,1.0,1.0,33.6,34.0,34.0,3.7,2.9,2.7925,-0.17623135483619434,-0.08351556735753886,0.9199274470843536,-0.06908074334239295,-0.5684,-19.300731
11.185,2.0,1.0,1.0,33.6,34.0,34.0,3.7,2.9,2.795,-0.19302028864498577,-0.08589953805623021,0.9127243108818215,-0.07471906386654223,-0.603198,-18.873391
11.185,2.0,1.0,1.0,33.6,34.0,34.0,3.7,2.9,2.7975,-0.20996385999963033,-0.08830693387137468,0.9047055310480233,-0.08093809677877742,-0.642022,-18.431756
11.185,2.0,1.0,1.0,33.6,34.0,34.0,3.7,2.9,2.8,-0.22703705220101633,-0.09071328146159062,0.8957837572817162,-0.0878173893039121,-0.685552,-17.974901
11.185,2.0,1.0,1.0,33.6,34.0,34.0,3.7,2.9,2.8025,-0.24420477254521383,-0.09308415561155169,0.885858122065426,-0.09544959037525866,-0.734618,-17.501834
11.185,2.0,1.0,1.0,33.6,34.0,34.0,3.7,2.9,2.805,-0.26141820965459406,-0.09537156303841318,0.8748119597272254,-0.10394267318867537,-0.790238,-17.01151
11.185,2.0,1.0,1.0,33.6,34.0,34.0,3.7,2.9,2.8075,-0.27860981770601184,-0.09750896575965518,0.8625102924477672,-0.11342237781850567,-0.853674,-16.502829
11.185,2.0,1.0,1.0,33.6,34.0,34.0,3.7,2.9,2.81,-0.2956863892963951,-0.09940441229411429,0.8487972178731567,-0.12403473668072151,-0.926493,-15.97466
11.185,2.0,1.0,1.0,33.6,34.0,34.0,3.7,2.9,2.8125,-0.312519471895558,-0.100931041518245,0.833493501070264,-0.135948377800693,-1.010666,-15.425869
11.185,2.0,1.0,1.0,33.6,34.0,34.0,3.7,2.9,2.815,-0.328932113407888,-0.10191395955087104,0.8163949803600928,-0.14935599527902835,-1.108681,-14.855363
11.185,2.0,1.0,1.0,33.6,34.0,34.0,3.7,2.9,2.8175,-0.34468059747376795,-0.10211217242123014,0.7972729441987707,-0.16447383204523805,-1.223702,-14.262174
11.185,2.0,1.0,1.0,33.6,34.0,34.0,3.7,2.9,2.82,-0.35942950127494716,-0.10119393963234206,0.7758785933260399,-0.18153707048415602,-1.359774,-13.645573
11.185,2.0,1.0,1.0,33.6,34.0,34.0,3.7,2.9,2.8225,-0.37271824304195306,-0.09870376151193073,0.7519553329220523,-0.20078741167288622,-1.52208,-13.005264
11.185,2.0,1.0,1.0,33.6,34.0,34.0,3.7,2.9,2.825,-0.38391770468701963,-0.09401964622861808,0.7252653163082867,-0.2224464778391036,-1.717252,-12.341666
11.185,2.0,1.0,1.0,33.6,34.0,34.0,3.7,2.9,2.8275,-0.39217747535241554,-0.0863012718655321,0.6956407921267607,-0.24666459896453208,-1.953705,-11.656344
