1,w,sub_t,h,l1,l2,l3,g1,g2,Freq,S11_re,S21_re,S11_img,S21_img,S11_dB,S21_dB
11.185,2.0,1.0,1.0,34.2,34.8,34.8,2.4,3.9,2.5,0.745811801796512,-0.0129520725433918,0.653202974123389,0.00684473316573032,-0.074865,-36.68357
11.185,2.0,1.0,1.0,34.2,34.8,34.8,2.4,3.9,2.5025,0.7406284346582733,-0.01322097127296083,0.6589114229903723,0.0068440794390627726,-0.075814,-36.543607
11.185,2.0,1.0,1.0,34.2,34.8,34.8,2.4,3.9,2.505,0.7353710525669881,-0.01349574213625427,0.6646086709447628,0.006841254312691032,-0.076784,-36.402825
11.185,2.0,1.0,1.0,34.2,34.8,34.8,2.4,3.9,2.5075,0.7300387667834747,-0.013776550325642878,0.6702941157272672,0.006836155810725602,-0.077776,-36.261204
11.185,2.0,1.0,1.0,34.2,34.8,34.8,2.4,3.9,2.51,0.724630671816093,-0.014063567229758663,0.6759671351726758,0.0068286769722545005,-0.078791,-36.118726
11.185,2.0,1.0,1.0,34.2,34.8,34.8,2.4,3.9,2.5125,0.7191458450006901,-0.014356970727644469,0.6816270864612469,0.006818705566357926,-0.079831,-35.975368
11.185,2.0,1.0,1.0,34.2,34.8,34.8,2.4,3.9,2.515,0.7135833460638951,-0.014656945499886585,0.6872733053361334,0.006806123787983706,-0.080894,-35.83111
11.185,2.0,1.0,1.0,34.2,34.8,34.8,2.4,3.9,2.5175,0.7079422166687482,-0.014963683357882089,0.6929051052848293,0.006790807933188132,-0.081983,-35.68593
11.185,2.0,1.0,1.0,34.2,34.8,34.8,2.4,3.9,2.52,0.7022214799415343,-0.015277383592484229,0.6985217766825036,0.006772628052113211,-0.083099,-35.539805
11.185,2.0,1.0,1.0,34.2,34.8,34.8,2.4,3.9,2.5225,0.6964201399786413,-0.015598253343363143,0.704122585894861,0.006751447577923227,-0.084241,-35.392712
11.185,2.0,1.0,1.0,34.2,34.8,34.8,2.4,3.9,2.525,0.6905371813321253,-0.01592650799052879,0.7097067743380567,0.0067271229297615155,-0.085412,-35.244627
11.185,2.0,1.0,1.0,34.2,34.8,34.8,2.4,3.9,2.5275,0.6845715684725796,-0.016262371569574725,0.7152735574929265,0.006699503087608962,-0.086612,-35.095526
11.185,2.0,1.0,1.0,34.2,34.8,34.8,2.4,3.9,2.53,0.6785222452277908,-0.01660607721232758,0.7208221238706124,0.006668429136728058,-0.087841,-34.945383
11.185,2.0,1.0,1.0,34.2,34.8,34.8,2.4,3.9,2.5325,0.6723881341955261,-0.016957867614724467,0.7263516339264007,0.0066337337791574896,-0.089102,-34.794173
11.185,2.0,1.0,1.0,34.2,34.8,34.8,2.4,3.9,2.535,0.6661681361286562,-0.017317995533887343,0.7318612189183449,0.006595240809479888,-0.090395,-34.641868
11.185,2.0,1.0,1.0,34.2,34.8,34.8,2.4,3.9,2.5375,0.6598611292906826,-0.017686724316526906,0.7373499797069132,0.0065527645518171475,-0.091722,-34.488442
11.185,2.0,1.0,1.0,34.2,34.8,34.8,2.4,3.9,2.54,0.6534659687795461,-0.018064328460985157,0.7428169854916107,0.006506109254711467,-0.093083,-34.333864
11.185,2.0,1.0,1.0,34.2,34.8,34.8,2.4,3.9,2.5425,0.6469814858174272,-0.018451094215419007,0.7482612724801604,0.0064550684402179,-0.094481,-34.178107
11.185,2.0,1.0,1.0,34.2,34.8,34.8,2.4,3.9,2.545,0.6404064870040418,-0.018847320214839258,0.7536818424854019,0.006399424203169689,-0.095915,-34.021139
11.185,2.0,1.0,1.0,34.2,34.8,34.8,2.4,3.9,2.5475,0.6337397535307222,-0.01925331815994846,0.7590776614446614,0.0063389464561665375,-0.097389,-33.862929
11.185,2.0,1.0,1.0,34.2,34.8,34.8,2.4,3.9,2.55,0.6269800403523084,-0.019669413540978006,0.764447657855843,0.006273392115384651,-0.098903,-33.703445
11.185,2.0,1.0,1.0,34.2,34.8,34.8,2.4,3.9,2.5525,0.6201260753136542,-0.020095946409996047,0.7697907211239299,0.0062025042217951215,-0.100458,-33.542653
11.185,2.0,1.0,1.0,34.2,34.8,34.8,2.4,3.9,2.555,0.6131765582272043,-0.02053327220546733,0.7751056998110208,0.006126010991815728,-0.102058,-33.380518
11.185,2.0,1.0,1.0,34.2,34.8,34.8,2.4,3.9,2.5575,0.6061301598978233,-0.020981762633174635,0.780391399782313,0.006043624790782484,-0.103702,-33.217004
11.185,2.0,1.0,1.0,34.2,34.8,34.8,2.4,3.9,2.56,0.5989855210906779,-0.021441806607977183,0.7856465822397093,0.005955041021921871,-0.105394,-33.052075
11.185,2.0,1.0,1.0,34.2,34.8,34.8,2.4,3.9,2.5625,0.591741251437608,-0.0219138112612836,0.79086996163389,0.00585993692270617,-0.107135,-32.885691
11.185,2.0,1.0,1.0,34.2,34.8,34.8,2.4,3.9,2.565,0.5843959282769604,-0.022398203019555023,0.7960602034447496,0.0057579702595828295,-0.108927,-32.717812
11.185,2.0,1.0,1.0,34.2,34.8,34.8,2.4,3.9,2.5675,0.5769480954214357,-0.022895428759638115,0.8012159218190215,0.005648777911064283,-0.110773,-32.548398
11.185,2.0,1.0,1.0,34.2,34.8,34.8,2.4,3.9,2.57,0.5693962618479335,-0.02340595704725927,0.8063356770527775,0.005531974328034097,-0.112675,-32.377405
11.185,2.0,1.0,1.0,34.2,34.8,34.8,2.4,3.9,2.5725,0.5617389003028361,-0.0239302794655955,0.8114179729051091,0.005407149858851985,-0.114635,-32.204789
11.185,2.0,1.0,1.0,34.2,34.8,34.8,2.4,3.9,2.575,0.5539744458155429,-0.02446891204148007,0.81646125372784,0.005273868925400141,-0.116655,-32.030503
11.185,2.0,1.0,1.0,34.2,34.8,34.8,2.4,3.9,2.5775,0.5461012941123485,-0.02502239677750959,0.8214639013943983,0.005131668034587737,-0.11874,-31.854499
11.185,2.0,1.0,1.0,34.2,34.8,34.8,2.4,3.9,2.58,0.5381177999220305,-0.025591303299097642,0.8264242320090929,0.004980053607987581,-0.120891,-31.676727
11.185,2.0,1.0,1.0,34.2,34.8,34.8,2.4,3.9,2.5825,0.5300222751636146,-0.026176230626378836,0.831340492375864,0.004818499610188621,-0.123111,-31.497135
11.185,2.0,1.0,1.0,34.2,34.8,34.8,2.4,3.9,2.585,0.5218129870059071,-0.026777809081811963,0.8362108562031322,0.00464644495407477,-0.125405,-31.315669
11.185,2.0,1.0,1.0,34.2,34.8,34.8,2.4,3.9,2.5875,0.513488155787307,-0.027396702345373263,0.84103342001859,0.004463290658536628,-0.127775,-31.132272
11.185,2.0,1.0,1.0,34.2,34.8,34.8,2.4,3.9,2.59,0.5050459527833102,-0.02803360967037495,0.8458061987646095,0.004268396731045093,-0.130226,-30.946886
11.185,2.0,1.0,1.0,34.2,34.8,34.8,2.4,3.9,2.5925,0.4964844978078336,-0.028689268274212018,0.8505271210413405,0.0040610787439946195,-0.132761,-30.759449
11.185,2.0,1.0,1.0,34.2,34.8,34.8,2.4,3.9,2.595,0.48780185663314185,-0.02936445591972462,0.8551940239604352,0.0038406040697040156,-0.135384,-30.569898
11.185,2.0,1.0,1.0,34.2,34.8,34.8,2.4,3.9,2.5975,0.47899603821158354,-0.030059993704399917,0.8598046475676391,0.003606187734346596,-0.138101,-30.378164
11.185,2.0,1.0,1.0,34.2,34.8,34.8,2.4,3.9,2.6,0.47006499168072424,-0.03077674907631481,0.8643566287870724,0.0033569878457882004,-0.140917,-30.18418
11.185,2.0,1.0,1.0,34.2,34.8,34.8,2.4,3.9,2.6025,0.46100660313157765,-0.03151563909756918,0.8688474948338045,0.0030921005442182538,-0.143836,-29.987872
11.185,2.0,1.0,1.0,34.2,34.8,34.8,2.4,3.9,2.605,0.4518186921176243,-0.0322776339779897,0.8732746560341865,0.002810554417435124,-0.146864,-29.789162
11.185,2.0,1.0,1.0,34.2,34.8,34.8,2.4,3.9,2.6075,0.44249900788007895,-0.03306376090409689,0.8776353979851524,0.0025113043145333545,-0.150007,-29.587973
11.185,2.0,1.0,1.0,34.2,34.8,34.8,2.4,3.9,2.61,0.4330452252624552,-0.03387510819075692,0.881926872974153,0.0021932244823528652,-0.153273,-29.384219
11.185,2.0,1.0,1.0,34.2,34.8,34.8,2.4,3.9,2.6125,0.4234549402847877,-0.03471282978557518,0.8861460905703391,0.0018551009381510008,-0.156667,-29.177814
11.185,2.0,1.0,1.0,34.2,34.8,34.8,2.4,3.9,2.615,0.41372566534502037,-0.03557815015895547,0.8902899072847827,0.0014956229793003453,-0.160198,-28.968665
11.185,2.0,1.0,1.0,34.2,34.8,34.8,2.4,3.9,2.6175,0.40385482401194933,-0.03647236961583555,0.8943550151825624,0.0011133737160543514,-0.163874,-28.756675
11.185,2.0,1.0,1.0,34.2,34.8,34.8,2.4,3.9,2.62,0.3938397453707334,-0.0373968700684312,0.8983379293121228,0.0007068194961917696,-0.167704,-28.541744
11.185,2.0,1.0,1.0,34.2,34.8,34.8,2.4,3.9,2.6225,0.3836776578784309,-0.03835312131284739,0.9022349737969136,0.00027429807017464905,-0.171697,-28.323764
11.185,2.0,1.0,1.0,34.2,34.8,34.8,2.4,3.9,2.625,0.373365682683264,-0.0393426878561292,0.906042266410416,-0.000185994678220248,-0.175865,-28.102622
11.185,2.0,1.0,1.0,34.2,34.8,34.8,2.4,3.9,2.6275,0.36290082635732285,-0.040367236344183356,0.9097557014275225,-0.0006760196386935133,-0.180218,-27.878202
11.185,2.0,1.0,1.0,34.2,34.8,34.8,2.4,3.9,2.63,0.35227997298849845,-0.04142854364491246,0.9133709305121411,-0.0011979112543902884,-0.184769,-27.650377
11.185,2.0,1.0,1.0,34.2,34.8,34.8,2.4,3.9,2.6325,0.3414998755733717,-0.042528505644774,0.9168833413616925,-0.001753996449653442,-0.189532,-27.419017
11.185,2.0,1.0,1.0,34.2,34.8,34.8,2.4,3.9,2.635,0.33055714664907165,-0.043669146820614776,0.9202880337827838,-0.002346816026253973,-0.194521,-27.183981
11.185,2.0,1.0,1.0,34.2,34.8,34.8,2.4,3.9,2.6375,0.31944824809872857,-0.04485263065180601,0.9235797928171487,-0.002979148903593723,-0.199753,-26.945124
11.185,2.0,1.0,1.0,34.2,34.8,34.8,2.4,3.9,2.64,0.30816948006257244,-0.04608127094006073,0.9267530584712046,-0.0036540396437317363,-0.205246,-26.702289
11.185,2.0,1.0,1.0,34.2,34.8,34.8,2.4,3.9,2.6425,0.2967169688854871,-0.04735754410534466,0.9298018915239425,-0.004374829780265558,-0.21102,-26.455312
11.185,2.0,1.0,1.0,34.2,34.8,34.8,2.4,3.9,2.645,0.2850866540324163,-0.04868410252532054,0.932719934793582,-0.005145193563895037,-0.217095,-26.204018
11.185,2.0,1.0,1.0,34.2,34.8,34.8,2.4,3.9,2.6475,0.2732742739066447,-0.050063788981804226,0.9355003691299875,-0.005969178850380072,-0.223497,-25.948221
11.185,2.0,1.0,1.0,34.2,34.8,34.8,2.4,3.9,2.65,0.261275350513725,-0.051499652269420056,0.938135863262957,-0.006851253992889987,-0.230251,-25.687724
11.185,2.0,1.0,1.0,34.2,34.8,34.8,2.4,3.9,2.6525,0.24908517292781024,-0.052994964007144055,0.9406185164707201,-0.007796361765809908,-0.237387,-25.422317
11.185,2.0,1.0,1.0,34.2,34.8,34.8,2.4,3.9,2.655,0.23669877953962676,-0.05455323667013774,0.9429397928316317,-0.008809981547678212,-0.244939,-25.151777
11.185,2.0,1.0,1.0,34.2,34.8,34.8,2.4,3.9,2.6575,0.2241109391001739,-0.056178242823573143,0.945090445576525,-0.009898201235519823,-0.252942,-24.875865
11.185,2.0,1.0,1.0,34.2,34.8,34.8,2.4,3.9,2.66,0.21131613062619484,-0.057874035487070506,0.9470604297589288,-0.011067800662122991,-0.261437,-24.594328
11.185,2.0,1.0,1.0,34.2,34.8,34.8,2.4,3.9,2.6625,0.1983085223095355,-0.0596449694809367,0.9488388010917246,-0.012326348655235315,-0.270471,-24.306892
11.185,2.0,1.0,1.0,34.2,34.8,34.8,2.4,3.9,2.665,0.18508194968220334,-0.061495723493946615,0.950413598344703,-0.013682316330382707,-0.280096,-24.013266
11.185,2.0,1.0,1.0,34.2,34.8,34.8,2.4,3.9,2.6675,0.17162989344588955,-0.0634313224533973,0.9517717061360935,-0.015145209768749647,-0.290369,-23.713138
11.185,2.0,1.0,1.0,34.2,34.8,34.8,2.4,3.9,2.67,0.15794545759750842,-0.06545715955264196,0.9528986942546235,-0.016725725926092463,-0.301357,-23.406173
11.185,2.0,1.0,1.0,34.2,34.8,34.8,2.4,3.9,2.6725,0.1440213487977666,-0.06757901697255983,0.9537786287814951,-0.018435936483379628,-0.313136,-23.09201
11.185,2.0,1.0,1.0,34.2,34.8,34.8,2.4,3.9,2.675,0.12984985837528282,-0.06980308388369776,0.9543938491983266,-0.02028950543017433,-0.325791,-22.770261
11.185,2.0,1.0,1.0,34.2,34.8,34.8,2.4,3.9,2.6775,0.11542284898769709,-0.07213596968158825,0.9547247043092575,-0.022301947525787656,-0.33942,-22.440509
11.185,2.0,1.0,1.0,34.2,34.8,34.8,2.4,3.9,2.68,0.10073174884970723,-0.07458470951252977,0.9547492380983033,-0.02449093648544687,-0.354137,-22.1023
11.185,2.0,1.0,1.0,34.2,34.8,34.8,2.4,3.9,2.6825,0.08576755769525261,-0.07715675788130259,0.9544428144909044,-0.026876673884426862,-0.370073,-21.755148
11.185,2.0,1.0,1.0,34.2,34.8,34.8,2.4,3.9,2.685,0.07052087042471643,-0.07985996433775681,0.9537776672693253,-0.02948233248391136,-0.387379,-21.398524
11.185,2.0,1.0,1.0,34.2,34.8,34.8,2.4,3.9,2.6875,0.0549819269267835,-0.0827025226865375,0.952722357950052,-0.032334591112379,-0.406233,-21.031855
11.185,2.0,1.0,1.0,34.2,34.8,34.8,2.4,3.9,2.69,0.03914070019245851,-0.08569288151862595,0.9512411200730129,-0.03546428257895065,-0.426841,-20.654518
11.185,2.0,1.0,1.0,34.2,34.8,34.8,2.4,3.9,2.6925,0.0229870400461501,-0.08883959863316482,0.9492930628370987,-0.03890718158879215,-0.449448,-20.265838
11.185,2.0,1.0,1.0,34.2,34.8,34.8,2.4,3.9,2.695,0.006510897331245326,-0.09215111437658789,0.9468312000558249,-0.04270496656072814,-0.474343,-19.865079
11.185,2.0,1.0,1.0,34.2,34.8,34.8,2.4,3.9,2.6975,-0.010297335716427092,-0.09563540799297952,0.9438012616725421,-0.04690639793821686,-0.501872,-19.451442
11.185,2.0,1.0,1.0,34.2,34.8,34.8,2.4,3.9,2.7,-0.02744631727945895,-0.09929948513853969,0.9401402342271009,-0.051568766369847995,-0.532447,-19.024052
11.185,2.0,1.0,1.0,34.2,34.8,34.8,2.4,3.9,2.7025,-0.04494300500486124,-0.1031486213330889,0.9357745634317982,-0.0567596772786085,-0.566569,-18.581961
11.185,2.0,1.0,1.0,34.2,34.8,34.8,2.4,3.9,2.705,-0.06279155291462488,-0.10718525162873203,0.9306179363586599,-0.06255925386131778,-0.604845,-18.124133
11.185,2.0,1.0,1.0,34.2,34.8,34.8,2.4,3.9,2.7075,-0.08099169571807943,-0.11140734559942264,0.9245685432277818,-0.06906285787397946,-0.648019,-17.649446
11.185,2.0,1.0,1.0,34.2,34.8,34.8,2.4,3.9,2.71,-0.09953638383811457,-0.11580603043767737,0.9175057013190488,-0.07638444473024256,-0.69701,-17.156681
11.185,2.0,1.0,1.0,34.2,34.8,34.8,2.4,3.9,2.7125,-0.11840831827941002,-0.12036211067426497,0.9092857108105261,-0.08466068171444208,-0.752964,-16.644525
11.185,2.0,1.0,1.0,34.2,34.8,34.8,2.4,3.9,2.715,-0.13757486303260785,-0.12504096155563843,0.8997368147586395,-0.09405595502720801,-0.81732,-16.111573
11.185,2.0,1.0,1.0,34.2,34.8,34.8,2.4,3.9,2.7175,-0.1569805554997551,-0.12978501597254047,0.8886531746400531,-0.10476835116121931,-0.891903,-15.556342
11.185,2.0,1.0,1.0,34.2,34.8,34.8,2.4,3.9,2.72,-0.17653605169358638,-0.1345026814378806,0.8757878926109613,-0.11703657683843205,-0.979049,-14.977295
11.185,2.0,1.0,1.0,34.2,34.8,34.8,2.4,3.9,2.7225,-0.19610177843972743,-0.13905196001229372,0.8608453982739421,-0.13114749282435628,-1.081779,-14.372896
11.185,2.0,1.0,1.0,34.2,34.8,34.8,2.4,3.9,2.725,-0.21546375817305238,-0.14321623957498422,0.8434741386024404,-0.1474433127562926,-1.204034,-13.74169
11.185,2.0,1.0,1.0,34.2,34.8,34.8,2.4,3.9,2.7275,-0.23429798571964627,-0.1466686431984401,0.8232617818602591,-0.16632624134186583,-1.351002,-13.082458
11.185,2.0,1.0,1.0,34.2,34.8,34.8,2.4,3.9,2.73,-0.2521184552324151,-0.14892005141017328,0.7997376513824763,-0.18825581554803822,-1.529557,-12.394461
11.185,2.0,1.0,1.0,34.2,34.8,34.8,2.4,3.9,2.7325,-0.2682029324694395,-0.14924492708296377,0.7723918495577603,-0.2137294626521583,-1.748843,-11.677829
11.185,2.0,1.0,1.0,34.2,34.8,34.8,2.4,3.9,2.735,-0.2814913582347788,-0.14657989630953988,0.7407290666386046,-0.24322825531385486,-2.020978,-10.934191
11.185,2.0,1.0,1.0,34.2,34.8,34.8,2.4,3.9,2.7375,-0.2904583355074504,-0.13939666109650778,0.7043891500762989,-0.2770957840240256,-2.361752,-10.16764
11.185,2.0,1.0,1.0,34.2,34.8,34.8,2.4,3.9,2.74,-0.29298249103265855,-0.12557223791669012,0.6633859427161759,-0.31529871111762936,-2.790806,-9.386167
11.185,2.0,1.0,1.0,34.2,34.8,34.8,2.4,3.9,2.7425,-0.2862881369879943,-0.10233222223260456,0.6185311003247463,-0.35700256536925096,-3.329754,-8.603642
11.185,2.0,1.0,1.0,34.2,34.8,34.8,2.4,3.9,2.745,-0.2671370858758994,-0.06644513182708736,0.5720834869140783,-0.39992284391447025,-3.994172,-7.842217
11.185,2.0,1.0,1.0,34.2,34.8,34.8,2.4,3.9,2.7475,-0.23258151724815385,-0.014978365154055186,0.5285083243923258,-0.4395684494829689,-4.770146,-7.13443
11.185,2.0,1.0,1.0,34.2,34.8,34.8,2.4,3.9,2.75,-0.181585271586616,0.0530787042839563,0.494834365742728,-0.468890470976131,-5.562142,-6.523273
11.185,2.0,1.0,1.0,34.2,34.8,34.8,2.4,3.9,2.7525,-0.11727362903965036,0.13456828686330538,0.47959567198711145,-0.4793490618527233,-6.130284,-6.057512
11.185,2.0,1.0,1.0,34.2,34.8,34.8,2.4,3.9,2.755,-0.048274177050900084,0.22083498924778963,0.4895906062879358,-0.4641602666729449,-6.16132,-5.780461
11.185,2.0,1.0,1.0,34.2,34.8,34.8,2.4,3.9,2.7575,0.013131516096597939,0.29959002341952523,0.5257264648829957,-0.42244566761681707,-5.582095,-5.715177
11.185,2.0,1.0,1.0,34.2,34.8,34.8,2.4,3.9,2.76,0.056093195271096824,0.3600035843138932,0.581504845539893,-0.36072869098493454,-4.668709,-5.854816
11.185,2.0,1.0,1.0,34.2,34.8,34.8,2.4,3.9,2.7625,0.07573396603094139,0.3972370206566678,0.6461140766738215,-0.28982446860967903,-3.734553,-6.165518
11.185,2.0,1.0,1.0,34.2,34.8,34.8,2.4,3.9,2.765,0.07361594819668377,0.41289033513528245,0.7094423816686184,-0.21982313964875153,-2.935145,-6.599514
11.185,2.0,1.0,1.0,34.2,34.8,34.8,2.4,3.9,2.7675,0.054933622930905555,0.41218350208179394,0.765085932746977,-0.1570907950128894,-2.303464,-7.10918
11.185,2.0,1.0,1.0,34.2,34.8,34.8,2.4,3.9,2.77,0.02546541529596126,0.40090638917666155,0.8104657182584092,-0.1041635504827226,-1.821022,-7.655435
11.185,2.0,1.0,1.0,34.2,34.8,34.8,2.4,3.9,2.7725,-0.010078738322467,0.3837703421439782,0.8455297955079454,-0.06105172547417723,-1.456805,-8.21003
11.185,2.0,1.0,1.0,34.2,34.8,34.8,2.4,3.9,2.775,-0.04844468353624502,0.36402552438932156,0.8714311995988907,-0.02656376161843492,-1.181937,-8.754299
11.185,2.0,1.0,1.0,34.2,34.8,34.8,2.4,3.9,2.7775,-0.08761412353833173,0.3436840167183438,0.8896768123696254,0.0008432611160091146,-0.973439,-9.276787
11.185,2.0,1.0,1.0,34.2,34.8,34.8,2.4,3.9,2.78,-0.12644031735770572,0.3238857695240637,0.9017081052159498,0.022645731804124537,-0.814116,-9.770983
11.185,2.0,1.0,1.0,34.2,34.8,34.8,2.4,3.9,2.7825,-0.16433275929297655,0.305214570685515,0.9087453485807011,0.040099054429993224,-0.691409,-10.233572
11.185,2.0,1.0,1.0,34.2,34.8,34.8,2.4,3.9,2.785,-0.20103381990382158,0.2879215166656274,0.9117609773311671,0.0542121058286796,-0.596217,-10.663217
11.185,2.0,1.0,1.0,34.2,34.8,34.8,2.4,3.9,2.7875,-0.23647499758295168,0.27206862336345716,0.9115048746164762,0.06577338241340658,-0.521931,-11.05975
11.185,2.0,1.0,1.0,34.2,34.8,34.8,2.4,3.9,2.79,-0.270689284617512,0.2576162167019458,0.9085442634648263,0.07539160021578369,-0.46373,-11.42366
11.185,2.0,1.0,1.0,34.2,34.8,34.8,2.4,3.9,2.7925,-0.30375960327833124,0.2444742084134993,0.9033026543679482,0.08353527094105856,-0.418063,-11.755762
11.185,2.0,1.0,1.0,34.2,34.8,34.8,2.4,3.9,2.795,-0.335789320801836,0.23253126641696342,0.896092638076304,0.09056610196313215,-0.382295,-12.057002
11.185,2.0,1.0,1.0,34.2,34.8,34.8,2.4,3.9,2.7975,-0.36688588936853034,0.22167083108250155,0.8871417023401021,0.09676544300707596,-0.354454,-12.328329
11.185,2.0,1.0,1.0,34.2,34.8,34.8,2.4,3.9,2.8,-0.3971521263705515,0.21177944904645182,0.8766118523294644,0.10235459331626649,-0.333055,-12.570629
11.185,2.0,1.0,1.0,34.2,34.8,34.8,2.4,3.9,2.8025,-0.42668185299835293,0.2027506872489686,0.8646142183256524,0.10751018150866135,-0.316968,-12.784674
11.185,2.0,1.0,1.0,34.2,34.8,34.8,2.4,3.9,2.805,-0.4555579518145562,0.1944865419599276,0.8512197779576091,0.11237577200073892,-0.305337,-12.971102
11.185,2.0,1.0,1.0,34.2,34.8,34.8,2.4,3.9,2.8075,-0.48385170422506296,0.18689745129713697,0.8364671224169791,0.11707065453017833,-0.297509,-13.130404
11.185,2.0,1.0,1.0,34.2,34.8,34.8,2.4,3.9,2.81,-0.5116227389129312,0.1799015416999134,0.8203679833629266,0.12169656292901955,-0.292992,-13.262916
11.185,2.0,1.0,1.0,34.2,34.8,34.8,2.4,3.9,2.8125,-0.538919194779706,0.173423455619223,0.802911052780954,0.126342888621615,-0.291419,-13.368815
11.185,2.0,1.0,1.0,34.2,34.8,34.8,2.4,3.9,2.815,-0.5657778564316182,0.16739293852856063,0.7840644810471461,0.13109081221461497,-0.292526,-13.448116
11.185,2.0,1.0,1.0,34.2,34.8,34.8,2.4,3.9,2.8175,-0.5922241036687657,0.16174325988638724,0.7637773256751381,0.13601666953753347,-0.296135,-13.500675
11.185,2.0,1.0,1.0,34.2,34.8,34.8,2.4,3.9,2.82,-0.6182715558284162,0.1564094758518893,0.741980138147787,0.14119478964768037,-0.302141,-13.526181
11.185,2.0,1.0,1.0,34.2,34.8,34.8,2.4,3.9,2.8225,-0.6439213022230044,0.15132649354703576,0.718584812470147,0.14669998454691996,-0.310509,-13.524156
11.185,2.0,1.0,1.0,34.2,34.8,34.8,2.4,3.9,2.825,-0.6691605988895227,0.14642685592983395,0.6934837716071687,0.15260982736207973,-0.321266,-13.493954
11.185,2.0,1.0,1.0,34.2,34.8,34.8,2.4,3.9,2.8275,-0.6939608821399728,0.14163812460750233,0.6665485335332567,0.1590068218994012,-0.334506,-13.434751
11.185,2.0,1.0,1.0,34.2,34.8,34.8,2.4,3.9,2.83,-0.7182749000933504,0.1368796881823202,0.6376276759755177,0.16598053629722495,-0.350393,-13.345542
