1,w,sub_t,h,l1,l2,l3,g1,g2,Freq,S11_re,S21_re,S11_img,S21_img,S11_dB,S21_dB
11.185,2.0,1.0,1.0,34.7,33.3,33.3,3.5,3.9,2.5,0.669121395312894,-0.00982559955784408,0.732552873280699,0.00287263821916906,-0.068473,-39.796617
11.185,2.0,1.0,1.0,34.7,33.3,33.3,3.5,3.9,2.5025,0.6629554539064998,-0.00997716913022608,0.7380305431695815,0.0028176053959884225,-0.069171,-39.68661
11.185,2.0,1.0,1.0,34.7,33.3,33.3,3.5,3.9,2.505,0.6567109265161649,-0.010130513386543149,0.7434844395663871,0.00276015874353891,-0.06988,-39.57638
11.185,2.0,1.0,1.0,34.7,33.3,33.3,3.5,3.9,2.5075,0.6503871146880676,-0.010285642290308105,0.748913689450423,0.0027002319518102413,-0.0706,-39.465923
11.185,2.0,1.0,1.0,34.7,33.3,33.3,3.5,3.9,2.51,0.6439833160881379,-0.010442565311417048,0.7543173969126291,0.002637756957945828,-0.071332,-39.355235
11.185,2.0,1.0,1.0,34.7,33.3,33.3,3.5,3.9,2.5125,0.6374988247206195,-0.010601291390036688,0.7596946425793869,0.0025726639010537917,-0.072077,-39.244312
11.185,2.0,1.0,1.0,34.7,33.3,33.3,3.5,3.9,2.515,0.6309329311617116,-0.0107618288986855,0.7650444830240931,0.002504881076010104,-0.072833,-39.13315
11.185,2.0,1.0,1.0,34.7,33.3,33.3,3.5,3.9,2.5175,0.6242849228089992,-0.010924185602426232,0.7703659501663559,0.0024343348862437162,-0.073602,-39.021744
11.185,2.0,1.0,1.0,34.7,33.3,33.3,3.5,3.9,2.52,0.6175540841473871,-0.011088368617087034,0.7756580506587424,0.0023609497954941347,-0.074383,-38.91009
11.185,2.0,1.0,1.0,34.7,33.3,33.3,3.5,3.9,2.5225,0.6107396970323141,-0.011254384365424242,0.7809197652609522,0.002284648278533016,-0.075178,-38.798185
11.185,2.0,1.0,1.0,34.7,33.3,33.3,3.5,3.9,2.525,0.6038410409910121,-0.011422238531135819,0.7861500482013651,0.002205350770842306,-0.075985,-38.686024
11.185,2.0,1.0,1.0,34.7,33.3,33.3,3.5,3.9,2.5275,0.5968573935426311,-0.011591936010632036,0.791347826525885,0.0021229756172423523,-0.076806,-38.573603
11.185,2.0,1.0,1.0,34.7,33.3,33.3,3.5,3.9,2.53,0.589788030538086,-0.011763480862464993,0.7965119994340288,0.0020374390194651333,-0.077641,-38.460918
11.185,2.0,1.0,1.0,34.7,33.3,33.3,3.5,3.9,2.5325,0.582632226520489,-0.011936876254315481,0.8016414376022301,0.0019486549826687152,-0.07849,-38.347964
11.185,2.0,1.0,1.0,34.7,33.3,33.3,3.5,3.9,2.535,0.5753892551070829,-0.012112124407431852,0.806734982494343,0.0018565352608903756,-0.079353,-38.234739
11.185,2.0,1.0,1.0,34.7,33.3,33.3,3.5,3.9,2.5375,0.5680583893936244,-0.012289226538410395,0.8117914456593388,0.0017609893014379713,-0.080231,-38.121236
11.185,2.0,1.0,1.0,34.7,33.3,33.3,3.5,3.9,2.54,0.5606389023821869,-0.0124681827982032,0.8168096080162345,0.0016619241882200278,-0.081124,-38.007453
11.185,2.0,1.0,1.0,34.7,33.3,33.3,3.5,3.9,2.5425,0.5531300674333992,-0.012648992208235923,0.8217882191262872,0.0015592445840177241,-0.082032,-37.893384
11.185,2.0,1.0,1.0,34.7,33.3,33.3,3.5,3.9,2.545,0.5455311587441649,-0.01283165259351149,0.8267259964525326,0.0014528526717028575,-0.082955,-37.779027
11.185,2.0,1.0,1.0,34.7,33.3,33.3,3.5,3.9,2.5475,0.5378414518519625,-0.013016160512572225,0.8316216246067568,0.0013426480944095198,-0.083895,-37.664375
11.185,2.0,1.0,1.0,34.7,33.3,33.3,3.5,3.9,2.55,0.5300602241668232,-0.0132025111841881,0.8364737545840433,0.0012285278946673921,-0.08485,-37.549426
11.185,2.0,1.0,1.0,34.7,33.3,33.3,3.5,3.9,2.5525,0.5221867555321799,-0.013390698410634115,0.8412810029850231,0.001110386452509311,-0.085822,-37.434175
11.185,2.0,1.0,1.0,34.7,33.3,33.3,3.5,3.9,2.555,0.5142203288157626,-0.013580714497412537,0.8460419512260459,0.0009881154225664015,-0.086811,-37.318617
11.185,2.0,1.0,1.0,34.7,33.3,33.3,3.5,3.9,2.5575,0.5061602305317895,-0.013772550169274533,0.850755144737479,0.0008616036701679477,-0.087817,-37.202749
11.185,2.0,1.0,1.0,34.7,33.3,33.3,3.5,3.9,2.56,0.4980057514957406,-0.013966194482386111,0.8554190921503959,0.0007307372064658622,-0.08884,-37.086565
11.185,2.0,1.0,1.0,34.7,33.3,33.3,3.5,3.9,2.5625,0.4897561875130279,-0.014161634732480121,0.860032264471956,0.0005953991226065785,-0.089882,-36.970062
11.185,2.0,1.0,1.0,34.7,33.3,33.3,3.5,3.9,2.565,0.4814108401029276,-0.01435885635883037,0.864593094249832,0.00045546952297681817,-0.090942,-36.853235
11.185,2.0,1.0,1.0,34.7,33.3,33.3,3.5,3.9,2.5675,0.4729690172591883,-0.014557842843876272,0.8690999747260423,0.0003108254575528995,-0.09202,-36.73608
11.185,2.0,1.0,1.0,34.7,33.3,33.3,3.5,3.9,2.57,0.4644300342487542,-0.014758575608323159,0.873551258980667,0.00016134085338737067,-0.093118,-36.618592
11.185,2.0,1.0,1.0,34.7,33.3,33.3,3.5,3.9,2.5725,0.4557932144500999,-0.01496103390153393,0.8779452590659012,6.886445270306999e-06,-0.094235,-36.500767
11.185,2.0,1.0,1.0,34.7,33.3,33.3,3.5,3.9,2.575,0.44705789023271,-0.01516519468702473,0.882280245131013,-0.00015267029439307406,-0.095372,-36.3826
11.185,2.0,1.0,1.0,34.7,33.3,33.3,3.5,3.9,2.5775,0.4382234038792876,-0.015371032522868266,0.8865544445387986,-0.00031746522644188587,-0.096529,-36.264087
11.185,2.0,1.0,1.0,34.7,33.3,33.3,3.5,3.9,2.58,0.42928910855231206,-0.015578519436802565,0.8907660409742029,-0.0004876376165059129,-0.097707,-36.145223
11.185,2.0,1.0,1.0,34.7,33.3,33.3,3.5,3.9,2.5825,0.4202543693066062,-0.015787624795836896,0.8949131735458338,-0.000663330207183019,-0.098906,-36.026004
11.185,2.0,1.0,1.0,34.7,33.3,33.3,3.5,3.9,2.585,0.4111185641496348,-0.015998315170138794,0.8989939358811755,-0.0008446892907866419,-0.100127,-35.906425
11.185,2.0,1.0,1.0,34.7,33.3,33.3,3.5,3.9,2.5875,0.40188108515127213,-0.01621055419097855,0.9030063752163754,-0.001031864782597718,-0.10137,-35.786481
11.185,2.0,1.0,1.0,34.7,33.3,33.3,3.5,3.9,2.59,0.392541339604851,-0.01642430240250143,0.9069484914815453,-0.0012250102945491014,-0.102636,-35.666169
11.185,2.0,1.0,1.0,34.7,33.3,33.3,3.5,3.9,2.5925,0.3830987512413129,-0.016639517107089462,0.9108182363826355,-0.0014242832092651331,-0.103925,-35.545482
11.185,2.0,1.0,1.0,34.7,33.3,33.3,3.5,3.9,2.595,0.3735527614983586,-0.016856152204067446,0.9146135124809819,-0.0016298447543724585,-0.105237,-35.424417
11.185,2.0,1.0,1.0,34.7,33.3,33.3,3.5,3.9,2.5975,0.36390283084650127,-0.017074158021499346,0.9183321722717476,-0.001841860076992886,-0.106573,-35.302968
11.185,2.0,1.0,1.0,34.7,33.3,33.3,3.5,3.9,2.6,0.3541484401739817,-0.01729348114081456,0.9219720172625832,-0.0020604983183215198,-0.107934,-35.181131
11.185,2.0,1.0,1.0,34.7,33.3,33.3,3.5,3.9,2.6025,0.34428909223255694,-0.017514064213993888,0.9255307970538961,-0.002285932688186728,-0.10932,-35.0589
11.185,2.0,1.0,1.0,34.7,33.3,33.3,3.5,3.9,2.605,0.334324313146176,-0.017735845773036486,0.9290062084222659,-0.002518340539483018,-0.110732,-34.936272
11.185,2.0,1.0,1.0,34.7,33.3,33.3,3.5,3.9,2.6075,0.32425365398461276,-0.017958760031423524,0.9323958944086348,-0.0027579034423580095,-0.11217,-34.813241
11.185,2.0,1.0,1.0,34.7,33.3,33.3,3.5,3.9,2.61,0.3140766924041658,-0.018182736677280684,0.9356974434130185,-0.0030048072580302933,-0.113635,-34.689802
11.185,2.0,1.0,1.0,34.7,33.3,33.3,3.5,3.9,2.6125,0.3037930343575319,-0.018407700657936735,0.9389083882976185,-0.0032592422121052386,-0.115128,-34.565949
11.185,2.0,1.0,1.0,34.7,33.3,33.3,3.5,3.9,2.615,0.29340231587501386,-0.01863357195556401,0.9420262055003351,-0.0035214029672497316,-0.116648,-34.441679
11.185,2.0,1.0,1.0,34.7,33.3,33.3,3.5,3.9,2.6175,0.2829042049192441,-0.018860265353577786,0.9450483141608267,-0.0037914886950775805,-0.118197,-34.316985
11.185,2.0,1.0,1.0,34.7,33.3,33.3,3.5,3.9,2.62,0.2722984033156082,-0.019087690193462042,0.9479720752613844,-0.0040697031470907615,-0.119776,-34.191863
11.185,2.0,1.0,1.0,34.7,33.3,33.3,3.5,3.9,2.6225,0.2615846487605708,-0.019315750121678105,0.9507947907850707,-0.004356254724513349,-0.121384,-34.066307
11.185,2.0,1.0,1.0,34.7,33.3,33.3,3.5,3.9,2.625,0.250762716910158,-0.0195443428263026,0.953513702893671,-0.0046513565468465,-0.123023,-33.940311
11.185,2.0,1.0,1.0,34.7,33.3,33.3,3.5,3.9,2.6275,0.2398324235507694,-0.019773359763033158,0.9561259931282436,-0.00495522651896578,-0.124694,-33.813871
11.185,2.0,1.0,1.0,34.7,33.3,33.3,3.5,3.9,2.63,0.22879362685458543,-0.020002685870182408,0.9586287816351384,-0.00526808739657448,-0.126396,-33.686981
11.185,2.0,1.0,1.0,34.7,33.3,33.3,3.5,3.9,2.6325,0.21764622972177713,-0.020232199272277554,0.9610191264205831,-0.005590166849817472,-0.128131,-33.559635
11.185,2.0,1.0,1.0,34.7,33.3,33.3,3.5,3.9,2.635,0.20639018221171182,-0.020461770971864395,0.9632940226371025,-0.005921697524855345,-0.1299,-33.431828
11.185,2.0,1.0,1.0,34.7,33.3,33.3,3.5,3.9,2.6375,0.19502548406538092,-0.020691264529104823,0.9654504019051894,-0.006262917103188065,-0.131703,-33.303554
11.185,2.0,1.0,1.0,34.7,33.3,33.3,3.5,3.9,2.64,0.1835521873211558,-0.020920535728742376,0.9674851316738996,-0.00661406835851479,-0.133541,-33.174806
11.185,2.0,1.0,1.0,34.7,33.3,33.3,3.5,3.9,2.6425,0.1719703990260455,-0.0211494322339991,0.9693950146241721,-0.00697539921090629,-0.135416,-33.04558
11.185,2.0,1.0,1.0,34.7,33.3,33.3,3.5,3.9,2.645,0.1602802840445257,-0.02137779322694541,0.9711767881189209,-0.0073471627780637965,-0.137326,-32.915869
11.185,2.0,1.0,1.0,34.7,33.3,33.3,3.5,3.9,2.6475,0.14848206796695826,-0.02160544903487809,0.9728271237041508,-0.0077296174234312105,-0.139275,-32.785666
11.185,2.0,1.0,1.0,34.7,33.3,33.3,3.5,3.9,2.65,0.13657604011956762,-0.021832220742216014,0.9743426266655385,-0.008123026800925482,-0.141262,-32.654967
11.185,2.0,1.0,1.0,34.7,33.3,33.3,3.5,3.9,2.6525,0.1245625566779018,-0.02205791978741009,0.975719835645164,-0.008527659896044266,-0.143288,-32.523763
11.185,2.0,1.0,1.0,34.7,33.3,33.3,3.5,3.9,2.655,0.11244204388553869,-0.022282347544341167,0.9769552223232834,-0.00894379106311119,-0.145355,-32.392049
11.185,2.0,1.0,1.0,34.7,33.3,33.3,3.5,3.9,2.6575,0.10021500137978108,-0.022505294887661148,0.9780451911702744,-0.00937170005841583,-0.147463,-32.259818
11.185,2.0,1.0,1.0,34.7,33.3,33.3,3.5,3.9,2.66,0.08788200562592534,-0.022726541741505207,0.9789860792741072,-0.009811672069007949,-0.149613,-32.127063
11.185,2.0,1.0,1.0,34.7,33.3,33.3,3.5,3.9,2.6625,0.07544371346161392,-0.02294585661098127,0.9797741562489097,-0.010263997736907171,-0.151806,-31.993778
11.185,2.0,1.0,1.0,34.7,33.3,33.3,3.5,3.9,2.665,0.0629008657525592,-0.023162996095811565,0.980405624230484,-0.010728973178495234,-0.154044,-31.859954
11.185,2.0,1.0,1.0,34.7,33.3,33.3,3.5,3.9,2.6675,0.05025429116088813,-0.023377704385471522,0.9808766179647914,-0.011206899998862688,-0.156327,-31.725586
11.185,2.0,1.0,1.0,34.7,33.3,33.3,3.5,3.9,2.67,0.03750491002710252,-0.023589712735136176,0.981183204995722,-0.011698085300892912,-0.158657,-31.590664
11.185,2.0,1.0,1.0,34.7,33.3,33.3,3.5,3.9,2.6725,0.02465373836648778,-0.023798738921706176,0.9813213859586685,-0.012202841688877569,-0.161034,-31.455183
11.185,2.0,1.0,1.0,34.7,33.3,33.3,3.5,3.9,2.675,0.011701891980644422,-0.02400448667914191,0.9812870949866612,-0.012721487266472027,-0.163461,-31.319133
11.185,2.0,1.0,1.0,34.7,33.3,33.3,3.5,3.9,2.6775,-0.00134940931545062,-0.024206645112286658,0.9810762002360467,-0.013254345628818099,-0.165937,-31.182506
11.185,2.0,1.0,1.0,34.7,33.3,33.3,3.5,3.9,2.68,-0.014498837350659526,-0.024404888088306455,0.9806845045389375,-0.013801745848683862,-0.168465,-31.045295
11.185,2.0,1.0,1.0,34.7,33.3,33.3,3.5,3.9,2.6825,-0.027744951139199434,-0.024598873604814164,0.980107746189835,-0.01436402245649464,-0.171045,-30.907491
11.185,2.0,1.0,1.0,34.7,33.3,33.3,3.5,3.9,2.685,-0.041086192306816025,-0.02478824313367578,0.9793415998740824,-0.01494151541416206,-0.173679,-30.769084
11.185,2.0,1.0,1.0,34.7,33.3,33.3,3.5,3.9,2.6875,-0.054520880402197346,-0.024972620939422745,0.9783816777459745,-0.015534570082651562,-0.176368,-30.630067
11.185,2.0,1.0,1.0,34.7,33.3,33.3,3.5,3.9,2.69,-0.0680472080945238,-0.025151613371108102,0.9772235306645422,-0.016143537183269555,-0.179115,-30.490428
11.185,2.0,1.0,1.0,34.7,33.3,33.3,3.5,3.9,2.6925,-0.08166323625839243,-0.025324808126346,0.9758626495951899,-0.01676877275269945,-0.181919,-30.350159
11.185,2.0,1.0,1.0,34.7,33.3,33.3,3.5,3.9,2.695,-0.09536688894767187,-0.025491773486163573,0.9742944671855627,-0.01741063809186536,-0.184783,-30.209249
11.185,2.0,1.0,1.0,34.7,33.3,33.3,3.5,3.9,2.6975,-0.109155948260175,-0.025652057519174553,0.9725143595240753,-0.018069499708765497,-0.187709,-30.067689
11.185,2.0,1.0,1.0,34.7,33.3,33.3,3.5,3.9,2.7,-0.12302804909543436,-0.025805187253440352,0.9705176480897264,-0.018745729255479383,-0.190697,-29.925467
11.185,2.0,1.0,1.0,34.7,33.3,33.3,3.5,3.9,2.7025,-0.13698067380823178,-0.02595066781422635,0.9682996019018486,-0.019439703459631648,-0.19375,-29.782571
11.185,2.0,1.0,1.0,34.7,33.3,33.3,3.5,3.9,2.705,-0.15101114676086758,-0.02608798152568538,0.9658554398785266,-0.02015180405067401,-0.19687,-29.638991
11.185,2.0,1.0,1.0,34.7,33.3,33.3,3.5,3.9,2.7075,-0.1651166287776666,-0.02621658697429326,0.9631803334124333,-0.02088241768144145,-0.200058,-29.494715
11.185,2.0,1.0,1.0,34.7,33.3,33.3,3.5,3.9,2.71,-0.17929411150547742,-0.026335918031638404,0.9602694091728317,-0.021631935845536528,-0.203316,-29.349728
11.185,2.0,1.0,1.0,34.7,33.3,33.3,3.5,3.9,2.7125,-0.19354041168442657,-0.02644538283390174,0.9571177521423972,-0.02240075479120928,-0.206646,-29.20402
11.185,2.0,1.0,1.0,34.7,33.3,33.3,3.5,3.9,2.715,-0.20785216533355633,-0.026544362715077423,0.9537204088974854,-0.02318927543251865,-0.21005,-29.057575
11.185,2.0,1.0,1.0,34.7,33.3,33.3,3.5,3.9,2.7175,-0.22222582185634998,-0.026632211090649126,0.9500723911402519,-0.023997903258694636,-0.213531,-28.910381
11.185,2.0,1.0,1.0,34.7,33.3,33.3,3.5,3.9,2.72,-0.2366576380715431,-0.026708252288062978,0.9461686794909001,-0.02482704824276263,-0.21709,-28.762421
11.185,2.0,1.0,1.0,34.7,33.3,33.3,3.5,3.9,2.7225,-0.25114367217499983,-0.02677178031991767,0.9420042275480127,-0.025677124750648105,-0.22073,-28.61368
11.185,2.0,1.0,1.0,34.7,33.3,33.3,3.5,3.9,2.725,-0.2656797776387214,-0.02682205759531187,0.9375739662246884,-0.02654855145214214,-0.224453,-28.464143
11.185,2.0,1.0,1.0,34.7,33.3,33.3,3.5,3.9,2.7275,-0.28026159705340076,-0.026858313564247182,0.932872808367719,-0.027441751235293847,-0.228261,-28.313792
11.185,2.0,1.0,1.0,34.7,33.3,33.3,3.5,3.9,2.73,-0.29488455592113166,-0.026879743289377835,0.9278956536667093,-0.02835715112597949,-0.232158,-28.162609
11.185,2.0,1.0,1.0,34.7,33.3,33.3,3.5,3.9,2.7325,-0.30954385640515686,-0.02688550593870378,0.9226373938594148,-0.02929518221460719,-0.236146,-28.010577
11.185,2.0,1.0,1.0,34.7,33.3,33.3,3.5,3.9,2.735,-0.32423447104357583,-0.026874723192024497,0.9170929182390201,-0.030256279592127254,-0.240228,-27.857675
11.185,2.0,1.0,1.0,34.7,33.3,33.3,3.5,3.9,2.7375,-0.33895113643400476,-0.026846477553092597,0.9112571194683856,-0.03124088229774589,-0.244407,-27.703883
11.185,2.0,1.0,1.0,34.7,33.3,33.3,3.5,3.9,2.74,-0.3536883468961703,-0.026799810558403588,0.9051248997055037,-0.03224943328097561,-0.248686,-27.549179
11.185,2.0,1.0,1.0,34.7,33.3,33.3,3.5,3.9,2.7425,-0.3684403481191082,-0.026733720872437316,0.8986911770435247,-0.03328237938090191,-0.253068,-27.393542
11.185,2.0,1.0,1.0,34.7,33.3,33.3,3.5,3.9,2.745,-0.3832011307994412,-0.02664716225789376,0.8919508922677933,-0.03434017132579711,-0.257557,-27.236948
11.185,2.0,1.0,1.0,34.7,33.3,33.3,3.5,3.9,2.7475,-0.3979644242765829,-0.02653904140802242,0.8848990159312154,-0.03542326375647044,-0.262157,-27.079371
11.185,2.0,1.0,1.0,34.7,33.3,33.3,3.5,3.9,2.75,-0.412723690170133,-0.0264082156265252,0.87753055574818,-0.0365321152770026,-0.26687,-26.920786
11.185,2.0,1.0,1.0,34.7,33.3,33.3,3.5,3.9,2.7525,-0.42747211602365165,-0.026253490338667782,0.869840564305935,-0.03766718853676987,-0.271702,-26.761164
11.185,2.0,1.0,1.0,34.7,33.3,33.3,3.5,3.9,2.755,-0.4422026089579661,-0.026073616415154526,0.8618241470910362,-0.03882895034791219,-0.276657,-26.600478
11.185,2.0,1.0,1.0,34.7,33.3,33.3,3.5,3.9,2.7575,-0.45690778933547405,-0.02586728728797111,0.8534764708269416,-0.040017871842638955,-0.281738,-26.438696
11.185,2.0,1.0,1.0,34.7,33.3,33.3,3.5,3.9,2.76,-0.471579984435209,-0.025633135834722088,0.8447927721173669,-0.041234428674977924,-0.286951,-26.275786
11.185,2.0,1.0,1.0,34.7,33.3,33.3,3.5,3.9,2.7625,-0.48621122213600615,-0.025369731004980297,0.8357683663883092,-0.0424791012717609,-0.292301,-26.111713
11.185,2.0,1.0,1.0,34.7,33.3,33.3,3.5,3.9,2.765,-0.5007932246024526,-0.025075574158728218,0.826398657119972,-0.043752375137779645,-0.297793,-25.946443
11.185,2.0,1.0,1.0,34.7,33.3,33.3,3.5,3.9,2.7675,-0.5153174019649659,-0.02474909508309047,0.8166791453580493,-0.04505474122012937,-0.303433,-25.779936
11.185,2.0,1.0,1.0,34.7,33.3,33.3,3.5,3.9,2.77,-0.5297748459814278,-0.024388647649138857,0.8066054394919591,-0.04638669633676788,-0.309227,-25.612154
11.185,2.0,1.0,1.0,34.7,33.3,33.3,3.5,3.9,2.7725,-0.5441563236632224,-0.023992505065535793,0.796173265285811,-0.04774874367422436,-0.31518,-25.443052
11.185,2.0,1.0,1.0,34.7,33.3,33.3,3.5,3.9,2.775,-0.5584522708430016,-0.023558854680072856,0.7853784761459938,-0.04914139335917754,-0.3213,-25.272587
11.185,2.0,1.0,1.0,34.7,33.3,33.3,3.5,3.9,2.7775,-0.5726527856551925,-0.023085792273663547,0.7742170636074823,-0.05056516310824399,-0.327595,-25.100711
11.185,2.0,1.0,1.0,34.7,33.3,33.3,3.5,3.9,2.78,-0.5867476218927862,-0.022571315783934207,0.7626851680191908,-0.05202057895973894,-0.334071,-24.927373
11.185,2.0,1.0,1.0,34.7,33.3,33.3,3.5,3.9,2.7825,-0.6007261821952565,-0.02201331838710361,0.7507790894071299,-0.053508176090332635,-0.340737,-24.75252
11.185,2.0,1.0,1.0,34.7,33.3,33.3,3.5,3.9,2.785,-0.6145775110123969,-0.021409580857163334,0.7384952984926588,-0.05502849971837935,-0.347603,-24.576096
11.185,2.0,1.0,1.0,34.7,33.3,33.3,3.5,3.9,2.7875,-0.628290287277153,-0.020757763110312848,0.7258304478420785,-0.056582106094135415,-0.354677,-24.39804
11.185,2.0,1.0,1.0,34.7,33.3,33.3,3.5,3.9,2.79,-0.6418528167068883,-0.02005539482990522,0.7127813831230188,-0.058169563575043805,-0.361969,-24.218289
11.185,2.0,1.0,1.0,34.7,33.3,33.3,3.5,3.9,2.7925,-0.6552530236369011,-0.019299865052602203,0.69934515444292,-0.05979145378159047,-0.369491,-24.036776
11.185,2.0,1.0,1.0,34.7,33.3,33.3,3.5,3.9,2.795,-0.6684784422717319,-0.018488410579682174,0.6855190277453347,-0.06144837282581392,-0.377255,-23.853428
11.185,2.0,1.0,1.0,34.7,33.3,33.3,3.5,3.9,2.7975,-0.6815162072186961,-0.01761810305815219,0.6713004962412118,-0.06314093260015038,-0.385273,-23.66817
11.185,2.0,1.0,1.0,34.7,33.3,33.3,3.5,3.9,2.8,-0.6943530431437721,-0.016685834554053397,0.6566872918547376,-0.06486976210873201,-0.393559,-23.48092
11.185,2.0,1.0,1.0,34.7,33.3,33.3,3.5,3.9,2.8025,-0.7069752533615583,-0.01568830141461168,0.6416773966673265,-0.06663550881618818,-0.402129,-23.291594
11.185,2.0,1.0,1.0,34.7,33.3,33.3,3.5,3.9,2.805,-0.7193687071384061,-0.014621986186082382,0.6262690543490657,-0.06843883998009719,-0.410998,-23.100098
11.185,2.0,1.0,1.0,34.7,33.3,33.3,3.5,3.9,2.8075,-0.7315188254496358,-0.01348313731955656,0.6104607815750615,-0.07028044392202171,-0.420184,-22.906337
11.185,2.0,1.0,1.0,34.7,33.3,33.3,3.5,3.9,2.81,-0.7434105648877208,-0.01226774635677924,0.5942513794350763,-0.07216103117796514,-0.429706,-22.710206
11.185,2.0,1.0,1.0,34.7,33.3,33.3,3.5,3.9,2.8125,-0.755028399366932,-0.0109715222412054,0.577639944859604,-0.0740813354513617,-0.439585,-22.511596
11.185,2.0,1.0,1.0,34.7,33.3,33.3,3.5,3.9,2.815,-0.7663562992100358,-0.00958986234483502,0.5606258821048211,-0.07604211426946435,-0.449845,-22.310388
11.185,2.0,1.0,1.0,34.7,33.3,33.3,3.5,3.9,2.8175,-0.7773777071330605,-0.008117819737431984,0.5432089143640791,-0.07804414921601059,-0.46051,-22.106458
11.185,2.0,1.0,1.0,34.7,33.3,33.3,3.5,3.9,2.82,-0.7880755105624488,-0.006550066149789153,0.5253890956062024,-0.08008824557785835,-0.471607,-21.899672
11.185,2.0,1.0,1.0,34.7,33.3,33.3,3.5,3.9,2.8225,-0.7984320096235838,-0.004880849994703272,0.5071668227829325,-0.0821752311989658,-0.483168,-21.689887
11.185,2.0,1.0,1.0,34.7,33.3,33.3,3.5,3.9,2.825,-0.8084288800278456,-0.003103948705785729,0.4885428486016786,-0.08430595427919432,-0.495225,-21.476952
11.185,2.0,1.0,1.0,34.7,33.3,33.3,3.5,3.9,2.8275,-0.8180471299537584,-0.0012126145321766323,0.4695182951289319,-0.08648127978479271,-0.507815,-21.260704
