1,w,sub_t,h,l1,l2,l3,g1,g2,Freq,S11_re,S21_re,S11_img,S21_img,S11_dB,S21_dB
11.185,2.0,1.0,1.0,34.1,33.5,33.5,2.3,1.7,2.5,0.763411206506945,-0.0175150885170031,0.633085090026269,0.01294319210777,-0.071844,-33.239427
11.185,2.0,1.0,1.0,34.1,33.5,33.5,2.3,1.7,2.5025,0.7584936643406329,-0.01786740128448702,0.6388221208054423,0.012978486239332449,-0.07267,-33.118605
11.185,2.0,1.0,1.0,34.1,33.5,33.5,2.3,1.7,2.505,0.7535065105648191,-0.018226392845477453,0.6445491983899375,0.013011365626937657,-0.073512,-32.997316
11.185,2.0,1.0,1.0,34.1,33.5,33.5,2.3,1.7,2.5075,0.7484489955315862,-0.018592202082376805,0.6502657746968076,0.013041719008000873,-0.07437,-32.875554
11.185,2.0,1.0,1.0,34.1,33.5,33.5,2.3,1.7,2.51,0.7433203586236556,-0.018964971219767812,0.6559712847132999,0.01306943064992405,-0.075245,-32.753309
11.185,2.0,1.0,1.0,34.1,33.5,33.5,2.3,1.7,2.5125,0.7381198281328532,-0.019344845911921708,0.6616651459463168,0.013094380157106818,-0.076137,-32.630573
11.185,2.0,1.0,1.0,34.1,33.5,33.5,2.3,1.7,2.515,0.7328466211398953,-0.01973197533251779,0.6673467578529342,0.01311644226879776,-0.077046,-32.507339
11.185,2.0,1.0,1.0,34.1,33.5,33.5,2.3,1.7,2.5175,0.7274999433957197,-0.020126512266608887,0.6730155012512211,0.013135486647306389,-0.077974,-32.383597
11.185,2.0,1.0,1.0,34.1,33.5,33.5,2.3,1.7,2.52,0.7220789892045695,-0.02052861320486856,0.6786707377106243,0.013151377656065987,-0.07892,-32.259338
11.185,2.0,1.0,1.0,34.1,33.5,33.5,2.3,1.7,2.5225,0.7165829413090967,-0.020938438440149205,0.6843118089210893,0.013163974127008468,-0.079886,-32.134555
11.185,2.0,1.0,1.0,34.1,33.5,33.5,2.3,1.7,2.525,0.7110109707777235,-0.021356152166382886,0.6899380360401101,0.013173129116680744,-0.080871,-32.009239
11.185,2.0,1.0,1.0,34.1,33.5,33.5,2.3,1.7,2.5275,0.7053622368945415,-0.02178192257984945,0.6955487190168202,0.013178689650497113,-0.081876,-31.883379
11.185,2.0,1.0,1.0,34.1,33.5,33.5,2.3,1.7,2.53,0.699635887052053,-0.022215921982834497,0.7011431358922129,0.01318049645448732,-0.082902,-31.756967
11.185,2.0,1.0,1.0,34.1,33.5,33.5,2.3,1.7,2.5325,0.6938310566470586,-0.022658326889697118,0.7067205420745342,0.013178383673860294,-0.08395,-31.629993
11.185,2.0,1.0,1.0,34.1,33.5,33.5,2.3,1.7,2.535,0.6879468689800265,-0.023109318135359873,0.7122801695888548,0.013172178577662529,-0.085019,-31.502448
11.185,2.0,1.0,1.0,34.1,33.5,33.5,2.3,1.7,2.5375,0.6819824351583116,-0.023569080986230347,0.7178212262997514,0.013161701248766556,-0.086112,-31.374322
11.185,2.0,1.0,1.0,34.1,33.5,33.5,2.3,1.7,2.54,0.6759368540035968,-0.024037805253556952,0.7233428951060217,0.013146764258377377,-0.087227,-31.245605
11.185,2.0,1.0,1.0,34.1,33.5,33.5,2.3,1.7,2.5425,0.669809211963965,-0.024515685409214453,0.7288443331062573,0.013127172324194778,-0.088367,-31.116287
11.185,2.0,1.0,1.0,34.1,33.5,33.5,2.3,1.7,2.545,0.6635985830310398,-0.025002920703907208,0.7343246707340769,0.013102721951315724,-0.089531,-30.986358
11.185,2.0,1.0,1.0,34.1,33.5,33.5,2.3,1.7,2.5475,0.6573040286626647,-0.02549971528776821,0.7397830108617391,0.013073201054903328,-0.090721,-30.855806
11.185,2.0,1.0,1.0,34.1,33.5,33.5,2.3,1.7,2.55,0.6509245977115973,-0.026006278333325486,0.7452184278708051,0.013038388563588434,-0.091936,-30.724623
11.185,2.0,1.0,1.0,34.1,33.5,33.5,2.3,1.7,2.5525,0.6444593263607754,-0.026522824160790093,0.750629966688437,0.01299805400250201,-0.093179,-30.592796
11.185,2.0,1.0,1.0,34.1,33.5,33.5,2.3,1.7,2.555,0.6379072380656958,-0.027049572365613794,0.7560166417878655,0.01295195705476896,-0.09445,-30.460314
11.185,2.0,1.0,1.0,34.1,33.5,33.5,2.3,1.7,2.5575,0.6312673435045175,-0.02758674794824605,0.7613774361514699,0.012899847100215765,-0.09575,-30.327167
11.185,2.0,1.0,1.0,34.1,33.5,33.5,2.3,1.7,2.56,0.6245386405365391,-0.028134581446004767,0.766711300194823,0.012841462729964477,-0.097079,-30.193342
11.185,2.0,1.0,1.0,34.1,33.5,33.5,2.3,1.7,2.5625,0.6177201141697315,-0.02869330906695875,0.7720171506499934,0.012776531235500443,-0.098439,-30.058828
11.185,2.0,1.0,1.0,34.1,33.5,33.5,2.3,1.7,2.565,0.6108107365380588,-0.029263172825697976,0.7772938694062757,0.012704768070704139,-0.09983,-29.923613
11.185,2.0,1.0,1.0,34.1,33.5,33.5,2.3,1.7,2.5675,0.6038094668893901,-0.029844420680845585,0.7825403023064307,0.01262587628524149,-0.101254,-29.787684
11.185,2.0,1.0,1.0,34.1,33.5,33.5,2.3,1.7,2.57,0.5967152515848205,-0.030437306674141306,0.7877552578964212,0.012539545927597111,-0.102711,-29.65103
11.185,2.0,1.0,1.0,34.1,33.5,33.5,2.3,1.7,2.5725,0.589527024110321,-0.031042091070896647,0.7929375061264937,0.012445453415920007,-0.104203,-29.513637
11.185,2.0,1.0,1.0,34.1,33.5,33.5,2.3,1.7,2.575,0.5822437051016652,-0.031659040501590935,0.7980857770013549,0.012343260874727698,-0.10573,-29.375493
11.185,2.0,1.0,1.0,34.1,33.5,33.5,2.3,1.7,2.5775,0.5748642023836769,-0.032288428104341724,0.8031987591770468,0.012232615435379906,-0.107295,-29.236584
11.185,2.0,1.0,1.0,34.1,33.5,33.5,2.3,1.7,2.58,0.5673874110249005,-0.03293053366794358,0.8082750985019922,0.012113148498090531,-0.108898,-29.096896
11.185,2.0,1.0,1.0,34.1,33.5,33.5,2.3,1.7,2.5825,0.5598122134088719,-0.03358564377512629,0.8133133964995297,0.011984474953090199,-0.11054,-28.956416
11.185,2.0,1.0,1.0,34.1,33.5,33.5,2.3,1.7,2.585,0.5521374793232756,-0.034254051945631164,0.8183122087890985,0.011846192358386106,-0.112223,-28.815129
11.185,2.0,1.0,1.0,34.1,33.5,33.5,2.3,1.7,2.5875,0.5443620660683378,-0.034936058778653245,0.8232700434430543,0.011697880071384562,-0.113948,-28.673022
11.185,2.0,1.0,1.0,34.1,33.5,33.5,2.3,1.7,2.59,0.5364848185859368,-0.0356319720941299,0.8281853592759166,0.011539098331447744,-0.115717,-28.530079
11.185,2.0,1.0,1.0,34.1,33.5,33.5,2.3,1.7,2.5925,0.5285045696109919,-0.036342107072293656,0.8330565640626565,0.0113693872902474,-0.117531,-28.386285
11.185,2.0,1.0,1.0,34.1,33.5,33.5,2.3,1.7,2.595,0.5204201398468484,-0.03706678639082424,0.8378820126823864,0.011188265986550209,-0.119392,-28.241625
11.185,2.0,1.0,1.0,34.1,33.5,33.5,2.3,1.7,2.5975,0.5122303381664635,-0.03780634035885201,0.842660005183622,0.010995231261824816,-0.121301,-28.096082
11.185,2.0,1.0,1.0,34.1,33.5,33.5,2.3,1.7,2.6,0.5039339618413681,-0.03856110704696803,0.8473887847670138,0.010789756612797638,-0.123261,-27.949641
11.185,2.0,1.0,1.0,34.1,33.5,33.5,2.3,1.7,2.6025,0.4955297968005448,-0.03933143241228636,0.8520665356811644,0.010571290976794934,-0.125272,-27.802286
11.185,2.0,1.0,1.0,34.1,33.5,33.5,2.3,1.7,2.605,0.4870166179214882,-0.04011767041748605,0.8566913810268787,0.010339257445401566,-0.127337,-27.653998
11.185,2.0,1.0,1.0,34.1,33.5,33.5,2.3,1.7,2.6075,0.47839318935594344,-0.040920183142622066,0.8612613804648668,0.010093051901627308,-0.129457,-27.504761
11.185,2.0,1.0,1.0,34.1,33.5,33.5,2.3,1.7,2.61,0.469658264893005,-0.04173934088834648,0.8657745278215652,0.009832041575411782,-0.131636,-27.354557
11.185,2.0,1.0,1.0,34.1,33.5,33.5,2.3,1.7,2.6125,0.460810588362473,-0.04257552226900754,0.8702287485873879,0.009555563511898289,-0.133875,-27.203367
11.185,2.0,1.0,1.0,34.1,33.5,33.5,2.3,1.7,2.615,0.4518488940816116,-0.0434291142939093,0.8746218973013137,0.009262922946483204,-0.136176,-27.051174
11.185,2.0,1.0,1.0,34.1,33.5,33.5,2.3,1.7,2.6175,0.44277190734874594,-0.04430051243479567,0.8789517548152618,0.008953391580178008,-0.138541,-26.897957
11.185,2.0,1.0,1.0,34.1,33.5,33.5,2.3,1.7,2.62,0.43357834498739767,-0.04519012067738759,0.8832160254312478,0.008626205748316856,-0.140974,-26.743697
11.185,2.0,1.0,1.0,34.1,33.5,33.5,2.3,1.7,2.6225,0.4242669159450033,-0.04609835155453282,0.8874123339038044,0.008280564475090664,-0.143476,-26.588375
11.185,2.0,1.0,1.0,34.1,33.5,33.5,2.3,1.7,2.625,0.414836321950642,-0.0470256261582236,0.89153822229955,0.0079156274057922,-0.146052,-26.431968
11.185,2.0,1.0,1.0,34.1,33.5,33.5,2.3,1.7,2.6275,0.40528525823655026,-0.04797237412740385,0.8955911467052301,0.007530512608001541,-0.148702,-26.274456
11.185,2.0,1.0,1.0,34.1,33.5,33.5,2.3,1.7,2.63,0.3956124143286965,-0.04893903360809873,0.8995684737748526,0.0071242942322330026,-0.151431,-26.115818
11.185,2.0,1.0,1.0,34.1,33.5,33.5,2.3,1.7,2.6325,0.38581647491215737,-0.04992605118197925,0.903467477105811,0.006696000021790712,-0.154242,-25.95603
11.185,2.0,1.0,1.0,34.1,33.5,33.5,2.3,1.7,2.635,0.375896120777596,-0.05093388175898292,0.9072853334331152,0.0062446086607340365,-0.157137,-25.79507
11.185,2.0,1.0,1.0,34.1,33.5,33.5,2.3,1.7,2.6375,0.36585002985574555,-0.05196298842907185,0.9110191186299762,0.005769046947933714,-0.160121,-25.632914
11.185,2.0,1.0,1.0,34.1,33.5,33.5,2.3,1.7,2.64,0.35567687834749084,-0.053013842267594584,0.9146658035020243,0.005268186784193102,-0.163198,-25.469538
11.185,2.0,1.0,1.0,34.1,33.5,33.5,2.3,1.7,2.6425,0.3453753419579116,-0.054086922088023424,0.9182222493614318,0.004740841958308382,-0.166371,-25.304916
11.185,2.0,1.0,1.0,34.1,33.5,33.5,2.3,1.7,2.645,0.33494409724348256,-0.05518271413505506,0.9216852033660653,0.00418576471674101,-0.169644,-25.139023
11.185,2.0,1.0,1.0,34.1,33.5,33.5,2.3,1.7,2.6475,0.3243818230826188,-0.056301711710177636,0.9250512936075339,0.003601642100259389,-0.173022,-24.971832
11.185,2.0,1.0,1.0,34.1,33.5,33.5,2.3,1.7,2.65,0.313687202280774,-0.05744441472080564,0.9283170239306703,0.002987092029467057,-0.176509,-24.803316
11.185,2.0,1.0,1.0,34.1,33.5,33.5,2.3,1.7,2.6525,0.3028589233225865,-0.05861132914294264,0.9314787684654564,0.0023406591195615787,-0.18011,-24.633448
11.185,2.0,1.0,1.0,34.1,33.5,33.5,2.3,1.7,2.655,0.2918956822848401,-0.059802966386052744,0.9345327658507863,0.001660810202936165,-0.183832,-24.462197
11.185,2.0,1.0,1.0,34.1,33.5,33.5,2.3,1.7,2.6575,0.2807961849256024,-0.06101984254735198,0.9374751131276607,0.0009459295363476684,-0.187678,-24.289535
11.185,2.0,1.0,1.0,34.1,33.5,33.5,2.3,1.7,2.66,0.26955914896661604,-0.06226247754107674,0.9403017592774069,0.0001943136672962151,-0.191654,-24.11543
11.185,2.0,1.0,1.0,34.1,33.5,33.5,2.3,1.7,2.6625,0.2581833065879755,-0.06353139408639187,0.9430084983783749,-0.0005958340680159374,-0.195768,-23.93985
11.185,2.0,1.0,1.0,34.1,33.5,33.5,2.3,1.7,2.665,0.246667407156324,-0.06482711653546153,0.9455909623521653,-0.0014264094452801663,-0.200025,-23.762764
11.185,2.0,1.0,1.0,34.1,33.5,33.5,2.3,1.7,2.6675,0.2350102202103732,-0.06615016952074534,0.948044613267797,-0.0022994136841077008,-0.204433,-23.584136
11.185,2.0,1.0,1.0,34.1,33.5,33.5,2.3,1.7,2.67,0.2232105387303476,-0.06750107639779748,0.9503647351693532,-0.0032169602473831097,-0.208998,-23.403933
11.185,2.0,1.0,1.0,34.1,33.5,33.5,2.3,1.7,2.6725,0.21126718272123496,-0.06888035745665601,0.9525464253894738,-0.00418128214714959,-0.213729,-23.222118
11.185,2.0,1.0,1.0,34.1,33.5,33.5,2.3,1.7,2.675,0.19917900314346107,-0.07028852787125428,0.9545845853075104,-0.005194739799873591,-0.218633,-23.038654
11.185,2.0,1.0,1.0,34.1,33.5,33.5,2.3,1.7,2.6775,0.1869448862287812,-0.07172609535212307,0.9564739105073808,-0.00625982947793689,-0.223721,-22.853502
11.185,2.0,1.0,1.0,34.1,33.5,33.5,2.3,1.7,2.68,0.17456375822406475,-0.07319355746285894,0.958208880285834,-0.00737919240860108,-0.229,-22.666623
11.185,2.0,1.0,1.0,34.1,33.5,33.5,2.3,1.7,2.6825,0.16203459061117134,-0.07469139855535124,0.9597837464572325,-0.008555624576516886,-0.234483,-22.477976
11.185,2.0,1.0,1.0,34.1,33.5,33.5,2.3,1.7,2.685,0.1493564058574542,-0.07622008627245411,0.9611925213957745,-0.0097920872911652,-0.240178,-22.287517
11.185,2.0,1.0,1.0,34.1,33.5,33.5,2.3,1.7,2.6875,0.13652828375871934,-0.0777800675595394,0.962428965250445,-0.011091718586440594,-0.246098,-22.095202
11.185,2.0,1.0,1.0,34.1,33.5,33.5,2.3,1.7,2.69,0.12354936844487786,-0.07937176411801532,0.9634865722617417,-0.012457845525987271,-0.252255,-21.900987
11.185,2.0,1.0,1.0,34.1,33.5,33.5,2.3,1.7,2.6925,0.11041887612810282,-0.08099556722427038,0.9643585561024107,-0.013893997494922644,-0.258662,-21.704823
11.185,2.0,1.0,1.0,34.1,33.5,33.5,2.3,1.7,2.695,0.09713610368453869,-0.08265183182638325,0.9650378341569068,-0.015403920566265357,-0.265334,-21.506662
11.185,2.0,1.0,1.0,34.1,33.5,33.5,2.3,1.7,2.6975,0.08370043817333775,-0.08434086981809572,0.965517010646066,-0.016991593038815627,-0.272286,-21.306453
11.185,2.0,1.0,1.0,34.1,33.5,33.5,2.3,1.7,2.7,0.07011136741178313,-0.08606294237466149,0.9657883584944895,-0.018661242252426085,-0.279533,-21.104142
11.185,2.0,1.0,1.0,34.1,33.5,33.5,2.3,1.7,2.7025,0.056368491742377416,-0.08781825121795178,0.9658437998282745,-0.020417362796645706,-0.287095,-20.899675
11.185,2.0,1.0,1.0,34.1,33.5,33.5,2.3,1.7,2.705,0.04247153714782216,-0.0896069286581736,0.9656748849800327,-0.02226473623963156,-0.294989,-20.692995
11.185,2.0,1.0,1.0,34.1,33.5,33.5,2.3,1.7,2.7075,0.0284203698929973,-0.0914290262363076,0.965272769866461,-0.02420845251606926,-0.303236,-20.484043
11.185,2.0,1.0,1.0,34.1,33.5,33.5,2.3,1.7,2.71,0.014215012900046913,-0.09328450176427992,0.9646281915911568,-0.026253933125637802,-0.311858,-20.272758
11.185,2.0,1.0,1.0,34.1,33.5,33.5,2.3,1.7,2.7125,-0.00014433590583612913,-0.09517320452834056,0.9637314421117618,-0.028406956307315562,-0.320879,-20.059076
11.185,2.0,1.0,1.0,34.1,33.5,33.5,2.3,1.7,2.715,-0.014657283005595682,-0.09709485838427276,0.9625723397960113,-0.030673684369524445,-0.330326,-19.84293
11.185,2.0,1.0,1.0,34.1,33.5,33.5,2.3,1.7,2.7175,-0.029323216133256762,-0.09904904243001575,0.9611401986758129,-0.03306069337170596,-0.340225,-19.624252
11.185,2.0,1.0,1.0,34.1,33.5,33.5,2.3,1.7,2.72,-0.04414127819311266,-0.10103516889089031,0.9594237951922664,-0.035575005369282306,-0.350607,-19.40297
11.185,2.0,1.0,1.0,34.1,33.5,33.5,2.3,1.7,2.7225,-0.05911033782084936,-0.1030524577935619,0.9574113322076762,-0.038224123450916775,-0.361506,-19.17901
11.185,2.0,1.0,1.0,34.1,33.5,33.5,2.3,1.7,2.725,-0.07422895609307407,-0.10509990793557074,0.9550904000434535,-0.04101606981421141,-0.372957,-18.952293
11.185,2.0,1.0,1.0,34.1,33.5,33.5,2.3,1.7,2.7275,-0.08949534880861139,-0.10717626357581178,0.952447934285728,-0.04395942714309096,-0.384999,-18.722739
11.185,2.0,1.0,1.0,34.1,33.5,33.5,2.3,1.7,2.73,-0.1049073436692801,-0.10927997617550991,0.9494701700841999,-0.047063383566411765,-0.397675,-18.490265
11.185,2.0,1.0,1.0,34.1,33.5,33.5,2.3,1.7,2.7325,-0.12046233157520621,-0.11140916040633664,0.9461425926549286,-0.050337781491990426,-0.411032,-18.254781
11.185,2.0,1.0,1.0,34.1,33.5,33.5,2.3,1.7,2.735,-0.13615721111695184,-0.11356154350913654,0.9424498836859758,-0.05379317062197176,-0.425122,-18.016198
11.185,2.0,1.0,1.0,34.1,33.5,33.5,2.3,1.7,2.7375,-0.15198832518968586,-0.11573440692949341,0.9383758633372786,-0.05744086546258456,-0.439999,-17.77442
11.185,2.0,1.0,1.0,34.1,33.5,33.5,2.3,1.7,2.74,-0.1679513884691481,-0.11792451897049164,0.9339034275255932,-0.06129300764153471,-0.455726,-17.529349
11.185,2.0,1.0,1.0,34.1,33.5,33.5,2.3,1.7,2.7425,-0.18404140426963173,-0.12012805698316573,0.929014480194609,-0.06536263333643504,-0.47237,-17.280882
11.185,2.0,1.0,1.0,34.1,33.5,33.5,2.3,1.7,2.745,-0.200252569044151,-0.12234051735481737,0.9236898602937019,-0.06966374609352749,-0.490007,-17.028911
11.185,2.0,1.0,1.0,34.1,33.5,33.5,2.3,1.7,2.7475,-0.21657816247903014,-0.12455661124706992,0.9179092632319216,-0.07421139527186925,-0.508719,-16.773326
11.185,2.0,1.0,1.0,34.1,33.5,33.5,2.3,1.7,2.75,-0.233010420769952,-0.126770143670219,0.91165115664409,-0.0790217602765365,-0.528597,-16.51401
11.185,2.0,1.0,1.0,34.1,33.5,33.5,2.3,1.7,2.7525,-0.2495403902339635,-0.12897387304761207,0.9048926904136342,-0.08411224063513341,-0.549742,-16.250844
11.185,2.0,1.0,1.0,34.1,33.5,33.5,2.3,1.7,2.755,-0.26615775789918866,-0.1311593479111684,0.8976096010550627,-0.08950155181150508,-0.572268,-15.983703
11.185,2.0,1.0,1.0,34.1,33.5,33.5,2.3,1.7,2.7575,-0.2828506551072044,-0.13331671676248114,0.8897761107859209,-0.09520982642115303,-0.5963,-15.712457
11.185,2.0,1.0,1.0,34.1,33.5,33.5,2.3,1.7,2.76,-0.299605429445554,-0.13543450641701418,0.8813648219372293,-0.10125872019059466,-0.621977,-15.436972
11.185,2.0,1.0,1.0,34.1,33.5,33.5,2.3,1.7,2.7625,-0.31640637948147127,-0.13749936330345297,0.8723466077941181,-0.10767152155634158,-0.649456,-15.157111
11.185,2.0,1.0,1.0,34.1,33.5,33.5,2.3,1.7,2.765,-0.3332354457723814,-0.1394957511962827,0.8626905015664864,-0.11447326318643336,-0.678913,-14.87273
11.185,2.0,1.0,1.0,34.1,33.5,33.5,2.3,1.7,2.7675,-0.35007185046266565,-0.14140559769608713,0.8523635860179299,-0.12169083287337357,-0.710545,-14.583683
11.185,2.0,1.0,1.0,34.1,33.5,33.5,2.3,1.7,2.77,-0.3668916764186559,-0.1432078804179111,0.8413308874027656,-0.12935308011889485,-0.744573,-14.28982
11.185,2.0,1.0,1.0,34.1,33.5,33.5,2.3,1.7,2.7725,-0.38366737528530687,-0.14487814228487808,0.829555278871629,-0.13749091321209758,-0.78125,-13.990987
11.185,2.0,1.0,1.0,34.1,33.5,33.5,2.3,1.7,2.775,-0.40036719205641974,-0.14638792353987148,0.8169974005320041,-0.14613737956685666,-0.820858,-13.687028
11.185,2.0,1.0,1.0,34.1,33.5,33.5,2.3,1.7,2.7775,-0.41695449173477184,-0.14770409608289684,0.8036156060563548,-0.15532771936648757,-0.86372,-13.377788
11.185,2.0,1.0,1.0,34.1,33.5,33.5,2.3,1.7,2.78,-0.4333869714410598,-0.14878808353858028,0.7893659493328932,-0.165099378947824,-0.910205,-13.063109
11.185,2.0,1.0,1.0,34.1,33.5,33.5,2.3,1.7,2.7825,-0.44961573897051044,-0.14959494811798602,0.77420222943183,-0.17549196556354535,-0.96073,-12.742837
11.185,2.0,1.0,1.0,34.1,33.5,33.5,2.3,1.7,2.785,-0.4655842364141942,-0.1500723229841075,0.7580761184723526,-0.1865471188318357,-1.015776,-12.416822
11.185,2.0,1.0,1.0,34.1,33.5,33.5,2.3,1.7,2.7875,-0.4812269852757543,-0.1501591666809572,0.7409374052793506,-0.19830826585990774,-1.075895,-12.084922
11.185,2.0,1.0,1.0,34.1,33.5,33.5,2.3,1.7,2.79,-0.49646812789121625,-0.1497843146131378,0.7227343985849607,-0.2108202161426404,-1.141722,-11.747005
11.185,2.0,1.0,1.0,34.1,33.5,33.5,2.3,1.7,2.7925,-0.5112197394956431,-0.14886480216635242,0.7034145476573901,-0.2241285381925225,-1.213991,-11.402954
11.185,2.0,1.0,1.0,34.1,33.5,33.5,2.3,1.7,2.795,-0.525379886913551,-0.1473039357827489,0.6829253564542197,-0.2382786416295606,-1.293556,-11.052678
11.185,2.0,1.0,1.0,34.1,33.5,33.5,2.3,1.7,2.7975,-0.5388304150202896,-0.1449890935956006,0.6612156906268641,-0.25331446522837925,-1.381405,-10.696111
11.185,2.0,1.0,1.0,34.1,33.5,33.5,2.3,1.7,2.8,-0.5514344529952044,-0.1417892482596691,0.6382376058934334,-0.2692766422473017,-1.478695,-10.333229
11.185,2.0,1.0,1.0,34.1,33.5,33.5,2.3,1.7,2.8025,-0.5630336521535562,-0.13755222458551547,0.6139488622386936,-0.2861999784761989,-1.58678,-9.964057
11.185,2.0,1.0,1.0,34.1,33.5,33.5,2.3,1.7,2.805,-0.5734452003935187,-0.13210173809826892,0.5883163313784923,-0.30411003557331046,-1.707249,-9.588688
11.185,2.0,1.0,1.0,34.1,33.5,33.5,2.3,1.7,2.8075,-0.5824587114605816,-0.1252343141338608,0.5613205541034592,-0.3230185632896779,-1.841973,-9.207296
11.185,2.0,1.0,1.0,34.1,33.5,33.5,2.3,1.7,2.81,-0.5898331690192096,-0.11671626926440158,0.5329617564704534,-0.34291747217830437,-1.993163,-8.820162
11.185,2.0,1.0,1.0,34.1,33.5,33.5,2.3,1.7,2.8125,-0.5952942271559338,-0.10628105891778396,0.5032676824172491,-0.36377099035052407,-2.163439,-8.4277
11.185,2.0,1.0,1.0,34.1,33.5,33.5,2.3,1.7,2.815,-0.5985323438475944,-0.09362747040620858,0.4723036317872987,-0.3855056173244396,-2.355909,-8.030486
11.185,2.0,1.0,1.0,34.1,33.5,33.5,2.3,1.7,2.8175,-0.5992024661681705,-0.07841938315470719,0.4401850832380742,-0.40799749886693726,-2.574269,-7.629301
11.185,2.0,1.0,1.0,34.1,33.5,33.5,2.3,1.7,2.82,-0.596926306202525,-0.060288138148565366,0.4070931922133532,-0.4310569379606806,-2.822913,-7.225174
11.185,2.0,1.0,1.0,34.1,33.5,33.5,2.3,1.7,2.8225,-0.5912986435807088,-0.03883895494344745,0.3732932259146177,-0.4544099879264194,-3.107072,-6.819431
11.185,2.0,1.0,1.0,34.1,33.5,33.5,2.3,1.7,2.825,-0.5818995360129801,-0.013663278214125137,0.3391555472798366,-0.47767752704658956,-3.432948,-6.413752
11.185,2.0,1.0,1.0,34.1,33.5,33.5,2.3,1.7,2.8275,-0.5683147336707298,0.015640653581372805,0.3051779859701345,-0.5003529919164438,-3.807864,-6.010228
11.185,2.0,1.0,1.0,34.1,33.5,33.5,2.3,1.7,2.83,-0.5501668127163947,0.04943651231331866,0.2720072347907849,-0.5217811498833259,-4.240373,-5.611421
