1,w,sub_t,h,l1,l2,l3,g1,g2,Freq,S11_re,S21_re,S11_img,S21_img,S11_dB,S21_dB
11.185,2.0,1.0,1.0,34.0,33.3,33.3,2.4,2.4,2.5,0.781426198948046,-0.0127728512030523,0.612026983275653,0.00913759844931657,-0.064739,-36.07934
11.185,2.0,1.0,1.0,34.0,33.3,33.3,2.4,2.4,2.5025,0.7768423618852872,-0.013019303051392882,0.6177107994945792,0.009156099757572889,-0.065414,-35.963024
11.185,2.0,1.0,1.0,34.0,33.3,33.3,2.4,2.4,2.505,0.7721939021240358,-0.013270055180503778,0.623386941255066,0.009172806376835914,-0.066102,-35.846347
11.185,2.0,1.0,1.0,34.0,33.3,33.3,2.4,2.4,2.5075,0.7674801553607067,-0.013525187829019021,0.6290549432256916,0.009187644739288073,-0.066802,-35.729303
11.185,2.0,1.0,1.0,34.0,33.3,33.3,2.4,2.4,2.51,0.7627004480446301,-0.01378478289554611,0.6347143263433375,0.009200538574963519,-0.067515,-35.611885
11.185,2.0,1.0,1.0,34.0,33.3,33.3,2.4,2.4,2.5125,0.7578540972898421,-0.014048923971921763,0.6403645973828255,0.009211408806367366,-0.068241,-35.494086
11.185,2.0,1.0,1.0,34.0,33.3,33.3,2.4,2.4,2.515,0.75294041078894,-0.01431769637686371,0.6460052485129644,0.009220173438652363,-0.068981,-35.3759
11.185,2.0,1.0,1.0,34.0,33.3,33.3,2.4,2.4,2.5175,0.7479586867292426,-0.01459118718999746,0.65163575683854,0.009226747445149322,-0.069734,-35.257318
11.185,2.0,1.0,1.0,34.0,33.3,33.3,2.4,2.4,2.52,0.7429082137114686,-0.014869485286235282,0.6572555839278014,0.009231042648036848,-0.070501,-35.138335
11.185,2.0,1.0,1.0,34.0,33.3,33.3,2.4,2.4,2.5225,0.7377882706712099,-0.015152681370480366,0.6628641753249317,0.00923296759392489,-0.071283,-35.018943
11.185,2.0,1.0,1.0,34.0,33.3,33.3,2.4,2.4,2.525,0.7325981268034366,-0.015440868012627255,0.6684609600470263,0.009232427424115569,-0.072079,-34.899135
11.185,2.0,1.0,1.0,34.0,33.3,33.3,2.4,2.4,2.5275,0.7273370414903342,-0.015734139682825027,0.6740453500650543,0.00922932373929245,-0.072891,-34.778903
11.185,2.0,1.0,1.0,34.0,33.3,33.3,2.4,2.4,2.53,0.7220042642327619,-0.016032592786966022,0.6796167397682555,0.009223554458376764,-0.073718,-34.658241
11.185,2.0,1.0,1.0,34.0,33.3,33.3,2.4,2.4,2.5325,0.716599034585651,-0.016336325702359034,0.6851745054114283,0.009215013671275384,-0.074561,-34.53714
11.185,2.0,1.0,1.0,34.0,33.3,33.3,2.4,2.4,2.535,0.7111205820976717,-0.016645438813541462,0.6907180045445315,0.009203591485231422,-0.07542,-34.415594
11.185,2.0,1.0,1.0,34.0,33.3,33.3,2.4,2.4,2.5375,0.7055681262555357,-0.01696003454817861,0.6962465754239949,0.009189173864472966,-0.076296,-34.293594
11.185,2.0,1.0,1.0,34.0,33.3,33.3,2.4,2.4,2.54,0.6999408764332956,-0.017280217412995003,0.701759536405133,0.009171642462839986,-0.077189,-34.171132
11.185,2.0,1.0,1.0,34.0,33.3,33.3,2.4,2.4,2.5425,0.6942380318470476,-0.017606094029675376,0.7072561853150138,0.009150874449051475,-0.078099,-34.048202
11.185,2.0,1.0,1.0,34.0,33.3,33.3,2.4,2.4,2.545,0.6884587815154541,-0.01793777317066658,0.7127357988051233,0.009126742324259064,-0.079027,-33.924794
11.185,2.0,1.0,1.0,34.0,33.3,33.3,2.4,2.4,2.5475,0.6826023042265406,-0.018275365794805612,0.7181976316831347,0.009099113731512174,-0.079974,-33.800901
11.185,2.0,1.0,1.0,34.0,33.3,33.3,2.4,2.4,2.55,0.6766677685112238,-0.018618985082691216,0.7236409162230802,0.009067851256741378,-0.08094,-33.676515
11.185,2.0,1.0,1.0,34.0,33.3,33.3,2.4,2.4,2.5525,0.6706543326240928,-0.01896874647170721,0.7290648614531695,0.009032812220845267,-0.081925,-33.551627
11.185,2.0,1.0,1.0,34.0,33.3,33.3,2.4,2.4,2.555,0.6645611445319526,-0.019324767690599542,0.734468652420508,0.008993848462442675,-0.08293,-33.426229
11.185,2.0,1.0,1.0,34.0,33.3,33.3,2.4,2.4,2.5575,0.658387341910699,-0.01968716879349665,0.7398514494319158,0.00895080611082975,-0.083956,-33.300312
11.185,2.0,1.0,1.0,34.0,33.3,33.3,2.4,2.4,2.56,0.6521320521511221,-0.020056072193254552,0.7452123872700179,0.008903525348655447,-0.085003,-33.173868
11.185,2.0,1.0,1.0,34.0,33.3,33.3,2.4,2.4,2.5625,0.6457943923742594,-0.020431602693995167,0.7505505743837569,0.008851840163801973,-0.086071,-33.046887
11.185,2.0,1.0,1.0,34.0,33.3,33.3,2.4,2.4,2.565,0.639373469456963,-0.020813887522696205,0.7558650920524514,0.008795578089929066,-0.087161,-32.919361
11.185,2.0,1.0,1.0,34.0,33.3,33.3,2.4,2.4,2.5675,0.632868380068394,-0.02120305635967542,0.7611549935224622,0.008734559935110705,-0.088274,-32.791281
11.185,2.0,1.0,1.0,34.0,33.3,33.3,2.4,2.4,2.57,0.6262782107181742,-0.02159924136779949,0.7664193031155302,0.0086685994979604,-0.089411,-32.662637
11.185,2.0,1.0,1.0,34.0,33.3,33.3,2.4,2.4,2.5725,0.6196020378169953,-0.022002577220231738,0.7716570153077876,0.008597503270608133,-0.090571,-32.533421
11.185,2.0,1.0,1.0,34.0,33.3,33.3,2.4,2.4,2.575,0.6128389277505063,-0.022413201126515653,0.7768670937784172,0.008521070127855032,-0.091756,-32.403622
11.185,2.0,1.0,1.0,34.0,33.3,33.3,2.4,2.4,2.5775,0.6059879369673751,-0.02283125285677309,0.7820484704268895,0.008439091001794312,-0.092966,-32.273231
11.185,2.0,1.0,1.0,34.0,33.3,33.3,2.4,2.4,2.58,0.5990481120824505,-0.023256874763775814,0.7872000443576662,0.00835134854114579,-0.094203,-32.142238
11.185,2.0,1.0,1.0,34.0,33.3,33.3,2.4,2.4,2.5825,0.5920184899960094,-0.023690211802628407,0.7923206808312271,0.0082576167545083,-0.095466,-32.010633
11.185,2.0,1.0,1.0,34.0,33.3,33.3,2.4,2.4,2.585,0.5848980980301456,-0.024131411547775556,0.7974092101802011,0.008157660636687608,-0.096757,-31.878407
11.185,2.0,1.0,1.0,34.0,33.3,33.3,2.4,2.4,2.5875,0.5776859540833927,-0.0245806242070226,0.8024644266893853,0.008051235777208598,-0.098076,-31.745547
11.185,2.0,1.0,1.0,34.0,33.3,33.3,2.4,2.4,2.59,0.5703810668047707,-0.02503800263222896,0.8074850874383178,0.007938087950068902,-0.099424,-31.612045
11.185,2.0,1.0,1.0,34.0,33.3,33.3,2.4,2.4,2.5925,0.5629824357884782,-0.02550370232630553,0.8124699111050874,0.007817952683733649,-0.100803,-31.47789
11.185,2.0,1.0,1.0,34.0,33.3,33.3,2.4,2.4,2.595,0.5554890517905673,-0.02597788144611215,0.8174175767299474,0.0076905548103134574,-0.102212,-31.343069
11.185,2.0,1.0,1.0,34.0,33.3,33.3,2.4,2.4,2.5975,0.5478998969689685,-0.026460700800818013,0.8223267224372921,0.007555607992802811,-0.103653,-31.207573
11.185,2.0,1.0,1.0,34.0,33.3,33.3,2.4,2.4,2.6,0.5402139451483551,-0.026952323845246342,0.8271959441144527,0.007412814229189652,-0.105127,-31.071391
11.185,2.0,1.0,1.0,34.0,33.3,33.3,2.4,2.4,2.6025,0.5324301621114118,-0.027452916667683794,0.8320237940457303,0.0072618633321733465,-0.106635,-30.934509
11.185,2.0,1.0,1.0,34.0,33.3,33.3,2.4,2.4,2.605,0.5245475059181468,-0.027962647971588376,0.836808779500008,0.007102432383152546,-0.108177,-30.796918
11.185,2.0,1.0,1.0,34.0,33.3,33.3,2.4,2.4,2.6075,0.5165649272550188,-0.028481689050579063,0.8415493612702016,0.006934185159060799,-0.109755,-30.658605
11.185,2.0,1.0,1.0,34.0,33.3,33.3,2.4,2.4,2.61,0.5084813698157312,-0.029010213756035227,0.8462439521627494,0.006756771530540522,-0.11137,-30.519557
11.185,2.0,1.0,1.0,34.0,33.3,33.3,2.4,2.4,2.6125,0.5002957707156669,-0.029548398456574334,0.8508909154352527,0.006569826829850852,-0.113023,-30.379763
11.185,2.0,1.0,1.0,34.0,33.3,33.3,2.4,2.4,2.615,0.49200706094205415,-0.030096421988610584,0.855488563180284,0.00637297118680544,-0.114715,-30.23921
11.185,2.0,1.0,1.0,34.0,33.3,33.3,2.4,2.4,2.6175,0.48361416584208927,-0.030654465597125344,0.8600351546533098,0.006165808830926332,-0.116448,-30.097884
11.185,2.0,1.0,1.0,34.0,33.3,33.3,2.4,2.4,2.62,0.475116005651375,-0.03122271286570256,0.8645288945425492,0.005947927357886637,-0.118223,-29.955773
11.185,2.0,1.0,1.0,34.0,33.3,33.3,2.4,2.4,2.6225,0.46651149606516057,-0.031801349634796375,0.8689679311785322,0.0057188969581890015,-0.12004,-29.812863
11.185,2.0,1.0,1.0,34.0,33.3,33.3,2.4,2.4,2.625,0.457799548855077,-0.0323905639071042,0.873350354680945,0.00547826960589553,-0.121902,-29.669141
11.185,2.0,1.0,1.0,34.0,33.3,33.3,2.4,2.4,2.6275,0.44897907253415337,-0.032990545738817774,0.8776741950403206,0.00522557820508117,-0.12381,-29.524593
11.185,2.0,1.0,1.0,34.0,33.3,33.3,2.4,2.4,2.63,0.44004897307315194,-0.03360148711540974,0.8819374201319196,0.004960335691530625,-0.125765,-29.379203
11.185,2.0,1.0,1.0,34.0,33.3,33.3,2.4,2.4,2.6325,0.4310081546714022,-0.034223581810493724,0.8861379336590867,0.004682034087034181,-0.12777,-29.232959
11.185,2.0,1.0,1.0,34.0,33.3,33.3,2.4,2.4,2.635,0.4218555205855416,-0.03485702522615768,0.890273573023183,0.004390143503461767,-0.129825,-29.085843
11.185,2.0,1.0,1.0,34.0,33.3,33.3,2.4,2.4,2.6375,0.4125899740197949,-0.03550201421302431,0.8943421071170621,0.0040841110936055145,-0.131932,-28.937843
11.185,2.0,1.0,1.0,34.0,33.3,33.3,2.4,2.4,2.64,0.4032104190816366,-0.03615874686813016,0.8983412340388962,0.003763359945576033,-0.134094,-28.788941
11.185,2.0,1.0,1.0,34.0,33.3,33.3,2.4,2.4,2.6425,0.39371576180697476,-0.036827422308534925,0.9022685787229758,0.003427287917319993,-0.136311,-28.639122
11.185,2.0,1.0,1.0,34.0,33.3,33.3,2.4,2.4,2.645,0.3841049112592361,-0.037508240418376804,0.9061216904839345,0.0030752664075897806,-0.138586,-28.48837
11.185,2.0,1.0,1.0,34.0,33.3,33.3,2.4,2.4,2.6475,0.37437678070706143,-0.038201401566874085,0.9098980404706307,0.0027066390594422058,-0.140922,-28.336667
11.185,2.0,1.0,1.0,34.0,33.3,33.3,2.4,2.4,2.65,0.3645302888855927,-0.038907106294535705,0.9135950190257389,0.0023207203920686766,-0.143319,-28.183997
11.185,2.0,1.0,1.0,34.0,33.3,33.3,2.4,2.4,2.6525,0.3545643613467677,-0.039625554964577724,0.91720993294682,0.0019167943564661696,-0.14578,-28.030343
11.185,2.0,1.0,1.0,34.0,33.3,33.3,2.4,2.4,2.655,0.3444779319043087,-0.04035694737625925,0.9207400026444416,0.0014941128101374195,-0.148309,-27.875685
11.185,2.0,1.0,1.0,34.0,33.3,33.3,2.4,2.4,2.6575,0.3342699441795875,-0.041101482336526544,0.92418235919262,0.0010518939056671534,-0.150906,-27.720007
11.185,2.0,1.0,1.0,34.0,33.3,33.3,2.4,2.4,2.66,0.32393935325494283,-0.041859357186004316,0.9275340412665837,0.0005893203876500123,-0.153574,-27.563288
11.185,2.0,1.0,1.0,34.0,33.3,33.3,2.4,2.4,2.6625,0.3134851274415552,-0.04263076727498136,0.9307919919625044,0.00010553779204510426,-0.156317,-27.40551
11.185,2.0,1.0,1.0,34.0,33.3,33.3,2.4,2.4,2.665,0.30290625016943457,-0.04341590538460848,0.9339530554935744,-0.00040034745840087125,-0.159137,-27.246653
11.185,2.0,1.0,1.0,34.0,33.3,33.3,2.4,2.4,2.6675,0.2922017220077589,-0.04421496108804411,0.9370139737563609,-0.0009292700694863737,-0.162037,-27.086697
11.185,2.0,1.0,1.0,34.0,33.3,33.3,2.4,2.4,2.67,0.28137056282432604,-0.045028120045757306,0.939971382761022,-0.001482208008975796,-0.16502,-26.92562
11.185,2.0,1.0,1.0,34.0,33.3,33.3,2.4,2.4,2.6725,0.27041181409363,-0.04585556322860721,0.9428218089185184,-0.0020601847659860607,-0.168089,-26.763402
11.185,2.0,1.0,1.0,34.0,33.3,33.3,2.4,2.4,2.675,0.25932454136381494,-0.04669746606166364,0.9455616651774721,-0.0026642717448104604,-0.171248,-26.60002
11.185,2.0,1.0,1.0,34.0,33.3,33.3,2.4,2.4,2.6775,0.2481078368935788,-0.04755399748100921,0.9481872470028373,-0.0032955908022914587,-0.174499,-26.435451
11.185,2.0,1.0,1.0,34.0,33.3,33.3,2.4,2.4,2.68,0.23676082247099864,-0.048425318894953086,0.9506947281879784,-0.003955316938549523,-0.177848,-26.269673
11.185,2.0,1.0,1.0,34.0,33.3,33.3,2.4,2.4,2.6825,0.22528265242729645,-0.04931158304018598,0.9530801564911283,-0.004644681151626959,-0.181297,-26.102661
11.185,2.0,1.0,1.0,34.0,33.3,33.3,2.4,2.4,2.685,0.21367251685960437,-0.05021293272240214,0.9553394490865773,-0.005364973467422091,-0.184852,-25.934391
11.185,2.0,1.0,1.0,34.0,33.3,33.3,2.4,2.4,2.6875,0.201929645078062,-0.051129499429793,0.957468387820204,-0.00611754615717243,-0.188516,-25.764838
11.185,2.0,1.0,1.0,34.0,33.3,33.3,2.4,2.4,2.69,0.19005330929392433,-0.0520614018065619,0.9594626142581618,-0.006903817155702896,-0.192293,-25.593975
11.185,2.0,1.0,1.0,34.0,33.3,33.3,2.4,2.4,2.6925,0.1780428285668184,-0.05300874397221276,0.9613176245167231,-0.007725273694697214,-0.19619,-25.421776
11.185,2.0,1.0,1.0,34.0,33.3,33.3,2.4,2.4,2.695,0.16589757303102126,-0.05397161367078961,0.9630287638603223,-0.00858347616637215,-0.20021,-25.248213
11.185,2.0,1.0,1.0,34.0,33.3,33.3,2.4,2.4,2.6975,0.15361696842241224,-0.0549500802324919,0.9645912210538274,-0.009480062234161535,-0.20436,-25.073258
11.185,2.0,1.0,1.0,34.0,33.3,33.3,2.4,2.4,2.7,0.14120050092988817,-0.05594419232810904,0.9660000224539913,-0.010416751208336026,-0.208644,-24.896881
11.185,2.0,1.0,1.0,34.0,33.3,33.3,2.4,2.4,2.7025,0.12864772239727654,-0.056953975494505225,0.9672500258238028,-0.011395348705923946,-0.21307,-24.719052
11.185,2.0,1.0,1.0,34.0,33.3,33.3,2.4,2.4,2.705,0.11595825590441954,-0.05797942940688493,0.9683359138521551,-0.012417751615850656,-0.217643,-24.53974
11.185,2.0,1.0,1.0,34.0,33.3,33.3,2.4,2.4,2.7075,0.10313180175893305,-0.059020524870764354,0.9692521873598413,-0.013485953391902346,-0.222371,-24.358913
11.185,2.0,1.0,1.0,34.0,33.3,33.3,2.4,2.4,2.71,0.09016814393346827,-0.06007720050340037,0.9699931581712908,-0.014602049697938805,-0.22726,-24.176537
11.185,2.0,1.0,1.0,34.0,33.3,33.3,2.4,2.4,2.7125,0.07706715698684763,-0.06114935907085696,0.9705529416298228,-0.015768244431758272,-0.232318,-23.992577
11.185,2.0,1.0,1.0,34.0,33.3,33.3,2.4,2.4,2.715,0.06382881351165759,-0.06223686344284246,0.9709254487323129,-0.016986856156144394,-0.237554,-23.807
11.185,2.0,1.0,1.0,34.0,33.3,33.3,2.4,2.4,2.7175,0.05045319215543848,-0.06333953212288017,0.9711043778571988,-0.0182603249679293,-0.242975,-23.619767
11.185,2.0,1.0,1.0,34.0,33.3,33.3,2.4,2.4,2.72,0.03694048626790033,-0.06445713430618802,0.9710832060575868,-0.01959121983838344,-0.248591,-23.43084
11.185,2.0,1.0,1.0,34.0,33.3,33.3,2.4,2.4,2.7225,0.023291013232430248,-0.0655893844117703,0.9708551798889092,-0.020982246460917592,-0.254412,-23.240181
11.185,2.0,1.0,1.0,34.0,33.3,33.3,2.4,2.4,2.725,0.009505224547002542,-0.06673593602853792,0.9704133057380261,-0.022436255644935454,-0.260448,-23.047749
11.185,2.0,1.0,1.0,34.0,33.3,33.3,2.4,2.4,2.7275,-0.0044162832729346705,-0.06789637520768858,0.9697503396179918,-0.02395625229775491,-0.266711,-22.853501
11.185,2.0,1.0,1.0,34.0,33.3,33.3,2.4,2.4,2.73,-0.01847275688824758,-0.0690702130249216,0.9688587763898294,-0.025545405039773855,-0.273212,-22.657394
11.185,2.0,1.0,1.0,34.0,33.3,33.3,2.4,2.4,2.7325,-0.03266327333539627,-0.07025687732620721,0.9677308383694915,-0.02720705650154545,-0.279964,-22.459383
11.185,2.0,1.0,1.0,34.0,33.3,33.3,2.4,2.4,2.735,-0.04698672612882896,-0.0714557035595673,0.9663584632750194,-0.028944734355092396,-0.28698,-22.25942
11.185,2.0,1.0,1.0,34.0,33.3,33.3,2.4,2.4,2.7375,-0.061441810151173386,-0.07266592458245671,0.9647332914653595,-0.03076216313566235,-0.294275,-22.057457
11.185,2.0,1.0,1.0,34.0,33.3,33.3,2.4,2.4,2.74,-0.07602700520126636,-0.0738866593195974,0.9628466524187481,-0.03266327691414303,-0.301864,-21.853444
11.185,2.0,1.0,1.0,34.0,33.3,33.3,2.4,2.4,2.7425,-0.09074055805322352,-0.07511690012923385,0.9606895503948542,-0.03465223288451912,-0.309765,-21.647328
11.185,2.0,1.0,1.0,34.0,33.3,33.3,2.4,2.4,2.745,-0.10558046286037383,-0.07635549871639034,0.958252649221045,-0.036733425934977415,-0.317995,-21.439054
11.185,2.0,1.0,1.0,34.0,33.3,33.3,2.4,2.4,2.7475,-0.12054443971572522,-0.07760115040943677,0.955526256139404,-0.03891150427550199,-0.326573,-21.228566
11.185,2.0,1.0,1.0,34.0,33.3,33.3,2.4,2.4,2.75,-0.135629911155049,-0.0788523765906349,0.952500304647415,-0.0411913861989336,-0.335521,-21.015805
11.185,2.0,1.0,1.0,34.0,33.3,33.3,2.4,2.4,2.7525,-0.1508339763591943,-0.08010750504179674,0.9491643362618248,-0.043578278056354204,-0.344861,-20.80071
11.185,2.0,1.0,1.0,34.0,33.3,33.3,2.4,2.4,2.755,-0.16615338277828653,-0.08136464793210693,0.945507481132218,-0.04607769353111351,-0.354616,-20.583217
11.185,2.0,1.0,1.0,34.0,33.3,33.3,2.4,2.4,2.7575,-0.18158449486120007,-0.08262167713579437,0.9415184374285049,-0.04869547429859307,-0.364814,-20.363259
11.185,2.0,1.0,1.0,34.0,33.3,33.3,2.4,2.4,2.76,-0.19712325952814477,-0.08387619652179369,0.9371854494252825,-0.05143781216054576,-0.375482,-20.140769
11.185,2.0,1.0,1.0,34.0,33.3,33.3,2.4,2.4,2.7625,-0.21276516797175316,-0.08512551080480849,0.9324962842062108,-0.05431127274315601,-0.386651,-19.915673
11.185,2.0,1.0,1.0,34.0,33.3,33.3,2.4,2.4,2.765,-0.22850521331073953,-0.08636659048604114,0.9274382069137341,-0.05732282084621797,-0.398355,-19.687898
11.185,2.0,1.0,1.0,34.0,33.3,33.3,2.4,2.4,2.7675,-0.244337843549517,-0.08759603234088564,0.9219979544745387,-0.06047984752631632,-0.41063,-19.457365
11.185,2.0,1.0,1.0,34.0,33.3,33.3,2.4,2.4,2.77,-0.26025690921454814,-0.08881001482842064,0.9161617077398446,-0.06379019898861883,-0.423516,-19.223993
11.185,2.0,1.0,1.0,34.0,33.3,33.3,2.4,2.4,2.7725,-0.2762556049424095,-0.0900042477016298,0.9099150619934933,-0.06726220734859663,-0.437054,-18.987697
11.185,2.0,1.0,1.0,34.0,33.3,33.3,2.4,2.4,2.775,-0.2923264041827123,-0.09117391498563202,0.9032429958011587,-0.07090472330503987,-0.451294,-18.748389
11.185,2.0,1.0,1.0,34.0,33.3,33.3,2.4,2.4,2.7775,-0.30846098604892547,-0.0923136103611454,0.8961298382033758,-0.07472715073702135,-0.466285,-18.505977
11.185,2.0,1.0,1.0,34.0,33.3,33.3,2.4,2.4,2.78,-0.3246501531982387,-0.09341726383880047,0.8885592342957478,-0.07873948319723906,-0.482084,-18.260364
11.185,2.0,1.0,1.0,34.0,33.3,33.3,2.4,2.4,2.7825,-0.3408837394444302,-0.09447805843312074,0.8805141092956699,-0.08295234221889591,-0.498753,-18.011452
11.185,2.0,1.0,1.0,34.0,33.3,33.3,2.4,2.4,2.785,-0.35715050560105943,-0.09548833533877786,0.8719766312703486,-0.08737701727842664,-0.516361,-17.759135
11.185,2.0,1.0,1.0,34.0,33.3,33.3,2.4,2.4,2.7875,-0.37343802181101154,-0.09643948587121319,0.8629281728021173,-0.0920255071559963,-0.534981,-17.503305
11.185,2.0,1.0,1.0,34.0,33.3,33.3,2.4,2.4,2.79,-0.3897325343371703,-0.0973218281533245,0.8533492720013303,-0.09691056230223741,-0.554697,-17.243847
11.185,2.0,1.0,1.0,34.0,33.3,33.3,2.4,2.4,2.7925,-0.4060188144611362,-0.09812446620328183,0.8432195934547199,-0.10204572764325862,-0.575601,-16.980645
11.185,2.0,1.0,1.0,34.0,33.3,33.3,2.4,2.4,2.795,-0.4222799867554519,-0.0988351286985572,0.8325178899303731,-0.10744538502392005,-0.597792,-16.713576
11.185,2.0,1.0,1.0,34.0,33.3,33.3,2.4,2.4,2.7975,-0.43849733355166987,-0.09943998425008481,0.8212219659664133,-0.11312479418522317,-0.621385,-16.442511
11.185,2.0,1.0,1.0,34.0,33.3,33.3,2.4,2.4,2.8,-0.4546500719134912,-0.09992342950971826,0.8093086448698548,-0.1191001307743405,-0.646504,-16.167317
11.185,2.0,1.0,1.0,34.0,33.3,33.3,2.4,2.4,2.8025,-0.4707150988324083,-0.10026784584513597,0.7967537411729833,-0.12538851936777987,-0.673288,-15.887858
11.185,2.0,1.0,1.0,34.0,33.3,33.3,2.4,2.4,2.805,-0.4866666996839233,-0.1004533196406935,0.783532041272186,-0.13200805881418023,-0.701894,-15.60399
11.185,2.0,1.0,1.0,34.0,33.3,33.3,2.4,2.4,2.8075,-0.5024762142089629,-0.10045732051328068,0.769617295854589,-0.13897783632758584,-0.732496,-15.315565
11.185,2.0,1.0,1.0,34.0,33.3,33.3,2.4,2.4,2.81,-0.5181116534125121,-0.1002543308646075,0.7549822288602364,-0.14631792562588974,-0.765291,-15.022431
11.185,2.0,1.0,1.0,34.0,33.3,33.3,2.4,2.4,2.8125,-0.533537259800633,-0.0998154192262692,0.739598569208179,-0.154049362936741,-0.8005,-14.724433
11.185,2.0,1.0,1.0,34.0,33.3,33.3,2.4,2.4,2.815,-0.5487130023177156,-0.09910774880102384,0.7234371134314551,-0.16219409278736346,-0.838371,-14.421408
11.185,2.0,1.0,1.0,34.0,33.3,33.3,2.4,2.4,2.8175,-0.5635939962219806,-0.09809401148704028,0.7064678298439713,-0.17077487303095074,-0.879188,-14.113195
11.185,2.0,1.0,1.0,34.0,33.3,33.3,2.4,2.4,2.82,-0.5781298369961448,-0.09673177653847678,0.6886600180609597,-0.17981512538220154,-0.923271,-13.799627
11.185,2.0,1.0,1.0,34.0,33.3,33.3,2.4,2.4,2.8225,-0.5922638363151311,-0.09497274194820624,0.6699825418159436,-0.18933871363773624,-0.970984,-13.480539
11.185,2.0,1.0,1.0,34.0,33.3,33.3,2.4,2.4,2.825,-0.6059321472207455,-0.0927618757735086,0.6504041583135504,-0.1993696264924738,-1.022743,-13.155765
11.185,2.0,1.0,1.0,34.0,33.3,33.3,2.4,2.4,2.8275,-0.6190627652039541,-0.09003643418099179,0.6298939741418706,-0.20993153512000415,-1.079025,-12.825142
11.185,2.0,1.0,1.0,34.0,33.3,33.3,2.4,2.4,2.83,-0.6315743922088443,-0.08672484330117647,0.6084220664200898,-0.2210471870863643,-1.140377,-12.488514
