1,w,sub_t,h,l1,l2,l3,g1,g2,Freq,S11_re,S21_re,S11_img,S21_img,S11_dB,S21_dB
11.185,2.0,1.0,1.0,33.4,33.9,33.9,2.7,3.9,2.5,0.860741279635852,-0.00658118419779543,0.496036462739856,0.00518213155302702,-0.057147,-41.538704
11.185,2.0,1.0,1.0,33.4,33.9,33.9,2.7,3.9,2.5025,0.8573781908206708,-0.006714336279583707,0.5017044143056251,0.005203332250749601,-0.057688,-41.417217
11.185,2.0,1.0,1.0,33.4,33.9,33.9,2.7,3.9,2.505,0.8539626050023365,-0.006849868787940228,0.5073730170661771,0.005223843369817697,-0.058239,-41.29542
11.185,2.0,1.0,1.0,33.4,33.9,33.9,2.7,3.9,2.5075,0.8504939882583411,-0.006987829559850172,0.5130420391722522,0.005243634898559253,-0.058799,-41.173305
11.185,2.0,1.0,1.0,33.4,33.9,33.9,2.7,3.9,2.51,0.8469717978750608,-0.007128267641026172,0.5187112414765211,0.0052626756974875205,-0.05937,-41.050863
11.185,2.0,1.0,1.0,33.4,33.9,33.9,2.7,3.9,2.5125,0.8433954821932056,-0.007271233322444488,0.5243803772886693,0.0052809334526615565,-0.059951,-40.928086
11.185,2.0,1.0,1.0,33.4,33.9,33.9,2.7,3.9,2.515,0.8397644804505731,-0.00741677817816722,0.5300491921220879,0.00529837462689412,-0.060541,-40.804963
11.185,2.0,1.0,1.0,33.4,33.9,33.9,2.7,3.9,2.5175,0.8360782226220782,-0.007564955104501214,0.5357174234318329,0.00531496440869575,-0.061143,-40.681487
11.185,2.0,1.0,1.0,33.4,33.9,33.9,2.7,3.9,2.52,0.8323361292570058,-0.00771581836055012,0.5413848003435467,0.005330666658836125,-0.061755,-40.557648
11.185,2.0,1.0,1.0,33.4,33.9,33.9,2.7,3.9,2.5225,0.8285376113134612,-0.007869423610214286,0.5470510433729653,0.005345443854398138,-0.062379,-40.433438
11.185,2.0,1.0,1.0,33.4,33.9,33.9,2.7,3.9,2.525,0.8246820699899652,-0.008025827965700096,0.5527158641356744,0.005359257030191297,-0.063014,-40.308845
11.185,2.0,1.0,1.0,33.4,33.9,33.9,2.7,3.9,2.5275,0.8207688965541587,-0.008185090032599988,0.558378965046731,0.005372065717384271,-0.06366,-40.183862
11.185,2.0,1.0,1.0,33.4,33.9,33.9,2.7,3.9,2.53,0.8167974721685819,-0.008347269956608725,0.5640400390097485,0.0053838278792076,-0.064318,-40.058478
11.185,2.0,1.0,1.0,33.4,33.9,33.9,2.7,3.9,2.5325,0.8127671677134765,-0.008512429471944142,0.5696987690950417,0.0053944998435682436,-0.064989,-39.932684
11.185,2.0,1.0,1.0,33.4,33.9,33.9,2.7,3.9,2.535,0.8086773436065824,-0.008680631951544242,0.5753548282064044,0.005404036232408452,-0.065672,-39.80647
11.185,2.0,1.0,1.0,33.4,33.9,33.9,2.7,3.9,2.5375,0.8045273496198817,-0.008851942459114621,0.5810078787360585,0.005412389887631138,-0.066368,-39.679825
11.185,2.0,1.0,1.0,33.4,33.9,33.9,2.7,3.9,2.54,0.8003165246932558,-0.009026427803105823,0.5866575722073176,0.005419511793402627,-0.067077,-39.552741
11.185,2.0,1.0,1.0,33.4,33.9,33.9,2.7,3.9,2.5425,0.7960441967450065,-0.009204156592701674,0.5923035489044659,0.005425350994632389,-0.067799,-39.425205
11.185,2.0,1.0,1.0,33.4,33.9,33.9,2.7,3.9,2.545,0.7917096824792138,-0.009385199295905167,0.5979454374893435,0.005429854511416372,-0.068536,-39.297209
11.185,2.0,1.0,1.0,33.4,33.9,33.9,2.7,3.9,2.5475,0.7873122871898837,-0.009569628299811906,0.6035828546040889,0.005432967249217426,-0.069286,-39.168741
11.185,2.0,1.0,1.0,33.4,33.9,33.9,2.7,3.9,2.55,0.782851304561844,-0.009757517973165257,0.6092154044594944,0.005434631904541741,-0.070051,-39.03979
11.185,2.0,1.0,1.0,33.4,33.9,33.9,2.7,3.9,2.5525,0.7783260164683631,-0.009948944731292575,0.6148426784083572,0.005434788865855025,-0.070831,-38.910346
11.185,2.0,1.0,1.0,33.4,33.9,33.9,2.7,3.9,2.555,0.7737356927654405,-0.010143987103525874,0.6204642545032313,0.005433376109465308,-0.071626,-38.780397
11.185,2.0,1.0,1.0,33.4,33.9,33.9,2.7,3.9,2.5575,0.7690795910827317,-0.010342725803215679,0.6260796970379184,0.005430329090081913,-0.072437,-38.649932
11.185,2.0,1.0,1.0,33.4,33.9,33.9,2.7,3.9,2.56,0.7643569566110824,-0.010545243800452192,0.6316885560720167,0.0054255806257410815,-0.073263,-38.518939
11.185,2.0,1.0,1.0,33.4,33.9,33.9,2.7,3.9,2.5625,0.7595670218866238,-0.010751626397612743,0.6372903669378155,0.00541906077676802,-0.074107,-38.387408
11.185,2.0,1.0,1.0,33.4,33.9,33.9,2.7,3.9,2.565,0.7547090065713943,-0.010961961307861676,0.6428846497287871,0.00541069671842365,-0.074967,-38.255325
11.185,2.0,1.0,1.0,33.4,33.9,33.9,2.7,3.9,2.5675,0.7497821172304618,-0.011176338736732955,0.6484709087688805,0.005400412606860763,-0.075845,-38.122678
11.185,2.0,1.0,1.0,33.4,33.9,33.9,2.7,3.9,2.57,0.7447855471055013,-0.011394851466933708,0.6540486320617904,0.005388129437988789,-0.07674,-37.989456
11.185,2.0,1.0,1.0,33.4,33.9,33.9,2.7,3.9,2.5725,0.7397184758847981,-0.011617594946513566,0.6596172907193367,0.005373764898819512,-0.077654,-37.855645
11.185,2.0,1.0,1.0,33.4,33.9,33.9,2.7,3.9,2.575,0.7345800694696469,-0.011844667380550438,0.665176338368028,0.0053572332108364085,-0.078587,-37.721233
11.185,2.0,1.0,1.0,33.4,33.9,33.9,2.7,3.9,2.5775,0.7293694797371107,-0.012076169826512162,0.6707252105328474,0.005338444964899153,-0.079539,-37.586207
11.185,2.0,1.0,1.0,33.4,33.9,33.9,2.7,3.9,2.58,0.7240858442991159,-0.012312206293460396,0.6762633239972424,0.00531730694716101,-0.080511,-37.450553
11.185,2.0,1.0,1.0,33.4,33.9,33.9,2.7,3.9,2.5825,0.7187282862578442,-0.01255288384527136,0.6817900761382504,0.0052937219554394215,-0.081504,-37.314258
11.185,2.0,1.0,1.0,33.4,33.9,33.9,2.7,3.9,2.585,0.7132959139574049,-0.012798312708057102,0.6873048442356229,0.005267588605441747,-0.082518,-37.177308
11.185,2.0,1.0,1.0,33.4,33.9,33.9,2.7,3.9,2.5875,0.7077878207317518,-0.013048606381978762,0.6928069847537657,0.005238801126204815,-0.083553,-37.039688
11.185,2.0,1.0,1.0,33.4,33.9,33.9,2.7,3.9,2.59,0.7022030846488293,-0.013303881757653522,0.6982958325952228,0.0052072491440609886,-0.084611,-36.901385
11.185,2.0,1.0,1.0,33.4,33.9,33.9,2.7,3.9,2.5925,0.6965407682509106,-0.013564259237366691,0.7037707003243892,0.005172817454394162,-0.085691,-36.762383
11.185,2.0,1.0,1.0,33.4,33.9,33.9,2.7,3.9,2.595,0.6907999182911323,-0.013829862861309248,0.7092308773600254,0.00513538578039488,-0.086796,-36.622667
11.185,2.0,1.0,1.0,33.4,33.9,33.9,2.7,3.9,2.5975,0.6849795654661758,-0.014100820439073843,0.7146756291351105,0.005094828517966225,-0.087924,-36.482222
11.185,2.0,1.0,1.0,33.4,33.9,33.9,2.7,3.9,2.6,0.6790787241451012,-0.014377263686651414,0.7201041962224387,0.005051014465868311,-0.089078,-36.341033
11.185,2.0,1.0,1.0,33.4,33.9,33.9,2.7,3.9,2.6025,0.6730963920943176,-0.014659328369182635,0.7255157934242971,0.005003806540122201,-0.090257,-36.199082
11.185,2.0,1.0,1.0,33.4,33.9,33.9,2.7,3.9,2.605,0.6670315501986659,-0.01494715444973114,0.730909608824462,0.0049530614716190545,-0.091464,-36.056355
11.185,2.0,1.0,1.0,33.4,33.9,33.9,2.7,3.9,2.6075,0.6608831621786234,-0.015240886244356301,0.7362848028006266,0.004898629485801275,-0.092697,-35.912833
11.185,2.0,1.0,1.0,33.4,33.9,33.9,2.7,3.9,2.61,0.6546501743036163,-0.015540672583777355,0.7416405069952721,0.00484035396319423,-0.093959,-35.7685
11.185,2.0,1.0,1.0,33.4,33.9,33.9,2.7,3.9,2.6125,0.6483315151014458,-0.015846666981933273,0.7469758232428655,0.0047780710794735354,-0.09525,-35.623337
11.185,2.0,1.0,1.0,33.4,33.9,33.9,2.7,3.9,2.615,0.6419260950638229,-0.016159027811756346,0.7522898224511334,0.004711609423650398,-0.096571,-35.477328
11.185,2.0,1.0,1.0,33.4,33.9,33.9,2.7,3.9,2.6175,0.635432806348037,-0.016477918488491165,0.75758154343401,0.004640789592844503,-0.097923,-35.330453
11.185,2.0,1.0,1.0,33.4,33.9,33.9,2.7,3.9,2.62,0.6288505224747613,-0.016803507660905475,0.7628499916937106,0.004565423761993909,-0.099307,-35.182694
11.185,2.0,1.0,1.0,33.4,33.9,33.9,2.7,3.9,2.6225,0.622178098022019,-0.017135969410753054,0.7680941381492129,0.004485315226717987,-0.100725,-35.034031
11.185,2.0,1.0,1.0,33.4,33.9,33.9,2.7,3.9,2.625,0.615414368315351,-0.0174754834608631,0.77331291780823,0.00440025791740602,-0.102176,-34.884444
11.185,2.0,1.0,1.0,33.4,33.9,33.9,2.7,3.9,2.6275,0.6085581491142041,-0.017822235392246553,0.7785052283795874,0.004310035882445107,-0.103663,-34.733913
11.185,2.0,1.0,1.0,33.4,33.9,33.9,2.7,3.9,2.63,0.6016082362946039,-0.018176416870622734,0.7836699288226832,0.004214422738331135,-0.105186,-34.582417
11.185,2.0,1.0,1.0,33.4,33.9,33.9,2.7,3.9,2.6325,0.5945634055281575,-0.01853822588278443,0.7888058378304833,0.004113181084217509,-0.106747,-34.429935
11.185,2.0,1.0,1.0,33.4,33.9,33.9,2.7,3.9,2.635,0.5874224119574685,-0.018907866983234316,0.7939117322422571,0.004006061878250885,-0.108346,-34.276443
11.185,2.0,1.0,1.0,33.4,33.9,33.9,2.7,3.9,2.6375,0.5801839898680448,-0.019285551551536637,0.7989863453819727,0.0038928037728206077,-0.109987,-34.121921
11.185,2.0,1.0,1.0,33.4,33.9,33.9,2.7,3.9,2.64,0.5728468523567926,-0.01967149806084345,0.804028365317999,0.0037731324055986087,-0.111669,-33.966344
11.185,2.0,1.0,1.0,33.4,33.9,33.9,2.7,3.9,2.6425,0.5654096909972325,-0.020065932358062696,0.8090364330394048,0.003646759642982503,-0.113394,-33.809688
11.185,2.0,1.0,1.0,33.4,33.9,33.9,2.7,3.9,2.645,0.5578711755015703,-0.020469087956147134,0.8140091405438165,0.003513382772252825,-0.115163,-33.651929
11.185,2.0,1.0,1.0,33.4,33.9,33.9,2.7,3.9,2.6475,0.5502299533797983,-0.02088120633898865,0.8189450288314024,0.0033726836384365706,-0.11698,-33.493042
11.185,2.0,1.0,1.0,33.4,33.9,33.9,2.7,3.9,2.65,0.5424846495960115,-0.02130253727940954,0.8238425857991364,0.0032243277215076587,-0.118844,-33.333001
11.185,2.0,1.0,1.0,33.4,33.9,33.9,2.7,3.9,2.6525,0.5346338662222011,-0.021733339170740135,0.8287002440290131,0.0030679631491669673,-0.120758,-33.171779
11.185,2.0,1.0,1.0,33.4,33.9,33.9,2.7,3.9,2.655,0.5266761820897662,-0.02217387937247354,0.833516378463422,0.0029032196400092646,-0.122724,-33.009348
11.185,2.0,1.0,1.0,33.4,33.9,33.9,2.7,3.9,2.6575,0.5186101524390886,-0.02262443457047697,0.8382893039602926,0.0027297073714118657,-0.124743,-32.84568
11.185,2.0,1.0,1.0,33.4,33.9,33.9,2.7,3.9,2.66,0.5104343085675358,-0.02308529115222728,0.8430172727200514,0.0025470157659540867,-0.126818,-32.680746
11.185,2.0,1.0,1.0,33.4,33.9,33.9,2.7,3.9,2.6625,0.5021471574763449,-0.023556745597514864,0.847698471575744,0.0023547121895980097,-0.128951,-32.514516
11.185,2.0,1.0,1.0,33.4,33.9,33.9,2.7,3.9,2.665,0.49374718151688457,-0.02403910488503185,0.8523310191369589,0.0021523405542221816,-0.131144,-32.346958
11.185,2.0,1.0,1.0,33.4,33.9,33.9,2.7,3.9,2.6675,0.48523283803692874,-0.024532686915216335,0.8569129627773756,0.0019394198163936844,-0.133399,-32.17804
11.185,2.0,1.0,1.0,33.4,33.9,33.9,2.7,3.9,2.67,0.4766025590276267,-0.025037820949670424,0.8614422754548748,0.0017154423634805536,-0.135719,-32.007731
11.185,2.0,1.0,1.0,33.4,33.9,33.9,2.7,3.9,2.6725,0.46785475077201083,-0.025554848067399896,0.8659168523521753,0.0014798722773414158,-0.138107,-31.835994
11.185,2.0,1.0,1.0,33.4,33.9,33.9,2.7,3.9,2.675,0.45898779349602076,-0.026084121638031876,0.8703345073248674,0.0012321434648672428,-0.140565,-31.662796
11.185,2.0,1.0,1.0,33.4,33.9,33.9,2.7,3.9,2.6775,0.45000004102317953,-0.026626007812054486,0.874692969142533,0.0009716576435836994,-0.143096,-31.488099
11.185,2.0,1.0,1.0,33.4,33.9,33.9,2.7,3.9,2.68,0.44088982043426417,-0.027180886027984137,0.8789898775073035,0.0006977821693376556,-0.145704,-31.311867
11.185,2.0,1.0,1.0,33.4,33.9,33.9,2.7,3.9,2.6825,0.43165543173354753,-0.027749149536191127,0.8832227788327477,0.0004098476917722455,-0.148391,-31.134059
11.185,2.0,1.0,1.0,33.4,33.9,33.9,2.7,3.9,2.685,0.42229514752345104,-0.028331205938905063,0.8873891217643481,0.00010714562182677427,-0.151161,-30.954637
11.185,2.0,1.0,1.0,33.4,33.9,33.9,2.7,3.9,2.6875,0.412807212689784,-0.0289274777456639,0.891486252421017,-0.000211074606138642,-0.154018,-30.773557
11.185,2.0,1.0,1.0,33.4,33.9,33.9,2.7,3.9,2.69,0.4031898441001232,-0.029538402943156444,0.8955114093350752,-0.0005456084968202705,-0.156965,-30.590778
11.185,2.0,1.0,1.0,33.4,33.9,33.9,2.7,3.9,2.6925,0.3934412303183177,-0.030164435578033517,0.8994617180658995,-0.0008972997023176429,-0.160007,-30.406255
11.185,2.0,1.0,1.0,33.4,33.9,33.9,2.7,3.9,2.695,0.3835595313386741,-0.030806046350802432,0.9033341854599,-0.0012670434998981169,-0.163148,-30.21994
11.185,2.0,1.0,1.0,33.4,33.9,33.9,2.7,3.9,2.6975,0.3735428783439515,-0.031463723218374304,0.9071256935267377,-0.0016557905652845632,-0.166393,-30.031787
11.185,2.0,1.0,1.0,33.4,33.9,33.9,2.7,3.9,2.7,0.36338937349209294,-0.032137972002171056,0.910832992898523,-0.0020645510704336155,-0.169746,-29.841745
11.185,2.0,1.0,1.0,33.4,33.9,33.9,2.7,3.9,2.7025,0.3530970897374441,-0.032829316997906706,0.9144526958352717,-0.002494399137987699,-0.173212,-29.649763
11.185,2.0,1.0,1.0,33.4,33.9,33.9,2.7,3.9,2.705,0.34266407069330157,-0.03353830158220747,0.9179812687359348,-0.002946477688194071,-0.176798,-29.455787
11.185,2.0,1.0,1.0,33.4,33.9,33.9,2.7,3.9,2.7075,0.3320883305438175,-0.0342654888100957,0.9214150241099504,-0.003422003718147673,-0.180508,-29.259762
11.185,2.0,1.0,1.0,33.4,33.9,33.9,2.7,3.9,2.71,0.3213678540147965,-0.03501146199599664,0.9247501119592754,-0.003922274057787897,-0.18435,-29.061629
11.185,2.0,1.0,1.0,33.4,33.9,33.9,2.7,3.9,2.7125,0.3105005964146136,-0.035776825269295584,0.9279825105153175,-0.004448671652240378,-0.18833,-28.861329
11.185,2.0,1.0,1.0,33.4,33.9,33.9,2.7,3.9,2.715,0.29948448375859205,-0.03656220409351306,0.9311080162688847,-0.005002672425916239,-0.192455,-28.658798
11.185,2.0,1.0,1.0,33.4,33.9,33.9,2.7,3.9,2.7175,0.2883174129926017,-0.03736824573582309,0.9341222332241932,-0.005585852790365701,-0.196733,-28.453973
11.185,2.0,1.0,1.0,33.4,33.9,33.9,2.7,3.9,2.72,0.27699725233461414,-0.03819561967083241,0.9370205612999705,-0.006199897865331379,-0.201172,-28.246784
11.185,2.0,1.0,1.0,33.4,33.9,33.9,2.7,3.9,2.7225,0.26552184175638655,-0.03904501789917303,0.9397981837916431,-0.0068466104908895655,-0.20578,-28.037162
11.185,2.0,1.0,1.0,33.4,33.9,33.9,2.7,3.9,2.725,0.25388899363170797,-0.039917155157423514,0.942450053798317,-0.007527921118140747,-0.210567,-27.825032
11.185,2.0,1.0,1.0,33.4,33.9,33.9,2.7,3.9,2.7275,0.2420964935825488,-0.040812768991035704,0.9449708795066609,-0.008245898676793113,-0.215544,-27.610318
11.185,2.0,1.0,1.0,33.4,33.9,33.9,2.7,3.9,2.73,0.23014210156051973,-0.04173261965612216,0.94735510821056,-0.009002762530347033,-0.220721,-27.39294
11.185,2.0,1.0,1.0,33.4,33.9,33.9,2.7,3.9,2.7325,0.21802355320815828,-0.04267748980897109,0.9495969089304075,-0.009800895643680974,-0.226109,-27.172815
11.185,2.0,1.0,1.0,33.4,33.9,33.9,2.7,3.9,2.735,0.20573856155323791,-0.04364818393373578,0.9516901534787868,-0.010642859103889549,-0.231722,-26.949854
11.185,2.0,1.0,1.0,33.4,33.9,33.9,2.7,3.9,2.7375,0.19328481909960818,-0.044645527448606434,0.9536283957998051,-0.01153140815355683,-0.237573,-26.723966
11.185,2.0,1.0,1.0,33.4,33.9,33.9,2.7,3.9,2.74,0.18066000039062258,-0.04567036541853367,0.9554048493870843,-0.012469509916583984,-0.243677,-26.495056
11.185,2.0,1.0,1.0,33.4,33.9,33.9,2.7,3.9,2.7425,0.1678617651362247,-0.046723560787789845,0.9570123625600032,-0.01346036302064596,-0.250049,-26.263025
11.185,2.0,1.0,1.0,33.4,33.9,33.9,2.7,3.9,2.745,0.1548877620130323,-0.04780599202776132,0.9584433913486813,-0.014507419347777344,-0.256707,-26.027766
11.185,2.0,1.0,1.0,33.4,33.9,33.9,2.7,3.9,2.7475,0.14173563326879332,-0.04891855007368133,0.9596899697049156,-0.015614408176025963,-0.263671,-25.789172
11.185,2.0,1.0,1.0,33.4,33.9,33.9,2.7,3.9,2.75,0.128403020289356,-0.0500621343976871,0.960743676718092,-0.0167853630111769,-0.270959,-25.547126
11.185,2.0,1.0,1.0,33.4,33.9,33.9,2.7,3.9,2.7525,0.11488757031884375,-0.051237648033564114,0.961595600471319,-0.018024651448956642,-0.278596,-25.301508
11.185,2.0,1.0,1.0,33.4,33.9,33.9,2.7,3.9,2.755,0.10118694456333525,-0.052445991329522844,0.9622362981227488,-0.019337008455696837,-0.286604,-25.052192
11.185,2.0,1.0,1.0,33.4,33.9,33.9,2.7,3.9,2.7575,0.08729882795669743,-0.053688054157720676,0.9626557517393161,-0.02072757351012312,-0.29501,-24.799045
11.185,2.0,1.0,1.0,33.4,33.9,33.9,2.7,3.9,2.76,0.07322094092640452,-0.054964706250956036,0.9628433193437473,-0.022201932111802696,-0.303844,-24.541927
11.185,2.0,1.0,1.0,33.4,33.9,33.9,2.7,3.9,2.7625,0.05895105356961744,-0.056276785265512996,0.9627876805594381,-0.02376616223408964,-0.313138,-24.280692
11.185,2.0,1.0,1.0,33.4,33.9,33.9,2.7,3.9,2.765,0.044487002738913324,-0.05762508208133431,0.9624767761501158,-0.02542688638252055,-0.322926,-24.015185
11.185,2.0,1.0,1.0,33.4,33.9,33.9,2.7,3.9,2.7675,0.029826712646713497,-0.05901032274257088,0.9618977406505386,-0.02719133001510863,-0.333248,-23.745243
11.185,2.0,1.0,1.0,33.4,33.9,33.9,2.7,3.9,2.77,0.014968219732830542,-0.06043314630807883,0.961036827168899,-0.029067387190584253,-0.344146,-23.470696
11.185,2.0,1.0,1.0,33.4,33.9,33.9,2.7,3.9,2.7725,-9.029729288197665e-05,-0.0618940777162522,0.9598793233092253,-0.031063694436191572,-0.355667,-23.191362
11.185,2.0,1.0,1.0,33.4,33.9,33.9,2.7,3.9,2.775,-0.01535048111297286,-0.06339349456367172,0.9584094570106658,-0.03318971397015336,-0.367864,-22.907052
11.185,2.0,1.0,1.0,33.4,33.9,33.9,2.7,3.9,2.7775,-0.030813751791619683,-0.06493158644220497,0.9566102909280756,-0.0354558275773406,-0.380795,-22.617566
11.185,2.0,1.0,1.0,33.4,33.9,33.9,2.7,3.9,2.78,-0.04648125338998384,-0.06650830516142245,0.9544636037826209,-0.03787344262188564,-0.394525,-22.32269
11.185,2.0,1.0,1.0,33.4,33.9,33.9,2.7,3.9,2.7825,-0.06235378910394269,-0.06812330378592388,0.9519497568905643,-0.04045511188894289,-0.409126,-22.022202
11.185,2.0,1.0,1.0,33.4,33.9,33.9,2.7,3.9,2.785,-0.07843174231525736,-0.06977586191920888,0.9490475438318862,-0.04321466918029373,-0.42468,-21.715864
11.185,2.0,1.0,1.0,33.4,33.9,33.9,2.7,3.9,2.7875,-0.09471498031199009,-0.07146479403988693,0.9457340209483123,-0.04616738284436441,-0.441277,-21.403428
11.185,2.0,1.0,1.0,33.4,33.9,33.9,2.7,3.9,2.79,-0.11120273663363348,-0.07318833690743855,0.9419843160651042,-0.049330129697655246,-0.45902,-21.084629
11.185,2.0,1.0,1.0,33.4,33.9,33.9,2.7,3.9,2.7925,-0.12789346698488632,-0.07494401105851405,0.9377714125188684,-0.05272159208496083,-0.478025,-20.759187
11.185,2.0,1.0,1.0,33.4,33.9,33.9,2.7,3.9,2.795,-0.14478467238092887,-0.07672845015313647,0.9330659052564951,-0.056362481117765886,-0.498423,-20.426809
11.185,2.0,1.0,1.0,33.4,33.9,33.9,2.7,3.9,2.7975,-0.16187268156017226,-0.07853719032868309,0.9278357254692465,-0.06027578940234803,-0.520363,-20.08718
11.185,2.0,1.0,1.0,33.4,33.9,33.9,2.7,3.9,2.8,-0.1791523826306075,-0.08036440968230772,0.9220458299757495,-0.06448707678613157,-0.544014,-19.739973
11.185,2.0,1.0,1.0,33.4,33.9,33.9,2.7,3.9,2.8025,-0.19661689127684465,-0.08220260540609693,0.9156578514245115,-0.06902479275606509,-0.569571,-19.384838
11.185,2.0,1.0,1.0,33.4,33.9,33.9,2.7,3.9,2.805,-0.21425713948547923,-0.0840421927854011,0.9086297054390302,-0.07392063902754883,-0.597256,-19.021408
11.185,2.0,1.0,1.0,33.4,33.9,33.9,2.7,3.9,2.8075,-0.23206136443994616,-0.08587100603709132,0.9009151512140436,-0.07920997542936818,-0.627326,-18.649294
11.185,2.0,1.0,1.0,33.4,33.9,33.9,2.7,3.9,2.81,-0.2500144717301513,-0.08767367555422478,0.8924633030011287,-0.08493227120876179,-0.660079,-18.268089
11.185,2.0,1.0,1.0,33.4,33.9,33.9,2.7,3.9,2.8125,-0.26809723998735,-0.0894308492146227,0.88321809171753,-0.0911316020310189,-0.695857,-17.877366
11.185,2.0,1.0,1.0,33.4,33.9,33.9,2.7,3.9,2.815,-0.28628532508382465,-0.0911182166057663,0.8731176790616929,-0.09785718974546051,-0.735064,-17.476675
11.185,2.0,1.0,1.0,33.4,33.9,33.9,2.7,3.9,2.8175,-0.30454801063942805,-0.09270528383983623,0.8620938317585872,-0.10516397670451841,-0.77817,-17.06555
11.185,2.0,1.0,1.0,33.4,33.9,33.9,2.7,3.9,2.82,-0.32284663718765794,-0.09415383253198181,0.8500712719933422,-0.11311321796010068,-0.825727,-16.643507
11.185,2.0,1.0,1.0,33.4,33.9,33.9,2.7,3.9,2.8225,-0.34113262436801145,-0.09541597890910468,0.836967033377058,-0.12177306138592818,-0.878389,-16.210049
11.185,2.0,1.0,1.0,33.4,33.9,33.9,2.7,3.9,2.825,-0.3593449783794583,-0.09643172738280897,0.8226898723851871,-0.13121906525512733,-0.936933,-15.764671
11.185,2.0,1.0,1.0,33.4,33.9,33.9,2.7,3.9,2.8275,-0.3774071503605364,-0.09712588699930184,0.8071398167544004,-0.1415345714503502,-1.002283,-15.306866
