1,w,sub_t,h,l1,l2,l3,g1,g2,Freq,S11_re,S21_re,S11_img,S21_img,S11_dB,S21_dB
11.185,2.0,1.0,1.0,33.6,33.9,33.9,4.3,1.5,2.5,0.83817521340827,-0.00775378408754978,0.533624555425769,0.00615562444250302,-0.05554,-40.087168
11.185,2.0,1.0,1.0,33.6,33.9,33.9,4.3,1.5,2.5025,0.8345429967810581,-0.007910036899182142,0.5391769003378526,0.006182476576980397,-0.056064,-39.965752
11.185,2.0,1.0,1.0,33.6,33.9,33.9,4.3,1.5,2.505,0.8308579754112128,-0.008069199512474118,0.5447270074916762,0.0062086382674735145,-0.056598,-39.843923
11.185,2.0,1.0,1.0,33.6,33.9,33.9,4.3,1.5,2.5075,0.8271196342925276,-0.008231336920670662,0.5502746091545366,0.006234077695860168,-0.057141,-39.721669
11.185,2.0,1.0,1.0,33.6,33.9,33.9,4.3,1.5,2.51,0.8233274502050467,-0.008396516053217907,0.5558194297303439,0.006258761771612219,-0.057694,-39.59898
11.185,2.0,1.0,1.0,33.6,33.9,33.9,4.3,1.5,2.5125,0.8194808915706198,-0.008564805849330469,0.561361185506864,0.006282656074053151,-0.058257,-39.475844
11.185,2.0,1.0,1.0,33.6,33.9,33.9,4.3,1.5,2.515,0.8155794183052965,-0.008736277335001248,0.5668995843943896,0.006305724791572131,-0.058831,-39.35225
11.185,2.0,1.0,1.0,33.6,33.9,33.9,4.3,1.5,2.5175,0.8116224816684438,-0.008911003703647781,0.572434325655476,0.006327930657605351,-0.059416,-39.228186
11.185,2.0,1.0,1.0,33.6,33.9,33.9,4.3,1.5,2.52,0.807609524108456,-0.009089060400598651,0.5779650996254063,0.006349234883187453,-0.060012,-39.10364
11.185,2.0,1.0,1.0,33.6,33.9,33.9,4.3,1.5,2.5225,0.8035399791049299,-0.009270525211640018,0.5834915874229771,0.006369597085855701,-0.060619,-38.9786
11.185,2.0,1.0,1.0,33.6,33.9,33.9,4.3,1.5,2.525,0.7994132710071473,-0.009455478355852772,0.589013460651232,0.006388975214678441,-0.061238,-38.853054
11.185,2.0,1.0,1.0,33.6,33.9,33.9,4.3,1.5,2.5275,0.7952288148687139,-0.009644002582990913,0.5945303810877126,0.006407325471160947,-0.061868,-38.726988
11.185,2.0,1.0,1.0,33.6,33.9,33.9,4.3,1.5,2.53,0.7909860162781917,-0.009836183275665003,0.6000420003637827,0.006424602225762671,-0.062512,-38.60039
11.185,2.0,1.0,1.0,33.6,33.9,33.9,4.3,1.5,2.5325,0.7866842711855377,-0.01003210855661225,0.6055479596325617,0.0064407579297425565,-0.063167,-38.473247
11.185,2.0,1.0,1.0,33.6,33.9,33.9,4.3,1.5,2.535,0.7823229657241576,-0.010231869401357013,0.6110478892249784,0.006455743022026254,-0.063836,-38.345545
11.185,2.0,1.0,1.0,33.6,33.9,33.9,4.3,1.5,2.5375,0.7779014760283727,-0.010435559756583926,0.6165414082934173,0.00646950583076512,-0.064518,-38.217271
11.185,2.0,1.0,1.0,33.6,33.9,33.9,4.3,1.5,2.54,0.7734191680460656,-0.010643276664566582,0.6220281244424132,0.006481992469235137,-0.065214,-38.088409
11.185,2.0,1.0,1.0,33.6,33.9,33.9,4.3,1.5,2.5425,0.7688753973462735,-0.010855120394024443,0.6275076333458122,0.006493146725692204,-0.065923,-37.958947
11.185,2.0,1.0,1.0,33.6,33.9,33.9,4.3,1.5,2.545,0.7642695089214603,-0.01107119457779969,0.6329795183497804,0.006502909946773808,-0.066648,-37.828868
11.185,2.0,1.0,1.0,33.6,33.9,33.9,4.3,1.5,2.5475,0.7596008369841959,-0.011291606357778478,0.6384433500610018,0.006511220914004696,-0.067387,-37.698159
11.185,2.0,1.0,1.0,33.6,33.9,33.9,4.3,1.5,2.55,0.7548687047579271,-0.01151646653751004,0.6438986859193867,0.006518015712926308,-0.068142,-37.566803
11.185,2.0,1.0,1.0,33.6,33.9,33.9,4.3,1.5,2.5525,0.7500724242615272,-0.011745889743008598,0.6493450697545291,0.006523227594334771,-0.068912,-37.434785
11.185,2.0,1.0,1.0,33.6,33.9,33.9,4.3,1.5,2.555,0.7452112960872542,-0.01197999459226045,0.6547820313251507,0.006526786827068486,-0.069699,-37.302088
11.185,2.0,1.0,1.0,33.6,33.9,33.9,4.3,1.5,2.5575,0.7402846091717401,-0.012218903873995041,0.660209085840687,0.006528620541741099,-0.070502,-37.168696
11.185,2.0,1.0,1.0,33.6,33.9,33.9,4.3,1.5,2.56,0.7352916405595938,-0.012462744736320886,0.6656257334641219,0.00652865256476685,-0.071323,-37.034592
11.185,2.0,1.0,1.0,33.6,33.9,33.9,4.3,1.5,2.5625,0.730231655159165,-0.012711648885874,0.671031458795126,0.00652680324196867,-0.072161,-36.899758
11.185,2.0,1.0,1.0,33.6,33.9,33.9,4.3,1.5,2.565,0.7251039054899698,-0.012965752798170041,0.6764257303324812,0.006522989251002153,-0.073018,-36.764176
11.185,2.0,1.0,1.0,33.6,33.9,33.9,4.3,1.5,2.5675,0.7199076314212607,-0.01322519793991085,0.6818079999147029,0.00651712340176144,-0.073894,-36.627829
11.185,2.0,1.0,1.0,33.6,33.9,33.9,4.3,1.5,2.57,0.7146420599011424,-0.01349013100404789,0.6871777021377011,0.006509114423862376,-0.07479,-36.490697
11.185,2.0,1.0,1.0,33.6,33.9,33.9,4.3,1.5,2.5725,0.7093064046756112,-0.013760704158469606,0.6925342537482287,0.006498866740219362,-0.075705,-36.35276
11.185,2.0,1.0,1.0,33.6,33.9,33.9,4.3,1.5,2.575,0.7038998659968279,-0.014037075309249157,0.6978770530117826,0.0064862802256456875,-0.076642,-36.213999
11.185,2.0,1.0,1.0,33.6,33.9,33.9,4.3,1.5,2.5775,0.6984216303198738,-0.014319408379457207,0.7032054790535104,0.006471249949313202,-0.0776,-36.074393
11.185,2.0,1.0,1.0,33.6,33.9,33.9,4.3,1.5,2.58,0.692870869987179,-0.014607873604630178,0.7085188911705776,0.0064536658998011415,-0.07858,-35.933921
11.185,2.0,1.0,1.0,33.6,33.9,33.9,4.3,1.5,2.5825,0.687246742899719,-0.014902647846070174,0.7138166281143253,0.00643341269135047,-0.079583,-35.792561
11.185,2.0,1.0,1.0,33.6,33.9,33.9,4.3,1.5,2.585,0.681548392174022,-0.015203914923243448,0.7190980073404102,0.0064103692498115785,-0.08061,-35.650291
11.185,2.0,1.0,1.0,33.6,33.9,33.9,4.3,1.5,2.5875,0.6757749457839091,-0.015511865966656243,0.7243623242249851,0.00638440847663491,-0.081661,-35.507088
11.185,2.0,1.0,1.0,33.6,33.9,33.9,4.3,1.5,2.59,0.6699255161858193,-0.015826699792691228,0.7296088512447996,0.006355396889097546,-0.082738,-35.362929
11.185,2.0,1.0,1.0,33.6,33.9,33.9,4.3,1.5,2.5925,0.6639991999264387,-0.016148623302018918,0.7348368371189492,0.006323194234786885,-0.083841,-35.217787
11.185,2.0,1.0,1.0,33.6,33.9,33.9,4.3,1.5,2.595,0.657995077231256,-0.01647785190332831,0.7400455059097718,0.006287653078178161,-0.084971,-35.07164
11.185,2.0,1.0,1.0,33.6,33.9,33.9,4.3,1.5,2.5975,0.6519122115725076,-0.016814609964270658,0.7452340560802143,0.006248618356923677,-0.086129,-34.924459
11.185,2.0,1.0,1.0,33.6,33.9,33.9,4.3,1.5,2.6,0.6457496492148547,-0.017159131291676923,0.7504016595047197,0.006205926905244726,-0.087317,-34.776219
11.185,2.0,1.0,1.0,33.6,33.9,33.9,4.3,1.5,2.6025,0.6395064187369698,-0.01751165964327485,0.7555474604304335,0.006159406941558812,-0.088535,-34.626891
11.185,2.0,1.0,1.0,33.6,33.9,33.9,4.3,1.5,2.605,0.6331815305270108,-0.017872449273341747,0.7606705743852428,0.0061088775171781635,-0.089785,-34.476447
11.185,2.0,1.0,1.0,33.6,33.9,33.9,4.3,1.5,2.6075,0.6267739762498006,-0.01824176551493002,0.7657700870288163,0.0060541479226051565,-0.091067,-34.324858
11.185,2.0,1.0,1.0,33.6,33.9,33.9,4.3,1.5,2.61,0.6202827282832869,-0.018619885401543135,0.7708450529424644,0.005995017047582191,-0.092383,-34.172092
11.185,2.0,1.0,1.0,33.6,33.9,33.9,4.3,1.5,2.6125,0.6137067391216298,-0.01900709833139612,0.7758944943532252,0.005931272690662165,-0.093734,-34.018118
11.185,2.0,1.0,1.0,33.6,33.9,33.9,4.3,1.5,2.615,0.6070449407419914,-0.019403706777678036,0.7809173997871386,0.0058626908136104805,-0.095122,-33.862903
11.185,2.0,1.0,1.0,33.6,33.9,33.9,4.3,1.5,2.6175,0.60029624393183,-0.019810027048545897,0.7859127226461479,0.005789034735455991,-0.096548,-33.706413
11.185,2.0,1.0,1.0,33.6,33.9,33.9,4.3,1.5,2.62,0.5934595375731504,-0.020226390100923423,0.7908793797025199,0.005710054260441832,-0.098013,-33.548612
11.185,2.0,1.0,1.0,33.6,33.9,33.9,4.3,1.5,2.6225,0.5865336878798187,-0.02065314241255693,0.795816249504034,0.005625484733502457,-0.09952,-33.389465
11.185,2.0,1.0,1.0,33.6,33.9,33.9,4.3,1.5,2.625,0.579517537583661,-0.0210906469171995,0.800722170682457,0.00553504601617864,-0.10107,-33.228932
11.185,2.0,1.0,1.0,33.6,33.9,33.9,4.3,1.5,2.6275,0.5724099050645938,-0.021539284008255017,0.8055959401570614,0.005438441375093607,-0.102664,-33.066975
11.185,2.0,1.0,1.0,33.6,33.9,33.9,4.3,1.5,2.63,0.5652095834195802,-0.02199945261672575,0.8104363112239902,0.005335356274207483,-0.104306,-32.903553
11.185,2.0,1.0,1.0,33.6,33.9,33.9,4.3,1.5,2.6325,0.557915339464633,-0.02247157136987101,0.8152419915212891,0.005225457061059072,-0.105996,-32.738624
11.185,2.0,1.0,1.0,33.6,33.9,33.9,4.3,1.5,2.635,0.5505259126635001,-0.022956079837606603,0.8200116408582521,0.005108389536055098,-0.107737,-32.572142
11.185,2.0,1.0,1.0,33.6,33.9,33.9,4.3,1.5,2.6375,0.5430400139759923,-0.023453439874372328,0.8247438688964274,0.004983777392566482,-0.109531,-32.404063
11.185,2.0,1.0,1.0,33.6,33.9,33.9,4.3,1.5,2.64,0.535456324618142,-0.023964137064955798,0.8294372326681557,0.004851220514124798,-0.111381,-32.234338
11.185,2.0,1.0,1.0,33.6,33.9,33.9,4.3,1.5,2.6425,0.5277734947255951,-0.02448868228361555,0.8340902339168142,0.0047102931133316105,-0.11329,-32.062917
11.185,2.0,1.0,1.0,33.6,33.9,33.9,4.3,1.5,2.645,0.5199901419106681,-0.025027613376786224,0.8387013162410463,0.004560541695193574,-0.115259,-31.889749
11.185,2.0,1.0,1.0,33.6,33.9,33.9,4.3,1.5,2.6475,0.5121048497024898,-0.02558149698070409,0.8432688620230477,0.004401482825424938,-0.117293,-31.71478
11.185,2.0,1.0,1.0,33.6,33.9,33.9,4.3,1.5,2.65,0.5041161658584897,-0.026150930486446816,0.8477911891185247,0.004232600681777521,-0.119394,-31.537953
11.185,2.0,1.0,1.0,33.6,33.9,33.9,4.3,1.5,2.6525,0.49602260053422864,-0.026736544166185008,0.852266547283034,0.004053344363623534,-0.121565,-31.359208
11.185,2.0,1.0,1.0,33.6,33.9,33.9,4.3,1.5,2.655,0.487822624297098,-0.02733900347587744,0.8566931143062015,0.0038631249317629553,-0.123811,-31.178485
11.185,2.0,1.0,1.0,33.6,33.9,33.9,4.3,1.5,2.6575,0.4795146659678568,-0.02795901155124752,0.8610689918215156,0.0036613121466946177,-0.126135,-30.995719
11.185,2.0,1.0,1.0,33.6,33.9,33.9,4.3,1.5,2.66,0.4710971102721654,-0.028597311915664263,0.8653922007550898,0.003447230869288901,-0.128541,-30.810843
11.185,2.0,1.0,1.0,33.6,33.9,33.9,4.3,1.5,2.6625,0.4625682952823062,-0.029254691420529683,0.8696606763717893,0.00322015708284718,-0.131033,-30.623786
11.185,2.0,1.0,1.0,33.6,33.9,33.9,4.3,1.5,2.665,0.45392650962703096,-0.029931983440992252,0.8738722628713677,0.002979313489802829,-0.133617,-30.434474
11.185,2.0,1.0,1.0,33.6,33.9,33.9,4.3,1.5,2.6675,0.445169989445046,-0.03063007135226189,0.878024707480558,0.0027238646296910843,-0.136297,-30.24283
11.185,2.0,1.0,1.0,33.6,33.9,33.9,4.3,1.5,2.67,0.4362969150548314,-0.0313498923145368,0.8821156539793396,0.002452911457313005,-0.13908,-30.048773
11.185,2.0,1.0,1.0,33.6,33.9,33.9,4.3,1.5,2.6725,0.42730540731045213,-0.03209244139759932,0.886142635590564,0.002165485311072807,-0.14197,-29.852216
11.185,2.0,1.0,1.0,33.6,33.9,33.9,4.3,1.5,2.675,0.41819352360957956,-0.03285877607951335,0.8901030671516148,0.0018605411910259202,-0.144975,-29.653071
11.185,2.0,1.0,1.0,33.6,33.9,33.9,4.3,1.5,2.6775,0.4089592535161332,-0.033650021157602676,0.8939942364744763,0.0015369502539803515,-0.148101,-29.451242
11.185,2.0,1.0,1.0,33.6,33.9,33.9,4.3,1.5,2.68,0.3996005139557267,-0.034467374114047336,0.8978132947861945,0.0011934914187049425,-0.151356,-29.246632
11.185,2.0,1.0,1.0,33.6,33.9,33.9,4.3,1.5,2.6825,0.39011514393742946,-0.03531211098300735,0.9015572461247606,0.0008288419575092179,-0.154748,-29.039134
11.185,2.0,1.0,1.0,33.6,33.9,33.9,4.3,1.5,2.685,0.38050089875018117,-0.03618559277124249,0.905222935545541,0.0004415669307075751,-0.158286,-28.82864
11.185,2.0,1.0,1.0,33.6,33.9,33.9,4.3,1.5,2.6875,0.370755443576526,-0.037089272489719,0.908807035969814,3.01072971335547e-05,-0.161979,-28.615031
11.185,2.0,1.0,1.0,33.6,33.9,33.9,4.3,1.5,2.69,0.3608763464601385,-0.03802470285973482,0.9123060334790801,-0.0004072334937505452,-0.165839,-28.398185
11.185,2.0,1.0,1.0,33.6,33.9,33.9,4.3,1.5,2.6925,0.3508610705568409,-0.0389935447636189,0.915716210825725,-0.0008723046554090204,-0.169876,-28.177973
11.185,2.0,1.0,1.0,33.6,33.9,33.9,4.3,1.5,2.695,0.3407069655916199,-0.03999757651705632,0.9190336288911236,-0.0013671252297774042,-0.174104,-27.954256
11.185,2.0,1.0,1.0,33.6,33.9,33.9,4.3,1.5,2.6975,0.33041125843638053,-0.04103870404749288,0.9222541057751763,-0.0018939035777778117,-0.178535,-27.726888
11.185,2.0,1.0,1.0,33.6,33.9,33.9,4.3,1.5,2.7,0.3199710427152174,-0.04211897207074554,0.9253731931447678,-0.0024550595636907285,-0.183186,-27.495714
11.185,2.0,1.0,1.0,33.6,33.9,33.9,4.3,1.5,2.7025,0.30938326733574084,-0.043240576365693485,0.9283861494007379,-0.003053249869455713,-0.188073,-27.260571
11.185,2.0,1.0,1.0,33.6,33.9,33.9,4.3,1.5,2.705,0.29864472383704144,-0.04440587725442562,0.9312879091410406,-0.003691396956000969,-0.193215,-27.021283
11.185,2.0,1.0,1.0,33.6,33.9,33.9,4.3,1.5,2.7075,0.28775203243749514,-0.04561741440197549,0.9340730482986501,-0.004372722286740791,-0.198631,-26.777664
11.185,2.0,1.0,1.0,33.6,33.9,33.9,4.3,1.5,2.71,0.2767016266596561,-0.04687792305504826,0.9367357442123581,-0.005100784547417452,-0.204345,-26.529516
11.185,2.0,1.0,1.0,33.6,33.9,33.9,4.3,1.5,2.7125,0.2654897364059218,-0.04819035184185082,0.9392697297418888,-0.005879523741511442,-0.210382,-26.276627
11.185,2.0,1.0,1.0,33.6,33.9,33.9,4.3,1.5,2.715,0.2541123693591628,-0.04955788225370675,0.9416682403592519,-0.006713312217851048,-0.216769,-26.018772
11.185,2.0,1.0,1.0,33.6,33.9,33.9,4.3,1.5,2.7175,0.24256529058920753,-0.05098394992125837,0.9439239529278288,-0.007607013904824197,-0.22354,-25.755709
11.185,2.0,1.0,1.0,33.6,33.9,33.9,4.3,1.5,2.72,0.23084400026240515,-0.05247226778047133,0.9460289146090108,-0.008566053293985191,-0.230727,-25.487178
11.185,2.0,1.0,1.0,33.6,33.9,33.9,4.3,1.5,2.7225,0.21894370938198024,-0.05402685119159533,0.9479744599999668,-0.00959649604790826,-0.238372,-25.212902
11.185,2.0,1.0,1.0,33.6,33.9,33.9,4.3,1.5,2.725,0.20685931353856662,-0.05565204502090303,0.9497511141883441,-0.010705143519630077,-0.246519,-24.932582
11.185,2.0,1.0,1.0,33.6,33.9,33.9,4.3,1.5,2.7275,0.19458536473265,-0.057352552610652086,0.9513484788884699,-0.011899643985553847,-0.255217,-24.645898
11.185,2.0,1.0,1.0,33.6,33.9,33.9,4.3,1.5,2.73,0.18211604145807558,-0.059133466433200325,0.9527550981705799,-0.013188624038146657,-0.264526,-24.352503
11.185,2.0,1.0,1.0,33.6,33.9,33.9,4.3,1.5,2.7325,0.16944511742829355,-0.06100030003026168,0.9539582994729862,-0.014581844395375791,-0.274509,-24.052024
11.185,2.0,1.0,1.0,33.6,33.9,33.9,4.3,1.5,2.735,0.15656592961440913,-0.06295902054849974,0.9549440045490237,-0.01609038540773238,-0.285242,-23.744058
11.185,2.0,1.0,1.0,33.6,33.9,33.9,4.3,1.5,2.7375,0.14347134668895672,-0.06501608075534894,0.9556965036835254,-0.01772686884240476,-0.296811,-23.428167
11.185,2.0,1.0,1.0,33.6,33.9,33.9,4.3,1.5,2.74,0.13015373959445198,-0.06717844879183334,0.956198184835568,-0.019505724178264502,-0.309314,-23.103878
11.185,2.0,1.0,1.0,33.6,33.9,33.9,4.3,1.5,2.7425,0.11660495687280849,-0.06945363300083914,0.9564292072179362,-0.021443509760326218,-0.322866,-22.770675
11.185,2.0,1.0,1.0,33.6,33.9,33.9,4.3,1.5,2.745,0.102816308736351,-0.07184969782519003,0.9563671060680976,-0.02355930187681127,-0.3376,-22.427999
11.185,2.0,1.0,1.0,33.6,33.9,33.9,4.3,1.5,2.7475,0.08877856583438966,-0.0743752648001239,0.955986311815672,-0.025875168317266144,-0.353673,-22.07524
11.185,2.0,1.0,1.0,33.6,33.9,33.9,4.3,1.5,2.75,0.0744819815716592,-0.0770394897713017,0.955257562265716,-0.0284167474834303,-0.371268,-21.71173
11.185,2.0,1.0,1.0,33.6,33.9,33.9,4.3,1.5,2.7525,0.05991635111814333,-0.0798520032041049,0.9541471804817399,-0.03121395996302791,-0.390601,-21.33674
11.185,2.0,1.0,1.0,33.6,33.9,33.9,4.3,1.5,2.755,0.04507112659803773,-0.0828227941346213,0.9526161833647174,-0.03430188703425989,-0.41193,-20.949474
11.185,2.0,1.0,1.0,33.6,33.9,33.9,4.3,1.5,2.7575,0.02993561740237938,-0.08596200891355534,0.9506191759784676,-0.03772186033904084,-0.435564,-20.549055
11.185,2.0,1.0,1.0,33.6,33.9,33.9,4.3,1.5,2.76,0.014499318738608477,-0.08927962182404045,0.9481029738555061,-0.04152281954160161,-0.461874,-20.134524
11.185,2.0,1.0,1.0,33.6,33.9,33.9,4.3,1.5,2.7625,-0.0012475671081082019,-0.09278491345809822,0.9450048791399871,-0.04576301084392041,-0.491311,-19.704826
11.185,2.0,1.0,1.0,33.6,33.9,33.9,4.3,1.5,2.765,-0.017313319907096433,-0.09648566059227408,0.9412505158190048,-0.05051211939683445,-0.524426,-19.258803
11.185,2.0,1.0,1.0,33.6,33.9,33.9,4.3,1.5,2.7675,-0.03370345457755719,-0.10038689222460066,0.9367511040863183,-0.055853953260027144,-0.561897,-18.795185
11.185,2.0,1.0,1.0,33.6,33.9,33.9,4.3,1.5,2.77,-0.050418815628381346,-0.10448899100507032,0.9314000246174465,-0.061889825033023496,-0.604568,-18.31258
11.185,2.0,1.0,1.0,33.6,33.9,33.9,4.3,1.5,2.7725,-0.06745267243669854,-0.10878480266374604,0.9250684930493397,-0.06874280671315411,-0.653493,-17.809474
11.185,2.0,1.0,1.0,33.6,33.9,33.9,4.3,1.5,2.775,-0.08478629158049214,-0.11325523485615625,0.917600141316219,-0.07656305563178474,-0.710009,-17.284221
11.185,2.0,1.0,1.0,33.6,33.9,33.9,4.3,1.5,2.7775,-0.10238217678023631,-0.11786254467791474,0.9088043051344367,-0.08553440506119893,-0.775821,-16.735061
11.185,2.0,1.0,1.0,33.6,33.9,33.9,4.3,1.5,2.78,-0.12017372240236118,-0.12254007532911415,0.8984478893784099,-0.09588233894944599,-0.85313,-16.160143
11.185,2.0,1.0,1.0,33.6,33.9,33.9,4.3,1.5,2.7825,-0.13804934018650014,-0.1271765258350855,0.8862459189277359,-0.10788323330969718,-0.944796,-15.557575
11.185,2.0,1.0,1.0,33.6,33.9,33.9,4.3,1.5,2.785,-0.15582808107124266,-0.131591816013484,0.8718514775847706,-0.1218741530212094,-1.054583,-14.925528
11.185,2.0,1.0,1.0,33.6,33.9,33.9,4.3,1.5,2.7875,-0.1732222730938458,-0.1355001340706817,0.854847091545087,-0.13826114672937978,-1.187469,-14.262418
11.185,2.0,1.0,1.0,33.6,33.9,33.9,4.3,1.5,2.79,-0.18978073007845378,-0.13845382865762815,0.8347425172836471,-0.1575211031420459,-1.350075,-13.567215
11.185,2.0,1.0,1.0,33.6,33.9,33.9,4.3,1.5,2.7925,-0.20480411858062342,-0.139759898214172,0.810989830978971,-0.1801863556816277,-1.551196,-12.839971
11.185,2.0,1.0,1.0,33.6,33.9,33.9,4.3,1.5,2.795,-0.21722402462518559,-0.1383608513918465,0.7830382001628148,-0.2067898784361966,-1.802356,-12.082688
11.185,2.0,1.0,1.0,33.6,33.9,33.9,4.3,1.5,2.7975,-0.2254449310261434,-0.13267940552842108,0.7504710262958245,-0.23772889990167512,-2.118089,-11.300713
11.185,2.0,1.0,1.0,33.6,33.9,33.9,4.3,1.5,2.8,-0.22717816517617198,-0.12045614811766205,0.7132979764882971,-0.2729754671185344,-2.514988,-10.504866
11.185,2.0,1.0,1.0,33.6,33.9,33.9,4.3,1.5,2.8025,-0.2193774604558093,-0.09868902637571723,0.6724983319126454,-0.31153934011560025,-3.006996,-9.714439
11.185,2.0,1.0,1.0,33.6,33.9,33.9,4.3,1.5,2.805,-0.1985487295489765,-0.06394421536046577,0.6308626646372938,-0.3506383519942325,-3.59112,-8.960728
11.185,2.0,1.0,1.0,33.6,33.9,33.9,4.3,1.5,2.8075,-0.16190002180117308,-0.013497274300063204,0.5938925260990555,-0.38481631652215426,-4.214525,-8.289591
11.185,2.0,1.0,1.0,33.6,33.9,33.9,4.3,1.5,2.81,-0.1096558494058563,0.052380480053224654,0.5698391592129957,-0.40591815210255455,-4.727039,-7.759508
11.185,2.0,1.0,1.0,33.6,33.9,33.9,4.3,1.5,2.8125,-0.0476593037967141,0.127864893926134,0.567390787140643,-0.405389454517322,-4.89182,-7.430658
11.185,2.0,1.0,1.0,33.6,33.9,33.9,4.3,1.5,2.815,0.012571763464572559,0.20155131743150143,0.5908501806973656,-0.3790405243451669,-4.568487,-7.344873
11.185,2.0,1.0,1.0,33.6,33.9,33.9,4.3,1.5,2.8175,0.05849931718104634,0.2610742006486866,0.6363736733479726,-0.3307346772183632,-3.88921,-7.506912
11.185,2.0,1.0,1.0,33.6,33.9,33.9,4.3,1.5,2.82,0.0828565420154135,0.29931206372187263,0.6936700397769342,-0.270673740305665,-3.115416,-7.882069
11.185,2.0,1.0,1.0,33.6,33.9,33.9,4.3,1.5,2.8225,0.08582010946218253,0.3164999339838682,0.7517823400433322,-0.20967408519378739,-2.421928,-8.412293
11.185,2.0,1.0,1.0,33.6,33.9,33.9,4.3,1.5,2.825,0.07230823131881677,0.3175351889990849,0.8034390911424352,-0.15488403638071424,-1.865906,-9.03724
11.185,2.0,1.0,1.0,33.6,33.9,33.9,4.3,1.5,2.8275,0.04824835775598475,0.3082871279717312,0.8456730214578961,-0.1091941861999516,-1.441837,-9.707611
11.185,2.0,1.0,1.0,33.6,33.9,33.9,4.3,1.5,2.83,0.01846797937255479,0.2935217853802476,0.8783764079958043,-0.07267663453104688,-1.124467,-10.388784
