1,w,sub_t,h,l1,l2,l3,g1,g2,Freq,S11_re,S21_re,S11_img,S21_img,S11_dB,S21_dB
11.185,2.0,1.0,1.0,33.6,34.0,34.0,2.1,2.7,2.5,0.832119632706739,-0.0115934615390209,0.540955573448392,0.010056955294471,-0.065391,-36.279156
11.185,2.0,1.0,1.0,33.6,34.0,34.0,2.1,2.7,2.5025,0.8282575493633989,-0.011840829995763686,0.5467043677574054,0.010112069271509008,-0.066095,-36.153613
11.185,2.0,1.0,1.0,33.6,34.0,34.0,2.1,2.7,2.505,0.8243362892048747,-0.012093188474404519,0.5524518091500273,0.010166279848899687,-0.066814,-36.027581
11.185,2.0,1.0,1.0,33.6,34.0,34.0,2.1,2.7,2.5075,0.8203551916185441,-0.01235065413441666,0.5581975898881507,0.010219532015758577,-0.067546,-35.901049
11.185,2.0,1.0,1.0,33.6,34.0,34.0,2.1,2.7,2.51,0.8163135840507009,-0.01261334755271985,0.5639413920188946,0.010271768270316953,-0.068294,-35.774007
11.185,2.0,1.0,1.0,33.6,34.0,34.0,2.1,2.7,2.5125,0.8122107817571175,-0.012881392842398994,0.569682887006524,0.010322928500020584,-0.069056,-35.646444
11.185,2.0,1.0,1.0,33.6,34.0,34.0,2.1,2.7,2.515,0.8080460875474439,-0.01315491777619684,0.5754217353500602,0.010372949855254974,-0.069834,-35.51835
11.185,2.0,1.0,1.0,33.6,34.0,34.0,2.1,2.7,2.5175,0.8038187915232711,-0.013434053914997211,0.5811575861859153,0.01042176661631955,-0.070628,-35.389714
11.185,2.0,1.0,1.0,33.6,34.0,34.0,2.1,2.7,2.52,0.7995281708096439,-0.013718936741528569,0.5868900768748957,0.010469310053246108,-0.071438,-35.260524
11.185,2.0,1.0,1.0,33.6,34.0,34.0,2.1,2.7,2.5225,0.7951734892798382,-0.014009705799526383,0.5926188325728275,0.01051550827803231,-0.072265,-35.13077
11.185,2.0,1.0,1.0,33.6,34.0,34.0,2.1,2.7,2.525,0.7907539972731721,-0.014306504838608394,0.5983434657840709,0.010560286088830374,-0.07311,-35.00044
11.185,2.0,1.0,1.0,33.6,34.0,34.0,2.1,2.7,2.5275,0.7862689313056355,-0.014609481965126543,0.6040635758971127,0.010603564805600705,-0.073972,-34.869522
11.185,2.0,1.0,1.0,33.6,34.0,34.0,2.1,2.7,2.53,0.7817175137731105,-0.014918789799274048,0.6097787487013963,0.010645262096706751,-0.074852,-34.738005
11.185,2.0,1.0,1.0,33.6,34.0,34.0,2.1,2.7,2.5325,0.7770989526469378,-0.015234585638741405,0.615488555884496,0.01068529179589145,-0.075751,-34.605876
11.185,2.0,1.0,1.0,33.6,34.0,34.0,2.1,2.7,2.535,0.7724124411615761,-0.015557031629228118,0.6211925545087018,0.01072356370903692,-0.076669,-34.473123
11.185,2.0,1.0,1.0,33.6,34.0,34.0,2.1,2.7,2.5375,0.767657157494101,-0.015886294942133426,0.6268902864660056,0.010759983410066544,-0.077607,-34.339733
11.185,2.0,1.0,1.0,33.6,34.0,34.0,2.1,2.7,2.54,0.7628322644352655,-0.016222547959767457,0.6325812779104474,0.01079445202530625,-0.078566,-34.205694
11.185,2.0,1.0,1.0,33.6,34.0,34.0,2.1,2.7,2.5425,0.7579369090518371,-0.01656596846843871,0.6382650386667027,0.010826866005569495,-0.079546,-34.070993
11.185,2.0,1.0,1.0,33.6,34.0,34.0,2.1,2.7,2.545,0.7529702223399186,-0.0169167398597952,0.6439410616137284,0.010857116885182485,-0.080547,-33.935616
11.185,2.0,1.0,1.0,33.6,34.0,34.0,2.1,2.7,2.5475,0.7479313188689465,-0.017275051340813606,0.64960882204221,0.010885091027105831,-0.081571,-33.79955
11.185,2.0,1.0,1.0,33.6,34.0,34.0,2.1,2.7,2.55,0.7428192964160326,-0.017641098152853318,0.6552677769844976,0.01091066935325203,-0.082618,-33.662781
11.185,2.0,1.0,1.0,33.6,34.0,34.0,2.1,2.7,2.5525,0.7376332355903321,-0.018015081800210667,0.6609173645155987,0.010933727059028446,-0.083688,-33.525294
11.185,2.0,1.0,1.0,33.6,34.0,34.0,2.1,2.7,2.555,0.7323721994470704,-0.018397210288635522,0.6665570030237497,0.010954133311068122,-0.084783,-33.387077
11.185,2.0,1.0,1.0,33.6,34.0,34.0,2.1,2.7,2.5575,0.7270352330908653,-0.018787698374291815,0.6721860904489679,0.010971750927031072,-0.085903,-33.248113
11.185,2.0,1.0,1.0,33.6,34.0,34.0,2.1,2.7,2.56,0.7216213632679715,-0.019186767823671024,0.6778040034878923,0.010986436036277756,-0.087049,-33.108387
11.185,2.0,1.0,1.0,33.6,34.0,34.0,2.1,2.7,2.5625,0.7161295979470393,-0.019594647684992878,0.6834100967631112,0.010998037720124051,-0.088222,-32.967886
11.185,2.0,1.0,1.0,33.6,34.0,34.0,2.1,2.7,2.565,0.7105589258879698,-0.020011574571655612,0.689003701955069,0.011006397630292783,-0.089423,-32.826592
11.185,2.0,1.0,1.0,33.6,34.0,34.0,2.1,2.7,2.5675,0.7049083161984407,-0.02043779295832524,0.6945841268944954,0.01101134958406753,-0.090652,-32.684489
11.185,2.0,1.0,1.0,33.6,34.0,34.0,2.1,2.7,2.57,0.6991767178776404,-0.02087355549028579,0.7001506546131933,0.01101271913454238,-0.091911,-32.541563
11.185,2.0,1.0,1.0,33.6,34.0,34.0,2.1,2.7,2.5725,0.6933630593467368,-0.021319123306701465,0.7057025423508536,0.01101032311423542,-0.093201,-32.397795
11.185,2.0,1.0,1.0,33.6,34.0,34.0,2.1,2.7,2.575,0.6874662479655903,-0.021774766378476824,0.7112390205154193,0.011003969150199296,-0.094521,-32.253168
11.185,2.0,1.0,1.0,33.6,34.0,34.0,2.1,2.7,2.5775,0.6814851695351904,-0.02224076386143318,0.716759291594342,0.010993455148614007,-0.095875,-32.107666
11.185,2.0,1.0,1.0,33.6,34.0,34.0,2.1,2.7,2.58,0.6754186877852849,-0.02271740446555629,0.7222625290138963,0.010978568746688264,-0.097262,-31.961269
11.185,2.0,1.0,1.0,33.6,34.0,34.0,2.1,2.7,2.5825,0.6692656438466322,-0.023204986841108385,0.7277478759435201,0.010959086729521634,-0.098684,-31.813961
11.185,2.0,1.0,1.0,33.6,34.0,34.0,2.1,2.7,2.585,0.6630248557073003,-0.02370381998243414,0.7332144440419196,0.01093477440938914,-0.100142,-31.665721
11.185,2.0,1.0,1.0,33.6,34.0,34.0,2.1,2.7,2.5875,0.6566951176523997,-0.024214223650331497,0.7386613121414627,0.010905384964703831,-0.101637,-31.516532
11.185,2.0,1.0,1.0,33.6,34.0,34.0,2.1,2.7,2.59,0.6502751996866235,-0.024736528813898807,0.7440875248671078,0.010870658735688583,-0.10317,-31.366372
11.185,2.0,1.0,1.0,33.6,34.0,34.0,2.1,2.7,2.5925,0.6437638469389301,-0.025271078112812977,0.7494920911858644,0.010830322473540249,-0.104744,-31.215223
11.185,2.0,1.0,1.0,33.6,34.0,34.0,2.1,2.7,2.595,0.6371597790487052,-0.025818226341034006,0.7548739828824468,0.010784088539602598,-0.106359,-31.063063
11.185,2.0,1.0,1.0,33.6,34.0,34.0,2.1,2.7,2.5975,0.630461689532678,-0.026378340952980254,0.7602321329565032,0.010731654050769715,-0.108017,-30.90987
11.185,2.0,1.0,1.0,33.6,34.0,34.0,2.1,2.7,2.6,0.623668245131873,-0.026951802593258873,0.7655654339363952,0.010672699967020657,-0.10972,-30.755624
11.185,2.0,1.0,1.0,33.6,34.0,34.0,2.1,2.7,2.6025,0.6167780851378538,-0.027539005651083262,0.7708727361041532,0.010606890116635006,-0.111469,-30.600302
11.185,2.0,1.0,1.0,33.6,34.0,34.0,2.1,2.7,2.605,0.609789820697469,-0.02814035884055487,0.7761528456257896,0.010533870154252485,-0.113265,-30.443881
11.185,2.0,1.0,1.0,33.6,34.0,34.0,2.1,2.7,2.6075,0.6027020340953219,-0.028756285808031305,0.7814045225807028,0.010453266446519664,-0.115112,-30.286338
11.185,2.0,1.0,1.0,33.6,34.0,34.0,2.1,2.7,2.61,0.5955132780131485,-0.02938722576784347,0.7866264788833819,0.010364684879601275,-0.117009,-30.127648
11.185,2.0,1.0,1.0,33.6,34.0,34.0,2.1,2.7,2.6125,0.5882220747652809,-0.030033634167671686,0.7918173760900911,0.010267709582326142,-0.118961,-29.967786
11.185,2.0,1.0,1.0,33.6,34.0,34.0,2.1,2.7,2.615,0.580826915509354,-0.03069598338492509,0.7969758230825941,0.010161901558178834,-0.120968,-29.806728
11.185,2.0,1.0,1.0,33.6,34.0,34.0,2.1,2.7,2.6175,0.5733262594314301,-0.03137476345550629,0.802100373620317,0.010046797218732823,-0.123033,-29.644446
11.185,2.0,1.0,1.0,33.6,34.0,34.0,2.1,2.7,2.62,0.5657185329046929,-0.03207048283637429,0.807189523751622,0.00992190681044327,-0.125159,-29.480915
11.185,2.0,1.0,1.0,33.6,34.0,34.0,2.1,2.7,2.6225,0.5580021286208785,-0.032783669203343066,0.8122417090740718,0.009786712725974598,-0.127347,-29.316105
11.185,2.0,1.0,1.0,33.6,34.0,34.0,2.1,2.7,2.625,0.550175404693658,-0.0335148702855674,0.817255301832665,0.00964066769041232,-0.129601,-29.149989
11.185,2.0,1.0,1.0,33.6,34.0,34.0,2.1,2.7,2.6275,0.5422366837331618,-0.03426465473817694,0.8222286078440922,0.009483192811804673,-0.131922,-28.982538
11.185,2.0,1.0,1.0,33.6,34.0,34.0,2.1,2.7,2.63,0.5341842518909434,-0.03503361305451,0.8271598632339566,0.009313675484474282,-0.134315,-28.81372
11.185,2.0,1.0,1.0,33.6,34.0,34.0,2.1,2.7,2.6325,0.5260163578747035,-0.03582235851937567,0.8320472309727599,0.009131467132436125,-0.136781,-28.643506
11.185,2.0,1.0,1.0,33.6,34.0,34.0,2.1,2.7,2.635,0.5177312119322004,-0.036631528204732276,0.8368887971951452,0.00893588077902801,-0.139325,-28.471863
11.185,2.0,1.0,1.0,33.6,34.0,34.0,2.1,2.7,2.6375,0.5093269848038932,-0.03746178400909871,0.8416825672854535,0.008726188427505732,-0.141949,-28.298757
11.185,2.0,1.0,1.0,33.6,34.0,34.0,2.1,2.7,2.64,0.5008018066439768,-0.03831381374192596,0.8464264617110827,0.008501618235848428,-0.144657,-28.124156
11.185,2.0,1.0,1.0,33.6,34.0,34.0,2.1,2.7,2.6425,0.4921537659097006,-0.03918833225401596,0.8511183115833653,0.008261351467350344,-0.147453,-27.948023
11.185,2.0,1.0,1.0,33.6,34.0,34.0,2.1,2.7,2.645,0.4833809082190493,-0.04008608261490592,0.8557558539237572,0.008004519196721568,-0.15034,-27.770323
11.185,2.0,1.0,1.0,33.6,34.0,34.0,2.1,2.7,2.6475,0.474481235177183,-0.0410078373379041,0.8603367266109517,0.007730198749358575,-0.153324,-27.591018
11.185,2.0,1.0,1.0,33.6,34.0,34.0,2.1,2.7,2.65,0.46545270317234866,-0.041954399653176204,0.8648584629821772,0.007437409849151789,-0.156409,-27.410069
11.185,2.0,1.0,1.0,33.6,34.0,34.0,2.1,2.7,2.6525,0.45629322214246554,-0.04292660482890889,0.8693184860592199,0.007125110447644774,-0.159598,-27.227437
11.185,2.0,1.0,1.0,33.6,34.0,34.0,2.1,2.7,2.655,0.4470006543140359,-0.043925321540125566,0.8737141023668122,0.0067921922045091725,-0.162899,-27.043081
11.185,2.0,1.0,1.0,33.6,34.0,34.0,2.1,2.7,2.6575,0.43757281291574557,-0.04495145328415756,0.8780424953076822,0.0064374755861255776,-0.166315,-26.856957
11.185,2.0,1.0,1.0,33.6,34.0,34.0,2.1,2.7,2.66,0.4280074608698384,-0.04600593984107534,0.8823007180549036,0.006059704545508467,-0.169852,-26.669022
11.185,2.0,1.0,1.0,33.6,34.0,34.0,2.1,2.7,2.6625,0.4183023094653355,-0.04708975877652873,0.8864856859180599,0.005657540742846537,-0.173518,-26.47923
11.185,2.0,1.0,1.0,33.6,34.0,34.0,2.1,2.7,2.665,0.4084550170182387,-0.048203926983400154,0.8905941681351701,0.0052295572614868184,-0.177317,-26.287535
11.185,2.0,1.0,1.0,33.6,34.0,34.0,2.1,2.7,2.6675,0.39846318752529836,-0.0493495022574001,0.8946227790371473,0.004774231769218612,-0.181258,-26.093887
11.185,2.0,1.0,1.0,33.6,34.0,34.0,2.1,2.7,2.67,0.3883243693194915,-0.05052758490019365,0.8985679685258436,0.004289939069127833,-0.185347,-25.898235
11.185,2.0,1.0,1.0,33.6,34.0,34.0,2.1,2.7,2.6725,0.3780360537373682,-0.05173931934177747,0.9024260118002613,0.0037749429780356667,-0.189592,-25.700528
11.185,2.0,1.0,1.0,33.6,34.0,34.0,2.1,2.7,2.675,0.36759567381078795,-0.05298589577156573,0.9061929982582613,0.0032273874634908364,-0.194002,-25.500712
11.185,2.0,1.0,1.0,33.6,34.0,34.0,2.1,2.7,2.6775,0.3570006029983977,-0.05426855176492173,0.9098648194929875,0.0026452869623773065,-0.198587,-25.298729
11.185,2.0,1.0,1.0,33.6,34.0,34.0,2.1,2.7,2.68,0.3462481539756175,-0.05558857388857803,0.9134371562940431,0.0020265157952809257,-0.203355,-25.094521
11.185,2.0,1.0,1.0,33.6,34.0,34.0,2.1,2.7,2.6825,0.3353355775060075,-0.05694729926442895,0.9169054645531692,0.0013687965807238588,-0.208316,-24.888029
11.185,2.0,1.0,1.0,33.6,34.0,34.0,2.1,2.7,2.685,0.3242600614217859,-0.058346117066404884,0.9202649599625566,0.0006696875420472399,-0.213484,-24.679189
11.185,2.0,1.0,1.0,33.6,34.0,34.0,2.1,2.7,2.6875,0.313018729747175,-0.0597864699193891,0.923510601380823,-7.34314130595085e-05,-0.218868,-24.467935
11.185,2.0,1.0,1.0,33.6,34.0,34.0,2.1,2.7,2.69,0.30160864200536164,-0.06126985516221093,0.9266370727268909,-0.0008633739748277969,-0.224483,-24.254201
11.185,2.0,1.0,1.0,33.6,34.0,34.0,2.1,2.7,2.6925,0.2900267927583213,-0.06279782592841601,0.9296387632453056,-0.001703164226257923,-0.230342,-24.037914
11.185,2.0,1.0,1.0,33.6,34.0,34.0,2.1,2.7,2.695,0.27827011143907454,-0.06437199198845762,0.9325097459676042,-0.00259605511980111,-0.23646,-23.819003
11.185,2.0,1.0,1.0,33.6,34.0,34.0,2.1,2.7,2.6975,0.26633546254817103,-0.06599402028485135,0.9352437541729892,-0.0035455488260681075,-0.242854,-23.597391
11.185,2.0,1.0,1.0,33.6,34.0,34.0,2.1,2.7,2.7,0.2542196463011358,-0.06766563507721246,0.9378341556272975,-0.004555419168462355,-0.249542,-23.372998
11.185,2.0,1.0,1.0,33.6,34.0,34.0,2.1,2.7,2.7025,0.24191939983140778,-0.06938861759647322,0.9402739243518295,-0.005629736384527706,-0.256541,-23.145741
11.185,2.0,1.0,1.0,33.6,34.0,34.0,2.1,2.7,2.705,0.22943139907495996,-0.07116480508626237,0.9425556096424601,-0.006772894485284559,-0.263874,-22.915535
11.185,2.0,1.0,1.0,33.6,34.0,34.0,2.1,2.7,2.7075,0.21675226148880844,-0.07299608908367572,0.9446713020241693,-0.007989641518428377,-0.271562,-22.682289
11.185,2.0,1.0,1.0,33.6,34.0,34.0,2.1,2.7,2.71,0.2038785497871885,-0.07488441276047339,0.9466125957860769,-0.009285113080505501,-0.27963,-22.44591
11.185,2.0,1.0,1.0,33.6,34.0,34.0,2.1,2.7,2.7125,0.19080677691733633,-0.07683176710795443,0.9483705476966678,-0.010664869467717558,-0.288105,-22.206301
11.185,2.0,1.0,1.0,33.6,34.0,34.0,2.1,2.7,2.715,0.17753341254313343,-0.07884018570289626,0.9499356314473917,-0.01213493690550061,-0.297016,-21.963359
11.185,2.0,1.0,1.0,33.6,34.0,34.0,2.1,2.7,2.7175,0.16405489136108914,-0.08091173773623571,0.9512976873144601,-0.013701853354274533,-0.306394,-21.716979
11.185,2.0,1.0,1.0,33.6,34.0,34.0,2.1,2.7,2.72,0.1503676236415278,-0.08304851891837656,0.9524458664625934,-0.015372719453567597,-0.316275,-21.467048
11.185,2.0,1.0,1.0,33.6,34.0,34.0,2.1,2.7,2.7225,0.1364680084710735,-0.08525263979242999,0.953368569239759,-0.01715525524002073,-0.326696,-21.213452
11.185,2.0,1.0,1.0,33.6,34.0,34.0,2.1,2.7,2.725,0.12235245027419125,-0.08752621088589742,0.9540533767276073,-0.01905786335746848,-0.3377,-20.956069
11.185,2.0,1.0,1.0,33.6,34.0,34.0,2.1,2.7,2.7275,0.10801737931553555,-0.08987132400816787,0.9544869747174375,-0.021089699570379726,-0.349333,-20.694773
11.185,2.0,1.0,1.0,33.6,34.0,34.0,2.1,2.7,2.73,0.09345927703684863,-0.09229002885042076,0.954655069175053,-0.023260751496299227,-0.361645,-20.429431
11.185,2.0,1.0,1.0,33.6,34.0,34.0,2.1,2.7,2.7325,0.07867470726821783,-0.09478430385972399,0.9545422921390465,-0.025581926589402965,-0.374693,-20.159906
11.185,2.0,1.0,1.0,33.6,34.0,34.0,2.1,2.7,2.735,0.06366035458216851,-0.09735602013213758,0.9541320968652185,-0.02806515053640901,-0.38854,-19.886052
11.185,2.0,1.0,1.0,33.6,34.0,34.0,2.1,2.7,2.7375,0.04841307134010936,-0.10000689679049148,0.9534066408847875,-0.03072347736805941,-0.403253,-19.607719
11.185,2.0,1.0,1.0,33.6,34.0,34.0,2.1,2.7,2.74,0.03292993532700623,-0.10273844596860639,0.9523466554862642,-0.033571212743645495,-0.418909,-19.324748
11.185,2.0,1.0,1.0,33.6,34.0,34.0,2.1,2.7,2.7425,0.01720832029735628,-0.10555190509942908,0.9509312999618845,-0.03662405203102729,-0.435595,-19.036975
11.185,2.0,1.0,1.0,33.6,34.0,34.0,2.1,2.7,2.745,0.0012459822835041595,-0.10844815368026552,0.949137998782476,-0.03989923497701681,-0.453405,-18.744227
11.185,2.0,1.0,1.0,33.6,34.0,34.0,2.1,2.7,2.7475,-0.01495883482943503,-0.11142761103957513,0.9469422596852435,-0.04341571893717159,-0.472446,-18.446325
11.185,2.0,1.0,1.0,33.6,34.0,34.0,2.1,2.7,2.75,-0.031407270148432,-0.114490110826117,0.944317470486468,-0.0471943728006002,-0.492838,-18.143079
11.185,2.0,1.0,1.0,33.6,34.0,34.0,2.1,2.7,2.7525,-0.0480996877198048,-0.11763474694455273,0.9412346722801243,-0.05125819388961625,-0.514715,-17.834294
11.185,2.0,1.0,1.0,33.6,34.0,34.0,2.1,2.7,2.755,-0.06503548301552269,-0.12085968442459395,0.9376623065764472,-0.05563255021351187,-0.538228,-17.519766
11.185,2.0,1.0,1.0,33.6,34.0,34.0,2.1,2.7,2.7575,-0.08221284584795503,-0.12416192717478869,0.93356593390502,-0.06034545047668123,-0.56355,-17.199282
11.185,2.0,1.0,1.0,33.6,34.0,34.0,2.1,2.7,2.76,-0.09962846968073485,-0.12753703266472716,0.9289079215050207,-0.06542784413393372,-0.590874,-16.872622
11.185,2.0,1.0,1.0,33.6,34.0,34.0,2.1,2.7,2.7625,-0.11727719491817441,-0.13097876121237667,0.9236470980237207,-0.0709139534772618,-0.620421,-16.539557
11.185,2.0,1.0,1.0,33.6,34.0,34.0,2.1,2.7,2.765,-0.13515157079839218,-0.13447864461929268,0.9177383737493465,-0.07684163912261638,-0.652442,-16.199853
11.185,2.0,1.0,1.0,33.6,34.0,34.0,2.1,2.7,2.7675,-0.15324131685716338,-0.1380254552679829,0.9111323259690611,-0.08325279918978491,-0.687227,-15.853265
11.185,2.0,1.0,1.0,33.6,34.0,34.0,2.1,2.7,2.77,-0.17153266042002166,-0.14160455232418107,0.9037747507869132,-0.09019380071423568,-0.725104,-15.499547
11.185,2.0,1.0,1.0,33.6,34.0,34.0,2.1,2.7,2.7725,-0.19000752104998622,-0.1451970762052067,0.8956061854738933,-0.09771593908427231,-0.766455,-15.138446
11.185,2.0,1.0,1.0,33.6,34.0,34.0,2.1,2.7,2.775,-0.20864250614799568,-0.14877895580725867,0.8865614095984421,-0.10587591711641561,-0.811717,-14.769707
11.185,2.0,1.0,1.0,33.6,34.0,34.0,2.1,2.7,2.7775,-0.22740767380145993,-0.15231968496180903,0.8765689394305117,-0.11473632914027364,-0.861399,-14.393079
11.185,2.0,1.0,1.0,33.6,34.0,34.0,2.1,2.7,2.78,-0.24626500937842666,-0.1557808150934831,0.865550539308894,-0.12436612628287491,-0.916093,-14.008312
11.185,2.0,1.0,1.0,33.6,34.0,34.0,2.1,2.7,2.7825,-0.26516655126033034,-0.15911410007347251,0.8534207870397074,-0.13484102579960153,-0.976488,-13.615167
11.185,2.0,1.0,1.0,33.6,34.0,34.0,2.1,2.7,2.785,-0.2840520887203107,-0.1622592170337349,0.8400867496464406,-0.1462438081130062,-1.043392,-13.213423
11.185,2.0,1.0,1.0,33.6,34.0,34.0,2.1,2.7,2.7875,-0.30284634195044824,-0.165140974096655,0.8254478532167157,-0.15866441791105027,-1.117755,-12.802881
11.185,2.0,1.0,1.0,33.6,34.0,34.0,2.1,2.7,2.79,-0.32145552206008493,-0.16766590402494086,0.8093960692427987,-0.1721997471923263,-1.200698,-12.383382
11.185,2.0,1.0,1.0,33.6,34.0,34.0,2.1,2.7,2.7925,-0.3397631602640054,-0.16971813446066866,0.7918165936754573,-0.18695292461937785,-1.293547,-11.954814
11.185,2.0,1.0,1.0,33.6,34.0,34.0,2.1,2.7,2.795,-0.3576250953703444,-0.17115442560452412,0.7725892687637212,-0.2030318621416834,-1.397879,-11.517137
11.185,2.0,1.0,1.0,33.6,34.0,34.0,2.1,2.7,2.7975,-0.3748635254158511,-0.17179828320746332,0.7515910971782527,-0.22054671110223445,-1.515573,-11.070404
11.185,2.0,1.0,1.0,33.6,34.0,34.0,2.1,2.7,2.8,-0.39126007651302935,-0.17143310217392202,0.7287003283240879,-0.23960575062076525,-1.648876,-10.614792
11.185,2.0,1.0,1.0,33.6,34.0,34.0,2.1,2.7,2.8025,-0.40654794106808007,-0.16979439518473538,0.7038027614766108,-0.2603090677180432,-1.800486,-10.150636
11.185,2.0,1.0,1.0,33.6,34.0,34.0,2.1,2.7,2.805,-0.4204033206551304,-0.16656134347992252,0.676801106669097,-0.2827391942674019,-1.97364,-9.678483
11.185,2.0,1.0,1.0,33.6,34.0,34.0,2.1,2.7,2.8075,-0.4324367216661981,-0.16134821862044343,0.647628455753641,-0.3069476568695946,-2.172235,-9.199145
11.185,2.0,1.0,1.0,33.6,34.0,34.0,2.1,2.7,2.81,-0.44218515413900017,-0.1536967238735473,0.6162670998076425,-0.33293621504253423,-2.400959,-8.713772
11.185,2.0,1.0,1.0,33.6,34.0,34.0,2.1,2.7,2.8125,-0.449107043589897,-0.143071058760561,0.582773995257371,-0.360631500195308,-2.665438,-8.223931
11.185,2.0,1.0,1.0,33.6,34.0,34.0,2.1,2.7,2.815,-0.452582736627309,-0.1288585736763957,0.5473139653487937,-0.3898519862696683,-2.972389,-7.731705
11.185,2.0,1.0,1.0,33.6,34.0,34.0,2.1,2.7,2.8175,-0.45192485443658464,-0.11038024321505986,0.5102009578680855,-0.42026698899024045,-3.329759,-7.239793
11.185,2.0,1.0,1.0,33.6,34.0,34.0,2.1,2.7,2.82,-0.44640425470723794,-0.08691667732722143,0.47194598283875344,-0.45134908275424795,-3.746775,-6.751611
11.185,2.0,1.0,1.0,33.6,34.0,34.0,2.1,2.7,2.8225,-0.435298520501974,-0.05775652836761273,0.43330728759406983,-0.4823243753854288,-4.233823,-6.271384
11.185,2.0,1.0,1.0,33.6,34.0,34.0,2.1,2.7,2.825,-0.417969730430243,-0.02227397105028595,0.3953336040461708,-0.5121297728065012,-4.801886,-5.804192
11.185,2.0,1.0,1.0,33.6,34.0,34.0,2.1,2.7,2.8275,-0.3939752330652332,0.01996110283205406,0.3593852400042185,-0.5393923783747285,-5.461098,-5.35596
11.185,2.0,1.0,1.0,33.6,34.0,34.0,2.1,2.7,2.83,-0.3632074372581148,0.06904421711595898,0.3271120050588795,-0.5624518865494228,-6.21744,-4.933337
