1,w,sub_t,h,l1,l2,l3,g1,g2,Freq,S11_re,S21_re,S11_img,S21_img,S11_dB,S21_dB
11.185,2.0,1.0,1.0,34.6,34.4,34.4,2.7,3.5,2.5,0.679446975659136,-0.0138078494664308,0.721818365472268,0.00556076683658957,-0.075923,-36.544717
11.185,2.0,1.0,1.0,34.6,34.4,34.4,2.7,3.5,2.5025,0.6733979540230511,-0.014057490580777897,0.7273263146275766,0.005516091236533988,-0.076814,-36.419884
11.185,2.0,1.0,1.0,34.6,34.4,34.4,2.7,3.5,2.505,0.6672693413252431,-0.014311398304663584,0.7328127368766596,0.005468269148176518,-0.077723,-36.294534
11.185,2.0,1.0,1.0,34.6,34.4,34.4,2.7,3.5,2.5075,0.6610603291380315,-0.014569652792283417,0.7382767864115131,0.00541718666123761,-0.078649,-36.168659
11.185,2.0,1.0,1.0,34.6,34.4,34.4,2.7,3.5,2.51,0.654770100251935,-0.014832335885740311,0.743717592959799,0.005362725589371698,-0.079594,-36.042247
11.185,2.0,1.0,1.0,34.6,34.4,34.4,2.7,3.5,2.5125,0.6483978287116725,-0.015099531150105707,0.7491342610474329,0.005304763289736406,-0.080558,-35.915288
11.185,2.0,1.0,1.0,34.6,34.4,34.4,2.7,3.5,2.515,0.6419426798610538,-0.01537132390894468,0.7545258692379867,0.005243172473877624,-0.081541,-35.787771
11.185,2.0,1.0,1.0,34.6,34.4,34.4,2.7,3.5,2.5175,0.6354038103973106,-0.01564780128028052,0.7598914693480736,0.005177821009449086,-0.082544,-35.659687
11.185,2.0,1.0,1.0,34.6,34.4,34.4,2.7,3.5,2.52,0.6287803684353998,-0.01592905221297215,0.7652300856378863,0.005108571712254372,-0.083567,-35.531023
11.185,2.0,1.0,1.0,34.6,34.4,34.4,2.7,3.5,2.5225,0.6220714935829028,-0.0162151675234713,0.7705407139759992,0.005035282128066265,-0.084612,-35.401769
11.185,2.0,1.0,1.0,34.6,34.4,34.4,2.7,3.5,2.525,0.6152763170261113,-0.0165062399329234,0.7758223209775306,0.004957804303643262,-0.085678,-35.271912
11.185,2.0,1.0,1.0,34.6,34.4,34.4,2.7,3.5,2.5275,0.6083939616279611,-0.01680236410456951,0.7810738431147,0.004875984546324733,-0.086766,-35.141442
11.185,2.0,1.0,1.0,34.6,34.4,34.4,2.7,3.5,2.53,0.6014235420384968,-0.017103636681400615,0.7862941857987825,0.0047896631715451145,-0.087877,-35.010347
11.185,2.0,1.0,1.0,34.6,34.4,34.4,2.7,3.5,2.5325,0.594364164818584,-0.017410156324009555,0.7914822224324107,0.004698674237564808,-0.089012,-34.878614
11.185,2.0,1.0,1.0,34.6,34.4,34.4,2.7,3.5,2.535,0.5872149285776211,-0.017722023748577627,0.796636793431141,0.004602845266666501,-0.09017,-34.74623
11.185,2.0,1.0,1.0,34.6,34.4,34.4,2.7,3.5,2.5375,0.5799749241260506,-0.018039341764924794,0.8017567052131196,0.004501996952015986,-0.091354,-34.613184
11.185,2.0,1.0,1.0,34.6,34.4,34.4,2.7,3.5,2.54,0.5726432346434932,-0.018362215314543327,0.8068407291556637,0.004395942849331521,-0.092562,-34.479462
11.185,2.0,1.0,1.0,34.6,34.4,34.4,2.7,3.5,2.5425,0.5652189358633887,-0.01869075150852428,0.8118876005174904,0.004284489052446052,-0.093797,-34.345051
11.185,2.0,1.0,1.0,34.6,34.4,34.4,2.7,3.5,2.545,0.5577010962750577,-0.019025059665274593,0.8168960173252644,0.004167433851783665,-0.095059,-34.209938
11.185,2.0,1.0,1.0,34.6,34.4,34.4,2.7,3.5,2.5475,0.5500887773441667,-0.019365251347909448,0.8218646392230792,0.004044567374702303,-0.096349,-34.074108
11.185,2.0,1.0,1.0,34.6,34.4,34.4,2.7,3.5,2.55,0.542381033752591,-0.019711440401191677,0.8267920862834094,0.003915671206580628,-0.097667,-33.937548
11.185,2.0,1.0,1.0,34.6,34.4,34.4,2.7,3.5,2.5525,0.5345769136587812,-0.020063742987871582,0.8316769377779819,0.0037805179914466224,-0.099014,-33.800243
11.185,2.0,1.0,1.0,34.6,34.4,34.4,2.7,3.5,2.555,0.5266754589797349,-0.020422277624265572,0.8365177309069521,0.0036388710108585945,-0.100392,-33.662177
11.185,2.0,1.0,1.0,34.6,34.4,34.4,2.7,3.5,2.5575,0.5186757056957683,-0.02078716521489053,0.8413129594846618,0.0034904837396550746,-0.101801,-33.523337
11.185,2.0,1.0,1.0,34.6,34.4,34.4,2.7,3.5,2.56,0.5105766841793518,-0.021158529085948844,0.8460610725801717,0.0033350993770883777,-0.103242,-33.383707
11.185,2.0,1.0,1.0,34.6,34.4,34.4,2.7,3.5,2.5625,0.502377419549318,-0.021536495017435,0.850760473110644,0.00317245035174628,-0.104717,-33.24327
11.185,2.0,1.0,1.0,34.6,34.4,34.4,2.7,3.5,2.565,0.494076932051831,-0.021921191273607137,0.8554095163855583,0.003002257798546174,-0.106225,-33.10201
11.185,2.0,1.0,1.0,34.6,34.4,34.4,2.7,3.5,2.5675,0.4856742374696,-0.022312748631535116,0.8600065085995865,0.002824231005957072,-0.107769,-32.959911
11.185,2.0,1.0,1.0,34.6,34.4,34.4,2.7,3.5,2.57,0.4771683475608692,-0.022711300407403674,0.8645497052718698,0.0026380668314620733,-0.109349,-32.816955
11.185,2.0,1.0,1.0,34.6,34.4,34.4,2.7,3.5,2.5725,0.46855827052982846,-0.023116982480210047,0.8690373096292465,0.002443449083122405,-0.110966,-32.673125
11.185,2.0,1.0,1.0,34.6,34.4,34.4,2.7,3.5,2.575,0.45984301153017293,-0.023529933312451935,0.8734674709308582,0.0022400478649352877,-0.112623,-32.528403
11.185,2.0,1.0,1.0,34.6,34.4,34.4,2.7,3.5,2.5775,0.4510215732036392,-0.023950293967354402,0.8778382827313819,0.002027518883498692,-0.114319,-32.38277
11.185,2.0,1.0,1.0,34.6,34.4,34.4,2.7,3.5,2.58,0.44209295625546186,-0.02437820812212888,0.882147781079943,0.0018055027132958192,-0.116057,-32.236208
11.185,2.0,1.0,1.0,34.6,34.4,34.4,2.7,3.5,2.5825,0.43305616006878717,-0.024813822076698123,0.8863939426515769,0.0015736240176975889,-0.117837,-32.088696
11.185,2.0,1.0,1.0,34.6,34.4,34.4,2.7,3.5,2.585,0.4239101833602347,-0.025257284757251308,0.890574682807884,0.001331490722546324,-0.119661,-31.940214
11.185,2.0,1.0,1.0,34.6,34.4,34.4,2.7,3.5,2.5875,0.4146540248789061,-0.025708747713918137,0.8946878535832742,0.0010786931389265527,-0.121531,-31.790743
11.185,2.0,1.0,1.0,34.6,34.4,34.4,2.7,3.5,2.59,0.40528668415130475,-0.026168365111763243,0.8987312415929478,0.0008148030314475778,-0.123448,-31.64026
11.185,2.0,1.0,1.0,34.6,34.4,34.4,2.7,3.5,2.5925,0.3958071622747694,-0.02663629371420666,0.9027025658584733,0.0005393726280561628,-0.125414,-31.488744
11.185,2.0,1.0,1.0,34.6,34.4,34.4,2.7,3.5,2.595,0.38621446276222426,-0.027112692857864915,0.9065994755464866,0.00025193356706164306,-0.127431,-31.336172
11.185,2.0,1.0,1.0,34.6,34.4,34.4,2.7,3.5,2.5975,0.3765075924411949,-0.027597724417686584,0.910419547615732,-4.8004223313407164e-05,-0.1295,-31.182521
11.185,2.0,1.0,1.0,34.6,34.4,34.4,2.7,3.5,2.6,0.36668556241027356,-0.028091552761115066,0.9141602843672475,-0.00036095371794653,-0.131623,-31.027768
11.185,2.0,1.0,1.0,34.6,34.4,34.4,2.7,3.5,2.6025,0.3567473890564501,-0.02859434468985485,0.917819110892103,-0.0006874520659248406,-0.133802,-30.871888
11.185,2.0,1.0,1.0,34.6,34.4,34.4,2.7,3.5,2.605,0.34669209513692095,-0.029106269367641234,0.9213933724106396,-0.001028061945770649,-0.13604,-30.714854
11.185,2.0,1.0,1.0,34.6,34.4,34.4,2.7,3.5,2.6075,0.33651871092931324,-0.029627498232211464,0.9248803314966496,-0.001383373011335867,-0.138338,-30.556642
11.185,2.0,1.0,1.0,34.6,34.4,34.4,2.7,3.5,2.61,0.32622627545453775,-0.0301582048894482,0.9282771651793782,-0.0017540034355074618,-0.140699,-30.397225
11.185,2.0,1.0,1.0,34.6,34.4,34.4,2.7,3.5,2.6125,0.3158138377767983,-0.030698564987409544,0.9315809619156264,-0.002140601559512544,-0.143125,-30.236573
11.185,2.0,1.0,1.0,34.6,34.4,34.4,2.7,3.5,2.615,0.30528045838567175,-0.03124875606766654,0.934788718423545,-0.002543847656326378,-0.145618,-30.07466
11.185,2.0,1.0,1.0,34.6,34.4,34.4,2.7,3.5,2.6175,0.2946252106655759,-0.03180895739103744,0.9378973363689529,-0.0029644558174718536,-0.148182,-29.911454
11.185,2.0,1.0,1.0,34.6,34.4,34.4,2.7,3.5,2.62,0.2838471824583955,-0.032379349734430456,0.9409036188942049,-0.003403175973370177,-0.150818,-29.746925
11.185,2.0,1.0,1.0,34.6,34.4,34.4,2.7,3.5,2.6225,0.27294547772551764,-0.03296011515507814,0.9438042669786856,-0.0038607960583608154,-0.153531,-29.581042
11.185,2.0,1.0,1.0,34.6,34.4,34.4,2.7,3.5,2.625,0.26191921831616,-0.0335514367179544,0.946595875618999,-0.00433814433257061,-0.156323,-29.413772
11.185,2.0,1.0,1.0,34.6,34.4,34.4,2.7,3.5,2.6275,0.25076754584941846,-0.03415349818161068,0.9492749298157881,-0.004836091873990018,-0.159197,-29.245081
11.185,2.0,1.0,1.0,34.6,34.4,34.4,2.7,3.5,2.63,0.2394896237182692,-0.03476648363702655,0.9518378003528463,-0.00535555525541395,-0.162157,-29.074933
11.185,2.0,1.0,1.0,34.6,34.4,34.4,2.7,3.5,2.6325,0.22808463922450825,-0.03539057709334306,0.9542807393527903,-0.005897499422352291,-0.165206,-28.903292
11.185,2.0,1.0,1.0,34.6,34.4,34.4,2.7,3.5,2.635,0.21655180585455663,-0.03602596200351217,0.9565998755919889,-0.006462940789618102,-0.168349,-28.73012
11.185,2.0,1.0,1.0,34.6,34.4,34.4,2.7,3.5,2.6375,0.20489036570709807,-0.03667282072193786,0.9587912095557061,-0.00705295057608505,-0.171588,-28.555379
11.185,2.0,1.0,1.0,34.6,34.4,34.4,2.7,3.5,2.64,0.19309959208466126,-0.0373313338850898,0.9608506082124622,-0.007668658399089162,-0.17493,-28.379028
11.185,2.0,1.0,1.0,34.6,34.4,34.4,2.7,3.5,2.6425,0.18117879226266637,-0.03800167970480559,0.9627737994844656,-0.008311256152157161,-0.178377,-28.201023
11.185,2.0,1.0,1.0,34.6,34.4,34.4,2.7,3.5,2.645,0.16912731045092838,-0.03868403316254899,0.9645563663885001,-0.008982002192207822,-0.181936,-28.021323
11.185,2.0,1.0,1.0,34.6,34.4,34.4,2.7,3.5,2.6475,0.15694453096441094,-0.039378565091218405,0.9661937408189786,-0.00968222586511408,-0.185611,-27.839881
11.185,2.0,1.0,1.0,34.6,34.4,34.4,2.7,3.5,2.65,0.14462988162200077,-0.04008544112917228,0.9676811969418042,-0.010413332401588447,-0.189407,-27.65665
11.185,2.0,1.0,1.0,34.6,34.4,34.4,2.7,3.5,2.6525,0.13218283739444472,-0.04080482052890625,0.96901384416427,-0.011176808218772144,-0.193331,-27.47158
11.185,2.0,1.0,1.0,34.6,34.4,34.4,2.7,3.5,2.655,0.11960292432518826,-0.04153685480024267,0.9701866196424179,-0.01197422666675582,-0.197389,-27.284622
11.185,2.0,1.0,1.0,34.6,34.4,34.4,2.7,3.5,2.6575,0.10688972375098756,-0.04228168616490071,0.9711942802829726,-0.012807254263547913,-0.201587,-27.095721
11.185,2.0,1.0,1.0,34.6,34.4,34.4,2.7,3.5,2.66,0.09404287685269828,-0.04303944579585012,0.9720313941921296,-0.013677657466829758,-0.205932,-26.904822
11.185,2.0,1.0,1.0,34.6,34.4,34.4,2.7,3.5,2.6625,0.08106208957079791,-0.043810251810817706,0.9726923315180726,-0.014587310036240097,-0.210432,-26.711868
11.185,2.0,1.0,1.0,34.6,34.4,34.4,2.7,3.5,2.665,0.06794713792493368,-0.044594206984625434,0.9731712546279553,-0.015538201046007628,-0.215095,-26.516798
11.185,2.0,1.0,1.0,34.6,34.4,34.4,2.7,3.5,2.6675,0.05469787378244624,-0.04539139613956132,0.9734621075532209,-0.016532443614574954,-0.219929,-26.319549
11.185,2.0,1.0,1.0,34.6,34.4,34.4,2.7,3.5,2.67,0.04131423112723865,-0.046201883166592975,0.9735586046293591,-0.01757228442554541,-0.224944,-26.120056
11.185,2.0,1.0,1.0,34.6,34.4,34.4,2.7,3.5,2.6725,0.027796232888008154,-0.047025707622750025,0.9734542182474494,-0.018660114122937662,-0.23015,-25.91825
11.185,2.0,1.0,1.0,34.6,34.4,34.4,2.7,3.5,2.675,0.014143998393737034,-0.0478628808412273,0.9731421656249469,-0.01979847867348907,-0.235557,-25.71406
11.185,2.0,1.0,1.0,34.6,34.4,34.4,2.7,3.5,2.6775,0.0003577515347708134,-0.04871338148046054,0.9726153944919943,-0.02099009179975599,-0.241177,-25.507411
11.185,2.0,1.0,1.0,34.6,34.4,34.4,2.7,3.5,2.68,-0.013562170279917421,-0.049577150426300204,0.9718665675769217,-0.022237848600187474,-0.247022,-25.298225
11.185,2.0,1.0,1.0,34.6,34.4,34.4,2.7,3.5,2.6825,-0.027615306264209022,-0.05045408494711701,0.970888045760301,-0.02354484048638143,-0.253105,-25.086419
11.185,2.0,1.0,1.0,34.6,34.4,34.4,2.7,3.5,2.685,-0.04180106137296128,-0.051344031984787784,0.9696718697507575,-0.024914371583604794,-0.259441,-24.871908
11.185,2.0,1.0,1.0,34.6,34.4,34.4,2.7,3.5,2.6875,-0.0561186942544435,-0.0522467804445236,0.96820974011743,-0.0263499767585961,-0.266045,-24.654602
11.185,2.0,1.0,1.0,34.6,34.4,34.4,2.7,3.5,2.69,-0.07056730387080458,-0.05316205232279292,0.9664929954932686,-0.027855441458964594,-0.272935,-24.434407
11.185,2.0,1.0,1.0,34.6,34.4,34.4,2.7,3.5,2.6925,-0.08514581459187902,-0.05408949248441394,0.9645125887398492,-0.029434823571462324,-0.280128,-24.211223
11.185,2.0,1.0,1.0,34.6,34.4,34.4,2.7,3.5,2.695,-0.09985295953364948,-0.05502865686631242,0.9622590608378543,-0.031092477532369982,-0.287645,-23.984946
11.185,2.0,1.0,1.0,34.6,34.4,34.4,2.7,3.5,2.6975,-0.11468726187231769,-0.05597899884535961,0.9597225122372504,-0.03283308095261848,-0.295506,-23.755467
11.185,2.0,1.0,1.0,34.6,34.4,34.4,2.7,3.5,2.7,-0.12964701381638025,-0.056939853459726915,0.9568925713672024,-0.034661664053452106,-0.303736,-23.522672
11.185,2.0,1.0,1.0,34.6,34.4,34.4,2.7,3.5,2.7025,-0.144730252861106,-0.057910419115652645,0.9537583599672856,-0.03658364224592724,-0.312361,-23.286439
11.185,2.0,1.0,1.0,34.6,34.4,34.4,2.7,3.5,2.705,-0.15993473487987428,-0.058889736342316104,0.9503084548582075,-0.0386048522297874,-0.321408,-23.046641
11.185,2.0,1.0,1.0,34.6,34.4,34.4,2.7,3.5,2.7075,-0.1752579035226458,-0.059876663074109965,0.946530845721378,-0.0407315920348007,-0.330908,-22.803143
11.185,2.0,1.0,1.0,34.6,34.4,34.4,2.7,3.5,2.71,-0.19069685529005606,-0.06086984583880769,0.9424128884018237,-0.042970665480975556,-0.340896,-22.555806
11.185,2.0,1.0,1.0,34.6,34.4,34.4,2.7,3.5,2.7125,-0.20624829952830778,-0.06186768610801781,0.93794125318758,-0.045329431593685215,-0.351409,-22.304478
11.185,2.0,1.0,1.0,34.6,34.4,34.4,2.7,3.5,2.715,-0.22190851244025328,-0.06286830091799359,0.9331018674503827,-0.04781585957600852,-0.362488,-22.049004
11.185,2.0,1.0,1.0,34.6,34.4,34.4,2.7,3.5,2.7175,-0.23767328402563206,-0.06386947668823979,0.9278798519569437,-0.0504385900137906,-0.374178,-21.789215
11.185,2.0,1.0,1.0,34.6,34.4,34.4,2.7,3.5,2.72,-0.25353785664062584,-0.06486861494478288,0.9222594500773551,-0.05320700306899852,-0.38653,-21.524938
11.185,2.0,1.0,1.0,34.6,34.4,34.4,2.7,3.5,2.7225,-0.2694968535941523,-0.06586266838490698,0.9162239490275498,-0.05613129450344733,-0.3996,-21.255986
11.185,2.0,1.0,1.0,34.6,34.4,34.4,2.7,3.5,2.725,-0.2855441958632945,-0.06684806538857908,0.9097555921875103,-0.05922256046670337,-0.41345,-20.982162
11.185,2.0,1.0,1.0,34.6,34.4,34.4,2.7,3.5,2.7275,-0.30167300459802676,-0.06782062067359976,0.9028354814380385,-0.062492892076783504,-0.42815,-20.703258
11.185,2.0,1.0,1.0,34.6,34.4,34.4,2.7,3.5,2.73,-0.31787548657621434,-0.06877542928763186,0.8954434683603085,-0.06595548091629296,-0.443777,-20.419053
11.185,2.0,1.0,1.0,34.6,34.4,34.4,2.7,3.5,2.7325,-0.33414279913988426,-0.0697067405066024,0.8875580330500369,-0.0696247366537911,-0.46042,-20.129314
11.185,2.0,1.0,1.0,34.6,34.4,34.4,2.7,3.5,2.735,-0.35046489036169787,-0.07060780743502718,0.8791561492217117,-0.07351641807073199,-0.478175,-19.833792
11.185,2.0,1.0,1.0,34.6,34.4,34.4,2.7,3.5,2.7375,-0.3668303092176872,-0.07147070714094628,0.870213134232505,-0.0776477788135632,-0.497153,-19.532224
11.185,2.0,1.0,1.0,34.6,34.4,34.4,2.7,3.5,2.74,-0.3832259793288578,-0.07228612495737745,0.8607024826626837,-0.08203772917613633,-0.51748,-19.224332
11.185,2.0,1.0,1.0,34.6,34.4,34.4,2.7,3.5,2.7425,-0.39963692831760267,-0.0730430950814133,0.8505956821827649,-0.08670701511625059,-0.539298,-18.90982
11.185,2.0,1.0,1.0,34.6,34.4,34.4,2.7,3.5,2.745,-0.41604596292532053,-0.07372868772267943,0.8398620106668678,-0.09167841547254679,-0.562768,-18.588372
11.185,2.0,1.0,1.0,34.6,34.4,34.4,2.7,3.5,2.7475,-0.4324332776548667,-0.07432763069555812,0.8284683139495926,-0.0969769579014294,-0.588076,-18.259656
11.185,2.0,1.0,1.0,34.6,34.4,34.4,2.7,3.5,2.75,-0.448775981709041,-0.0748218503895151,0.816378764377677,-0.102630153291357,-0.615432,-17.923318
11.185,2.0,1.0,1.0,34.6,34.4,34.4,2.7,3.5,2.7525,-0.46504752523634096,-0.07518991333312074,0.8035546015350994,-0.1086682471770704,-0.645083,-17.578983
11.185,2.0,1.0,1.0,34.6,34.4,34.4,2.7,3.5,2.755,-0.4812170011725615,-0.0754063448972888,0.7899538584518832,-0.1151244847397613,-0.677308,-17.226254
11.185,2.0,1.0,1.0,34.6,34.4,34.4,2.7,3.5,2.7575,-0.4972482930440848,-0.07544079582770112,0.7755310795802982,-0.12203538300527061,-0.712436,-16.864713
11.185,2.0,1.0,1.0,34.6,34.4,34.4,2.7,3.5,2.76,-0.5130990316942378,-0.07525701997796089,0.7602370413317006,-0.12944099935032866,-0.750847,-16.493917
11.185,2.0,1.0,1.0,34.6,34.4,34.4,2.7,3.5,2.7625,-0.5287193146880083,-0.07481161751873555,0.7440184927351086,-0.13738517867949027,-0.792989,-16.1134
11.185,2.0,1.0,1.0,34.6,34.4,34.4,2.7,3.5,2.765,-0.5440501308041993,-0.07405248669221758,0.7268179438605055,-0.14591575159528272,-0.839385,-15.722676
11.185,2.0,1.0,1.0,34.6,34.4,34.4,2.7,3.5,2.7675,-0.5590214182325159,-0.07291691356769428,0.708573544584958,-0.15508464102431876,-0.890655,-15.321238
11.185,2.0,1.0,1.0,34.6,34.4,34.4,2.7,3.5,2.77,-0.5735496686897258,-0.07132921307512653,0.689219118306685,-0.1649478128629185,-0.947536,-14.908561
11.185,2.0,1.0,1.0,34.6,34.4,34.4,2.7,3.5,2.7725,-0.5875349708361653,-0.06919781604009542,0.6686844475714522,-0.1755649740556792,-1.010905,-14.48411
11.185,2.0,1.0,1.0,34.6,34.4,34.4,2.7,3.5,2.775,-0.6008573660345988,-0.06641167694461933,0.6468959559202329,-0.1869988745095472,-1.081817,-14.047343
11.185,2.0,1.0,1.0,34.6,34.4,34.4,2.7,3.5,2.7775,-0.6133723700260542,-0.06283585807181073,0.6237779991972195,-0.19931400083864745,-1.161543,-13.597729
11.185,2.0,1.0,1.0,34.6,34.4,34.4,2.7,3.5,2.78,-0.624905500604554,-0.05830613264408455,0.5992550792524614,-0.2125743510473351,-1.251626,-13.134758
11.185,2.0,1.0,1.0,34.6,34.4,34.4,2.7,3.5,2.7825,-0.6352456538874336,-0.05262245251696748,0.5732554357981866,-0.2268398376636594,-1.353947,-12.65797
11.185,2.0,1.0,1.0,34.6,34.4,34.4,2.7,3.5,2.785,-0.6441372090019565,-0.045541163528707976,0.545716673902001,-0.2421606669558662,-1.470814,-12.166984
11.185,2.0,1.0,1.0,34.6,34.4,34.4,2.7,3.5,2.7875,-0.6512708464537147,-0.03676595700268382,0.5165943633578733,-0.2585687658234834,-1.605072,-11.661549
11.185,2.0,1.0,1.0,34.6,34.4,34.4,2.7,3.5,2.79,-0.6562732970681169,-0.025937776656735894,0.4858749182273692,-0.2760649598031494,-1.760246,-11.141605
11.185,2.0,1.0,1.0,34.6,34.4,34.4,2.7,3.5,2.7925,-0.6586966926545803,-0.012624351909550854,0.45359453316906756,-0.2946001426951456,-1.940716,-10.607373
11.185,2.0,1.0,1.0,34.6,34.4,34.4,2.7,3.5,2.795,-0.6580090191266914,0.0036891474569292733,0.4198664812971744,-0.31404815720048207,-2.151947,-10.059476
11.185,2.0,1.0,1.0,34.6,34.4,34.4,2.7,3.5,2.7975,-0.6535886019502346,0.0236054222205273,0.3849195361967607,-0.334167656209121,-2.400746,-9.499095
11.185,2.0,1.0,1.0,34.6,34.4,34.4,2.7,3.5,2.8,-0.6447278705147775,0.047811110355418594,0.3491503434075427,-0.35455015895946573,-2.695569,-8.928181
11.185,2.0,1.0,1.0,34.6,34.4,34.4,2.7,3.5,2.8025,-0.6306551206709173,0.07705495995299307,0.3131915471233842,-0.3745525370336535,-3.046805,-8.349722
11.185,2.0,1.0,1.0,34.6,34.4,34.4,2.7,3.5,2.805,-0.6105876009199904,0.11209490245232513,0.2779941075350628,-0.39321551947777283,-3.46693,-7.76806
11.185,2.0,1.0,1.0,34.6,34.4,34.4,2.7,3.5,2.8075,-0.5838340297089327,0.153596101894429,0.24491453669662272,-0.4091774607535959,-3.970232,-7.189258
11.185,2.0,1.0,1.0,34.6,34.4,34.4,2.7,3.5,2.81,-0.5499665178192906,0.20196024680335853,0.21578342021534974,-0.420606856737623,-4.571426,-6.621454
11.185,2.0,1.0,1.0,34.6,34.4,34.4,2.7,3.5,2.8125,-0.509074077507249,0.257074138782454,0.192909817162411,-0.425198658252728,-5.281649,-6.075123
11.185,2.0,1.0,1.0,34.6,34.4,34.4,2.7,3.5,2.815,-0.4620818744127737,0.3179934841542802,0.17895238335681313,-0.4203028936944662,-6.098714,-5.563078
11.185,2.0,1.0,1.0,34.6,34.4,34.4,2.7,3.5,2.8175,-0.4110632181916595,0.3826344845118673,0.17658095596059814,-0.40326099431582957,-6.986362,-5.100014
11.185,2.0,1.0,1.0,34.6,34.4,34.4,2.7,3.5,2.82,-0.3593943056840205,0.4476220210101415,0.18789571544713154,-0.37198198735096,-7.839158,-4.701386
11.185,2.0,1.0,1.0,34.6,34.4,34.4,2.7,3.5,2.8225,-0.31155518482651917,0.5084890230683954,0.21369373968182018,-0.32566893439045214,-8.454797,-4.381579
11.185,2.0,1.0,1.0,34.6,34.4,34.4,2.7,3.5,2.825,-0.27245113040664914,0.5603509902932294,0.25284537204824115,-0.26543505314968197,-8.596164,-4.151613
11.185,2.0,1.0,1.0,34.6,34.4,34.4,2.7,3.5,2.8275,-0.24636166864345868,0.5989482891369505,0.30213562749115513,-0.19445761912687795,-8.182135,-4.01699
11.185,2.0,1.0,1.0,34.6,34.4,34.4,2.7,3.5,2.83,-0.23590631394972023,0.6216698069755224,0.35678356171626485,-0.11745966900424287,-7.376764,-3.976468
