1,w,sub_t,h,l1,l2,l3,g1,g2,Freq,S11_re,S21_re,S11_img,S21_img,S11_dB,S21_dB
11.185,2.0,1.0,1.0,33.3,34.3,34.3,1.8,2.4,2.5,0.861061050822756,-0.0125400817666428,0.493206073958872,0.0132228336051089,-0.067056,-34.787351
11.185,2.0,1.0,1.0,33.3,34.3,34.3,1.8,2.4,2.5025,0.8576041977820761,-0.012834534492093104,0.49901531000191945,0.013331508355217006,-0.067837,-34.653973
11.185,2.0,1.0,1.0,33.3,34.3,34.3,1.8,2.4,2.505,0.8540900659745053,-0.013135692460035365,0.5048271307333394,0.013440207200995143,-0.068636,-34.51997
11.185,2.0,1.0,1.0,33.3,34.3,34.3,1.8,2.4,2.5075,0.8505179576336288,-0.01344373847548246,0.510641316353794,0.013548890360488198,-0.069452,-34.38533
11.185,2.0,1.0,1.0,33.3,34.3,34.3,1.8,2.4,2.51,0.846887159890663,-0.013758861625589617,0.5164576387605859,0.013657515579651225,-0.070286,-34.250039
11.185,2.0,1.0,1.0,33.3,34.3,34.3,1.8,2.4,2.5125,0.8431969443456857,-0.014081257540477213,0.5222758611997306,0.013766037985390571,-0.071139,-34.114083
11.185,2.0,1.0,1.0,33.3,34.3,34.3,1.8,2.4,2.515,0.8394465666227316,-0.014411128666744835,0.5280957379017063,0.013874409929223218,-0.072011,-33.977447
11.185,2.0,1.0,1.0,33.3,34.3,34.3,1.8,2.4,2.5175,0.8356352659079764,-0.01474868455438578,0.5339170136999374,0.013982580820893318,-0.072903,-33.840118
11.185,2.0,1.0,1.0,33.3,34.3,34.3,1.8,2.4,2.52,0.8317622644701765,-0.015094142157852724,0.5397394236310522,0.01409049695123344,-0.073815,-33.70208
11.185,2.0,1.0,1.0,33.3,34.3,34.3,1.8,2.4,2.5225,0.8278267671624986,-0.015447726152076499,0.5455626925158293,0.01419810130350165,-0.074748,-33.563319
11.185,2.0,1.0,1.0,33.3,34.3,34.3,1.8,2.4,2.525,0.823827960904798,-0.015809669264286154,0.5513865345197302,0.01430533335236574,-0.075704,-33.423818
11.185,2.0,1.0,1.0,33.3,34.3,34.3,1.8,2.4,2.5275,0.8197650141453718,-0.016180212622537615,0.557210652691808,0.014412128849638184,-0.076682,-33.283563
11.185,2.0,1.0,1.0,33.3,34.3,34.3,1.8,2.4,2.53,0.8156370763011356,-0.01655960612191151,0.563034738480689,0.014518419595794448,-0.077683,-33.142537
11.185,2.0,1.0,1.0,33.3,34.3,34.3,1.8,2.4,2.5325,0.8114432771751261,-0.01694810880940672,0.5688584712262569,0.014624133196228484,-0.078708,-33.000724
11.185,2.0,1.0,1.0,33.3,34.3,34.3,1.8,2.4,2.535,0.8071827263501411,-0.01734598928862038,0.5746815176255514,0.014729192801113783,-0.079757,-32.858107
11.185,2.0,1.0,1.0,33.3,34.3,34.3,1.8,2.4,2.5375,0.8028545125572838,-0.017753526145377563,0.5805035311712841,0.0148335168276451,-0.080833,-32.714669
11.185,2.0,1.0,1.0,33.3,34.3,34.3,1.8,2.4,2.54,0.7984577030180738,-0.018171008395548884,0.5863241515612663,0.014937018663334056,-0.081935,-32.570393
11.185,2.0,1.0,1.0,33.3,34.3,34.3,1.8,2.4,2.5425,0.7939913427587199,-0.018598735956377885,0.5921430040769113,0.01503960634892173,-0.083064,-32.42526
11.185,2.0,1.0,1.0,33.3,34.3,34.3,1.8,2.4,2.545,0.7894544538950575,-0.01903702014272654,0.597959698928832,0.015141182239348782,-0.084221,-32.279252
11.185,2.0,1.0,1.0,33.3,34.3,34.3,1.8,2.4,2.5475,0.7848460348865564,-0.019486184189740727,0.6037738305673959,0.01524164264109185,-0.085408,-32.132351
11.185,2.0,1.0,1.0,33.3,34.3,34.3,1.8,2.4,2.55,0.7801650597576968,-0.019946563803540148,0.6095849769559657,0.015340877424030128,-0.086625,-31.984537
11.185,2.0,1.0,1.0,33.3,34.3,34.3,1.8,2.4,2.5525,0.7754104772849206,-0.02041850774164363,0.6153926988043216,0.015438769605846201,-0.087874,-31.83579
11.185,2.0,1.0,1.0,33.3,34.3,34.3,1.8,2.4,2.555,0.7705812101472214,-0.020902378424958047,0.6211965387596214,0.015535194906792109,-0.089155,-31.686091
11.185,2.0,1.0,1.0,33.3,34.3,34.3,1.8,2.4,2.5575,0.7656761540383276,-0.021398552583282937,0.6269960205520052,0.01563002127246082,-0.09047,-31.535419
11.185,2.0,1.0,1.0,33.3,34.3,34.3,1.8,2.4,2.56,0.7606941767382999,-0.021907421936417263,0.6327906480917218,0.015723108361992755,-0.09182,-31.383752
11.185,2.0,1.0,1.0,33.3,34.3,34.3,1.8,2.4,2.5625,0.7556341171422066,-0.02242939391309777,0.6385799045144125,0.0158143069989189,-0.093206,-31.23107
11.185,2.0,1.0,1.0,33.3,34.3,34.3,1.8,2.4,2.565,0.7504947842433927,-0.022964892410153086,0.6443632511708973,0.01590345858158742,-0.09463,-31.077349
11.185,2.0,1.0,1.0,33.3,34.3,34.3,1.8,2.4,2.5675,0.7452749560686971,-0.023514358594423662,0.6501401265574979,0.015990394449844122,-0.096092,-30.922567
11.185,2.0,1.0,1.0,33.3,34.3,34.3,1.8,2.4,2.57,0.7399733785627807,-0.024078251750174338,0.6559099451826113,0.016074935204330666,-0.097595,-30.766701
11.185,2.0,1.0,1.0,33.3,34.3,34.3,1.8,2.4,2.5725,0.7345887644185434,-0.024657050174919527,0.6616720963648635,0.016156889974427015,-0.099141,-30.609726
11.185,2.0,1.0,1.0,33.3,34.3,34.3,1.8,2.4,2.575,0.729119791850404,-0.02525125212678393,0.6674259429577769,0.016236055630493396,-0.10073,-30.451618
11.185,2.0,1.0,1.0,33.3,34.3,34.3,1.8,2.4,2.5775,0.7235651033069898,-0.025861376826743953,0.6731708199954328,0.016312215935656522,-0.102364,-30.292352
11.185,2.0,1.0,1.0,33.3,34.3,34.3,1.8,2.4,2.58,0.7179233041195551,-0.02648796551933114,0.6789060332531224,0.016385140631931555,-0.104046,-30.131901
11.185,2.0,1.0,1.0,33.3,34.3,34.3,1.8,2.4,2.5825,0.712192961082175,-0.027131582595633585,0.684630857716444,0.016454584454971184,-0.105777,-29.97024
11.185,2.0,1.0,1.0,33.3,34.3,34.3,1.8,2.4,2.585,0.7063726009595133,-0.027792816782703983,0.6903445359516961,0.01652028607117757,-0.107559,-29.807339
11.185,2.0,1.0,1.0,33.3,34.3,34.3,1.8,2.4,2.5875,0.700460708917642,-0.028472282403776437,0.6960462763697723,0.016581966930300347,-0.109394,-29.643172
11.185,2.0,1.0,1.0,33.3,34.3,34.3,1.8,2.4,2.59,0.6944557268731063,-0.02917062071400884,0.7017352513750194,0.016639330025962493,-0.111285,-29.477708
11.185,2.0,1.0,1.0,33.3,34.3,34.3,1.8,2.4,2.5925,0.6883560517550589,-0.02988850131680504,0.7074105953897326,0.016692058555801075,-0.113234,-29.310919
11.185,2.0,1.0,1.0,33.3,34.3,34.3,1.8,2.4,2.595,0.6821600336749661,-0.030626623666130646,0.7130714027440488,0.016739814472070964,-0.115244,-29.142773
11.185,2.0,1.0,1.0,33.3,34.3,34.3,1.8,2.4,2.5975,0.6758659739979629,-0.031385718660628094,0.7187167254200354,0.016782236912627667,-0.117316,-28.973239
11.185,2.0,1.0,1.0,33.3,34.3,34.3,1.8,2.4,2.6,0.6694721233095466,-0.03216655033574674,0.7243455706376556,0.016818940501167175,-0.119454,-28.802284
11.185,2.0,1.0,1.0,33.3,34.3,34.3,1.8,2.4,2.6025,0.662976679270864,-0.032969917660548534,0.7299568982690684,0.016849513504445298,-0.121661,-28.629874
11.185,2.0,1.0,1.0,33.3,34.3,34.3,1.8,2.4,2.605,0.6563777843553474,-0.03379665644632412,0.7355496180663887,0.016873515832909566,-0.12394,-28.455975
11.185,2.0,1.0,1.0,33.3,34.3,34.3,1.8,2.4,2.6075,0.6496735234589865,-0.03464764137465871,0.7411225866864954,0.016890476869738283,-0.126295,-28.280551
11.185,2.0,1.0,1.0,33.3,34.3,34.3,1.8,2.4,2.61,0.6428619213759792,-0.03552378815312086,0.7466746044948028,0.016899893111673094,-0.128727,-28.103565
11.185,2.0,1.0,1.0,33.3,34.3,34.3,1.8,2.4,2.6125,0.6359409401309346,-0.03642605580732462,0.7522044121280307,0.016901225603233188,-0.131242,-27.924979
11.185,2.0,1.0,1.0,33.3,34.3,34.3,1.8,2.4,2.615,0.6289084761582091,-0.037355449118713455,0.7577106867939118,0.016893897143884447,-0.133844,-27.744753
11.185,2.0,1.0,1.0,33.3,34.3,34.3,1.8,2.4,2.6175,0.6217623573183377,-0.03831302121805736,0.7631920382834014,0.016877289245478863,-0.136536,-27.562849
11.185,2.0,1.0,1.0,33.3,34.3,34.3,1.8,2.4,2.62,0.6145003397408482,-0.03929987634532532,0.7686470046683515,0.01685073881474523,-0.139323,-27.379222
11.185,2.0,1.0,1.0,33.3,34.3,34.3,1.8,2.4,2.6225,0.6071201044820487,-0.040317172787301216,0.7740740476546375,0.01681353453276313,-0.142209,-27.193831
11.185,2.0,1.0,1.0,33.3,34.3,34.3,1.8,2.4,2.625,0.599619253985697,-0.0413661260050437,0.779471547557404,0.016764912900149,-0.1452,-27.00663
11.185,2.0,1.0,1.0,33.3,34.3,34.3,1.8,2.4,2.6275,0.5919953083336581,-0.04244801196405575,0.7848377978613928,0.016704053913073995,-0.148301,-26.817573
11.185,2.0,1.0,1.0,33.3,34.3,34.3,1.8,2.4,2.63,0.5842457012729504,-0.04356417068080802,0.7901709993250845,0.016630076331164388,-0.151518,-26.626613
11.185,2.0,1.0,1.0,33.3,34.3,34.3,1.8,2.4,2.6325,0.5763677760047828,-0.04471601000005461,0.7954692535826768,0.0165420324937404,-0.154857,-26.433699
11.185,2.0,1.0,1.0,33.3,34.3,34.3,1.8,2.4,2.635,0.5683587807204199,-0.04590500961818409,0.8007305561925716,0.01643890263565641,-0.158324,-26.238781
11.185,2.0,1.0,1.0,33.3,34.3,34.3,1.8,2.4,2.6375,0.5602158638679736,-0.04713272536862213,0.8059527890749967,0.016319588648128498,-0.161926,-26.041806
11.185,2.0,1.0,1.0,33.3,34.3,34.3,1.8,2.4,2.64,0.5519360691334755,-0.04840079378607338,0.8111337122745886,0.01618290722327295,-0.165671,-25.842717
11.185,2.0,1.0,1.0,33.3,34.3,34.3,1.8,2.4,2.6425,0.5435163301189684,-0.04971093696707342,0.8162709549759793,0.01602758231352394,-0.169566,-25.64146
11.185,2.0,1.0,1.0,33.3,34.3,34.3,1.8,2.4,2.645,0.5349534646997629,-0.05106496774495026,0.821362005691689,0.015852236828511005,-0.173621,-25.437973
11.185,2.0,1.0,1.0,33.3,34.3,34.3,1.8,2.4,2.6475,0.5262441690426032,-0.05246479519776559,0.8264042015316148,0.01565538348221108,-0.177845,-25.232197
11.185,2.0,1.0,1.0,33.3,34.3,34.3,1.8,2.4,2.65,0.5173850112662324,-0.0539124305081217,0.8313947164520978,0.015435414692063143,-0.182247,-25.024067
11.185,2.0,1.0,1.0,33.3,34.3,34.3,1.8,2.4,2.6525,0.5083724247259238,-0.05540999319376296,0.8363305483695612,0.015190591419047036,-0.186838,-24.813517
11.185,2.0,1.0,1.0,33.3,34.3,34.3,1.8,2.4,2.655,0.49920270090385344,-0.056959717727630144,0.8412085050090315,0.014919030823235221,-0.191629,-24.600478
11.185,2.0,1.0,1.0,33.3,34.3,34.3,1.8,2.4,2.6575,0.4898719818880948,-0.05856396056529287,0.8460251883409475,0.0146186925927564,-0.196633,-24.384879
11.185,2.0,1.0,1.0,33.3,34.3,34.3,1.8,2.4,2.66,0.4803762524244108,-0.060225207596386506,0.850776977440429,0.01428736378513516,-0.201864,-24.166647
11.185,2.0,1.0,1.0,33.3,34.3,34.3,1.8,2.4,2.6625,0.4707113315272706,-0.06194608203460445,0.8554600095810783,0.013922641998217775,-0.207335,-23.945703
11.185,2.0,1.0,1.0,33.3,34.3,34.3,1.8,2.4,2.665,0.46087286363970476,-0.06372935275776416,0.8600701593500925,0.01352191666291696,-0.213063,-23.721967
11.185,2.0,1.0,1.0,33.3,34.3,34.3,1.8,2.4,2.6675,0.4508563093361794,-0.0655779431051496,0.8646030155423696,0.01308234822129988,-0.219064,-23.495356
11.185,2.0,1.0,1.0,33.3,34.3,34.3,1.8,2.4,2.67,0.4406569355687838,-0.06749494013341986,0.8690538555578736,0.012600844920499756,-0.225356,-23.265783
11.185,2.0,1.0,1.0,33.3,34.3,34.3,1.8,2.4,2.6725,0.43026980546532484,-0.06948360432439364,0.8734176169880262,0.012074036914847831,-0.23196,-23.033157
11.185,2.0,1.0,1.0,33.3,34.3,34.3,1.8,2.4,2.675,0.41968976769886224,-0.07154737972740784,0.877688866032505,0.011498247324688434,-0.238898,-22.797384
11.185,2.0,1.0,1.0,33.3,34.3,34.3,1.8,2.4,2.6775,0.4089114454625549,-0.07368990450499888,0.8818617623366262,0.010869459849586144,-0.246193,-22.558364
11.185,2.0,1.0,1.0,33.3,34.3,34.3,1.8,2.4,2.68,0.39792922510236156,-0.07591502183245892,0.8859300197803017,0.010183282474941434,-0.253872,-22.315995
11.185,2.0,1.0,1.0,33.3,34.3,34.3,1.8,2.4,2.6825,0.3867372444842746,-0.0782267910782145,0.8898868626811076,0.009434906743099132,-0.261961,-22.070169
11.185,2.0,1.0,1.0,33.3,34.3,34.3,1.8,2.4,2.685,0.3753293812038501,-0.08062949916154047,0.8937249767947683,0.00861906198131445,-0.270494,-21.820775
11.185,2.0,1.0,1.0,33.3,34.3,34.3,1.8,2.4,2.6875,0.363699240785691,-0.0831276719449687,0.897436454404531,0.00772996378767356,-0.279503,-21.567696
11.185,2.0,1.0,1.0,33.3,34.3,34.3,1.8,2.4,2.69,0.35184014507162786,-0.08572608546856955,0.9010127326844473,0.006761255970158309,-0.289026,-21.310808
11.185,2.0,1.0,1.0,33.3,34.3,34.3,1.8,2.4,2.6925,0.3397451210615665,-0.0884297767690708,0.9044445243981103,0.005705945011106672,-0.299105,-21.049985
11.185,2.0,1.0,1.0,33.3,34.3,34.3,1.8,2.4,2.695,0.3274068905542948,-0.09124405394472196,0.9077217398510854,0.004556325986573477,-0.309785,-20.785093
11.185,2.0,1.0,1.0,33.3,34.3,34.3,1.8,2.4,2.6975,0.3148178610416849,-0.0941745050220869,0.9108333988490823,0.0033038987043481406,-0.321116,-20.515991
11.185,2.0,1.0,1.0,33.3,34.3,34.3,1.8,2.4,2.7,0.3019701184451254,-0.09722700504729583,0.9137675312210997,0.0019392726320261965,-0.333154,-20.242534
11.185,2.0,1.0,1.0,33.3,34.3,34.3,1.8,2.4,2.7025,0.2888554224554683,-0.10040772065383323,0.9165110642434127,0.00045205896343980463,-0.34596,-19.96457
11.185,2.0,1.0,1.0,33.3,34.3,34.3,1.8,2.4,2.705,0.27546520545770437,-0.10372311114142395,0.9190496950417771,-0.0011692520865831586,-0.359604,-19.681937
11.185,2.0,1.0,1.0,33.3,34.3,34.3,1.8,2.4,2.7075,0.26179057630196517,-0.1071799248230115,0.9213677457507868,-0.0029374309677257194,-0.374163,-19.39447
11.185,2.0,1.0,1.0,33.3,34.3,34.3,1.8,2.4,2.71,0.24782233054028224,-0.11078518904232161,0.923447998865764,-0.004866668012530408,-0.38972,-19.101993
11.185,2.0,1.0,1.0,33.3,34.3,34.3,1.8,2.4,2.7125,0.23355096920544607,-0.1145461918115273,0.9252715098288317,-0.0069727551348472624,-0.406373,-18.804324
11.185,2.0,1.0,1.0,33.3,34.3,34.3,1.8,2.4,2.715,0.21896672879230403,-0.11847045243914722,0.926817393442152,-0.009273293405839473,-0.424229,-18.501271
11.185,2.0,1.0,1.0,33.3,34.3,34.3,1.8,2.4,2.7175,0.20405962584889764,-0.12256567777667801,0.9280625801943418,-0.011787930414474629,-0.443409,-18.192635
11.185,2.0,1.0,1.0,33.3,34.3,34.3,1.8,2.4,2.72,0.18881952054142262,-0.1268396997622171,0.9289815380195573,-0.01453863188959266,-0.464048,-17.878209
11.185,2.0,1.0,1.0,33.3,34.3,34.3,1.8,2.4,2.7225,0.17323620478285365,-0.13130038872078892,0.9295459543858217,-0.0175499926888652,-0.486302,-17.557775
11.185,2.0,1.0,1.0,33.3,34.3,34.3,1.8,2.4,2.725,0.15729952208747894,-0.1359555353172417,0.9297243729399367,-0.020849592936661106,-0.510345,-17.231107
11.185,2.0,1.0,1.0,33.3,34.3,34.3,1.8,2.4,2.7275,0.14099952833131235,-0.14081269204942684,0.9294817782422903,-0.024468405797267525,-0.536375,-16.897972
11.185,2.0,1.0,1.0,33.3,34.3,34.3,1.8,2.4,2.73,0.12432670518894283,-0.1458789625897165,0.9287791214455577,-0.028441264063519853,-0.564621,-16.558126
11.185,2.0,1.0,1.0,33.3,34.3,34.3,1.8,2.4,2.7325,0.10727224134281292,-0.15116072396931354,0.9275727791740068,-0.03280739335767509,-0.59534,-16.211319
11.185,2.0,1.0,1.0,33.3,34.3,34.3,1.8,2.4,2.735,0.08982840082772876,-0.15666326234565767,0.9258139374548713,-0.03761102017299295,-0.628832,-15.857293
11.185,2.0,1.0,1.0,33.3,34.3,34.3,1.8,2.4,2.7375,0.07198900334073677,-0.1623902976384699,0.923447892514453,-0.04290206305873928,-0.665439,-15.495785
11.185,2.0,1.0,1.0,33.3,34.3,34.3,1.8,2.4,2.74,0.05375004833682551,-0.168343365341079,0.9204132608506908,-0.04873691469974402,-0.705557,-15.126527
11.185,2.0,1.0,1.0,33.3,34.3,34.3,1.8,2.4,2.7425,0.03511052363653669,-0.1745210149159689,0.9166410926462327,-0.05517932105242199,-0.749646,-14.749248
11.185,2.0,1.0,1.0,33.3,34.3,34.3,1.8,2.4,2.745,0.016073450557136056,-0.18091777289899458,0.9120538859201889,-0.06230136044849084,-0.798241,-14.363682
11.185,2.0,1.0,1.0,33.3,34.3,34.3,1.8,2.4,2.7475,-0.0033527682314958545,-0.18752280463559118,0.9065645047729723,-0.0701845197308739,-0.851966,-13.969567
11.185,2.0,1.0,1.0,33.3,34.3,34.3,1.8,2.4,2.75,-0.0231526142869673,-0.1943181909011,0.900075015049507,-0.0789208546578944,-0.911553,-13.566652
11.185,2.0,1.0,1.0,33.3,34.3,34.3,1.8,2.4,2.7525,-0.0433012270103981,-0.20127671402817773,0.892475466770702,-0.08861420597032392,-0.977863,-13.154707
11.185,2.0,1.0,1.0,33.3,34.3,34.3,1.8,2.4,2.755,-0.06376155419397882,-0.20835902233550951,0.8836426777101649,-0.09938141772043409,-1.051912,-12.733531
11.185,2.0,1.0,1.0,33.3,34.3,34.3,1.8,2.4,2.7575,-0.08448071892352324,-0.2155100119680448,0.8734391107184665,-0.1113534665231475,-1.134907,-12.302966
11.185,2.0,1.0,1.0,33.3,34.3,34.3,1.8,2.4,2.76,-0.10538541060213535,-0.2226542332569303,0.8617119946672682,-0.12467635346132838,-1.228282,-11.862916
11.185,2.0,1.0,1.0,33.3,34.3,34.3,1.8,2.4,2.7625,-0.12637607785748878,-0.22969009816028635,0.8482929231061321,-0.13951152654336516,-1.333749,-11.413365
11.185,2.0,1.0,1.0,33.3,34.3,34.3,1.8,2.4,2.765,-0.1473196805667082,-0.23648264398490407,0.8329982861204578,-0.15603548061196737,-1.453362,-10.954407
11.185,2.0,1.0,1.0,33.3,34.3,34.3,1.8,2.4,2.7675,-0.16804076171813231,-0.24285461083203258,0.8156310617391415,-0.174438011070166,-1.589587,-10.486286
11.185,2.0,1.0,1.0,33.3,34.3,34.3,1.8,2.4,2.77,-0.18831065267493655,-0.24857564125694023,0.7959847264205833,-0.19491836471233967,-1.745397,-10.009434
11.185,2.0,1.0,1.0,33.3,34.3,34.3,1.8,2.4,2.7725,-0.20783476942246137,-0.2533495521353457,0.7738503489460149,-0.21767822574161538,-1.924381,-9.524533
11.185,2.0,1.0,1.0,33.3,34.3,34.3,1.8,2.4,2.775,-0.22623825763256497,-0.2567999256376823,0.749028305108835,-0.2429101006028222,-2.130874,-9.032585
11.185,2.0,1.0,1.0,33.3,34.3,34.3,1.8,2.4,2.7775,-0.2430507949720452,-0.25845481267318077,0.7213464581808783,-0.2707792545358888,-2.370107,-8.53499
11.185,2.0,1.0,1.0,33.3,34.3,34.3,1.8,2.4,2.78,-0.257692282094389,-0.25773226067843635,0.6906869973301534,-0.3013969996015672,-2.648373,-8.03365
11.185,2.0,1.0,1.0,33.3,34.3,34.3,1.8,2.4,2.7825,-0.2694625784324241,-0.25392979862621634,0.6570242096406508,-0.334783040295086,-2.973189,-7.531076
11.185,2.0,1.0,1.0,33.3,34.3,34.3,1.8,2.4,2.785,-0.2775404377544688,-0.24622301063702118,0.620474910682491,-0.3708151178783099,-3.353413,-7.030506
11.185,2.0,1.0,1.0,33.3,34.3,34.3,1.8,2.4,2.7875,-0.2809992465889355,-0.23368078517734206,0.5813614932422254,-0.40916593832540715,-3.799246,-6.536011
11.185,2.0,1.0,1.0,33.3,34.3,34.3,1.8,2.4,2.79,-0.27884949859623376,-0.21530717865065224,0.5402838305420665,-0.44923106707106997,-4.321932,-6.052582
11.185,2.0,1.0,1.0,33.3,34.3,34.3,1.8,2.4,2.7925,-0.2701188199844552,-0.1901207578601855,0.4981899617131775,-0.49005776212592034,-4.93282,-5.586152
11.185,2.0,1.0,1.0,33.3,34.3,34.3,1.8,2.4,2.795,-0.25397750324126983,-0.1572794971863279,0.45642677155733546,-0.5302934343549462,-5.641079,-5.143524
11.185,2.0,1.0,1.0,33.3,34.3,34.3,1.8,2.4,2.7975,-0.2299080526338412,-0.11624993822348387,0.41674287392654763,-0.5681814748070211,-6.448698,-4.73216
11.185,2.0,1.0,1.0,33.3,34.3,34.3,1.8,2.4,2.8,-0.1978994552824962,-0.06700159915379678,0.38121174892197074,-0.6016364671800847,-7.340352,-4.359786
11.185,2.0,1.0,1.0,33.3,34.3,34.3,1.8,2.4,2.8025,-0.15862333065545048,-0.010184052127207724,0.3520515207908444,-0.628422655022953,-8.265176,-4.033823
11.185,2.0,1.0,1.0,33.3,34.3,34.3,1.8,2.4,2.805,-0.11352972101082354,0.05277545477484056,0.3313447251718419,-0.6464327709236968,-9.112322,-3.760682
11.185,2.0,1.0,1.0,33.3,34.3,34.3,1.8,2.4,2.8075,-0.06480108878390839,0.11971545968404419,0.32070399600915167,-0.6540218420282515,-9.704124,-3.545027
11.185,2.0,1.0,1.0,33.3,34.3,34.3,1.8,2.4,2.81,-0.015136529567670181,0.1879533845437214,0.3209699158137044,-0.650310121510911,-9.861066,-3.389167
11.185,2.0,1.0,1.0,33.3,34.3,34.3,1.8,2.4,2.8125,0.0326013378752805,0.254636580804647,0.332038188064554,-0.635357968587782,-9.534572,-3.292723
11.185,2.0,1.0,1.0,33.3,34.3,34.3,1.8,2.4,2.815,0.0757857048800459,0.3171408752989881,0.3528781072067386,-0.6101501803079171,-8.851675,-3.25266
11.185,2.0,1.0,1.0,33.3,34.3,34.3,1.8,2.4,2.8175,0.11235877712629033,0.37340446630530116,0.3817354896300962,-0.5763957813622729,-8.003916,-3.263682
11.185,2.0,1.0,1.0,33.3,34.3,34.3,1.8,2.4,2.82,0.1410166708533578,0.4221146546202156,0.4164482502224752,-0.5362143278489917,-7.137348,-3.318876
11.185,2.0,1.0,1.0,33.3,34.3,34.3,1.8,2.4,2.8225,0.16122565493661092,0.4627263939018245,0.4547761693867233,-0.4918068075702746,-6.329889,-3.41045
11.185,2.0,1.0,1.0,33.3,34.3,34.3,1.8,2.4,2.825,0.17310644095494374,0.49534869485230176,0.494664621931155,-0.4451914474969331,-5.612063,-3.53042
11.185,2.0,1.0,1.0,33.3,34.3,34.3,1.8,2.4,2.8275,0.17725036871311448,0.5205623108036534,0.5344047452700907,-0.39804232679765783,-4.989323,-3.671149
11.185,2.0,1.0,1.0,33.3,34.3,34.3,1.8,2.4,2.83,0.17452717673145848,0.5392282781914166,0.5726931245464347,-0.3516281554633857,-4.45587,-3.825703
