1,w,sub_t,h,l1,l2,l3,g1,g2,Freq,S11_re,S21_re,S11_img,S21_img,S11_dB,S21_dB
11.185,2.0,1.0,1.0,34.3,34.9,34.9,3.6,3.4,2.5,0.73334071161343,-0.0112414397847804,0.667494542920578,0.00500504923050999,-0.072974,-38.198154
11.185,2.0,1.0,1.0,34.3,34.9,34.9,3.6,3.4,2.5025,0.7280319766085777,-0.011465493380360922,0.6731315610780817,0.0049883657125137275,-0.073861,-38.059262
11.185,2.0,1.0,1.0,34.3,34.9,34.9,3.6,3.4,2.505,0.7226501920322449,-0.011694292130235933,0.6787547733626282,0.004969559982011912,-0.074768,-37.919539
11.185,2.0,1.0,1.0,34.3,34.9,34.9,3.6,3.4,2.5075,0.7171945528722303,-0.011927970571911271,0.684363537756082,0.0049485414015207835,-0.075696,-37.778963
11.185,2.0,1.0,1.0,34.3,34.9,34.9,3.6,3.4,2.51,0.7116642408339247,-0.012166668557280696,0.689957192550629,0.004925215014391396,-0.076644,-37.637511
11.185,2.0,1.0,1.0,34.3,34.9,34.9,3.6,3.4,2.5125,0.7060584240434673,-0.012410531524776551,0.6955350556639658,0.004899481294149523,-0.077614,-37.495161
11.185,2.0,1.0,1.0,34.3,34.9,34.9,3.6,3.4,2.515,0.7003762567379155,-0.012659710788606714,0.7010964239250327,0.004871235876311266,-0.078606,-37.351887
11.185,2.0,1.0,1.0,34.3,34.9,34.9,3.6,3.4,2.5175,0.6946168789414248,-0.01291436384634181,0.7066405723285045,0.004840369271230423,-0.079622,-37.207667
11.185,2.0,1.0,1.0,34.3,34.9,34.9,3.6,3.4,2.52,0.6887794161263372,-0.013174654706218956,0.7121667532561785,0.004806766556395372,-0.080661,-37.062475
11.185,2.0,1.0,1.0,34.3,34.9,34.9,3.6,3.4,2.5225,0.6828629788579831,-0.01344075423564749,0.7176741956631486,0.004770307046442395,-0.081725,-36.916283
11.185,2.0,1.0,1.0,34.3,34.9,34.9,3.6,3.4,2.525,0.6768666624218705,-0.013712840532529101,0.7231621042265778,0.004730863938983162,-0.082815,-36.769066
11.185,2.0,1.0,1.0,34.3,34.9,34.9,3.6,3.4,2.5275,0.6707895464318183,-0.013991099321144665,0.7286296584546139,0.00468830393415723,-0.083931,-36.620796
11.185,2.0,1.0,1.0,34.3,34.9,34.9,3.6,3.4,2.53,0.6646306944174487,-0.01427572437451291,0.7340760117528036,0.004642486825613384,-0.085074,-36.471444
11.185,2.0,1.0,1.0,34.3,34.9,34.9,3.6,3.4,2.5325,0.6583891533893039,-0.014566917965296263,0.7395002904451392,0.004593265060391978,-0.086246,-36.32098
11.185,2.0,1.0,1.0,34.3,34.9,34.9,3.6,3.4,2.535,0.6520639533796625,-0.014864891347512725,0.7449015927465786,0.004540483264922941,-0.087448,-36.169373
11.185,2.0,1.0,1.0,34.3,34.9,34.9,3.6,3.4,2.5375,0.6456541069569748,-0.015169865271517091,0.7502789876836057,0.004483977734068376,-0.08868,-36.016591
11.185,2.0,1.0,1.0,34.3,34.9,34.9,3.6,3.4,2.54,0.6391586087115904,-0.015482070534939933,0.755631513959065,0.004423575879816611,-0.089944,-35.862602
11.185,2.0,1.0,1.0,34.3,34.9,34.9,3.6,3.4,2.5425,0.6325764347102474,-0.015801748572518447,0.7609581787571394,0.004359095635877927,-0.09124,-35.707372
11.185,2.0,1.0,1.0,34.3,34.9,34.9,3.6,3.4,2.545,0.6259065419165204,-0.016129152088026993,0.7662579564839406,0.004290344814030793,-0.092571,-35.550865
11.185,2.0,1.0,1.0,34.3,34.9,34.9,3.6,3.4,2.5475,0.6191478675741566,-0.01646454573181546,0.7715297874387037,0.004217120407617758,-0.093938,-35.393045
11.185,2.0,1.0,1.0,34.3,34.9,34.9,3.6,3.4,2.55,0.6122993285498848,-0.016808206827795956,0.776772576410114,0.004139207837086533,-0.095341,-35.233874
11.185,2.0,1.0,1.0,34.3,34.9,34.9,3.6,3.4,2.5525,0.6053598206319754,-0.0171604261540855,0.7819851911916539,0.004056380131905148,-0.096783,-35.073312
11.185,2.0,1.0,1.0,34.3,34.9,34.9,3.6,3.4,2.555,0.5983282177803995,-0.017521508781919985,0.7871664610092928,0.0039683970425415035,-0.098265,-34.911318
11.185,2.0,1.0,1.0,34.3,34.9,34.9,3.6,3.4,2.5575,0.5912033713240181,-0.017891774977903164,0.7923151748540538,0.0038750040754791134,-0.099789,-34.74785
11.185,2.0,1.0,1.0,34.3,34.9,34.9,3.6,3.4,2.56,0.5839841090997739,-0.018271561175155795,0.7974300797112207,0.003775931443430016,-0.101356,-34.582865
11.185,2.0,1.0,1.0,34.3,34.9,34.9,3.6,3.4,2.5625,0.576669234528284,-0.0186612210194832,0.802509878677002,0.00367089292198739,-0.102968,-34.416315
11.185,2.0,1.0,1.0,34.3,34.9,34.9,3.6,3.4,2.565,0.5692575256196626,-0.01906112649729316,0.8075532289524442,0.0035595846029212123,-0.104628,-34.248154
11.185,2.0,1.0,1.0,34.3,34.9,34.9,3.6,3.4,2.5675,0.561747733902742,-0.01947166915268293,0.8125587397031988,0.003441683533144379,-0.106337,-34.078331
11.185,2.0,1.0,1.0,34.3,34.9,34.9,3.6,3.4,2.57,0.554138583270096,-0.019893261401873773,0.817524969772415,0.0033168462270355484,-0.108098,-33.906796
11.185,2.0,1.0,1.0,34.3,34.9,34.9,3.6,3.4,2.5725,0.5464287687304646,-0.02032633795401687,0.8224504252325106,0.0031847070382838953,-0.109913,-33.733493
11.185,2.0,1.0,1.0,34.3,34.9,34.9,3.6,3.4,2.575,0.5386169550592445,-0.0207713573483429,0.8273335567598321,0.0030448763756846706,-0.111785,-33.558367
11.185,2.0,1.0,1.0,34.3,34.9,34.9,3.6,3.4,2.5775,0.5307017753366842,-0.021228803618677208,0.83217275681426,0.0028969387453317507,-0.113715,-33.381359
11.185,2.0,1.0,1.0,34.3,34.9,34.9,3.6,3.4,2.58,0.5226818293622644,-0.02169918809752012,0.8369663566035241,0.0027404505993866408,-0.115708,-33.202408
11.185,2.0,1.0,1.0,34.3,34.9,34.9,3.6,3.4,2.5825,0.5145556819324416,-0.022183051373206576,0.8417126228094486,0.0025749379690036853,-0.117766,-33.021449
11.185,2.0,1.0,1.0,34.3,34.9,34.9,3.6,3.4,2.585,0.5063218609675055,-0.022680965415127284,0.8464097540503399,0.0023998938560081478,-0.119893,-32.838416
11.185,2.0,1.0,1.0,34.3,34.9,34.9,3.6,3.4,2.5875,0.49797885547165005,-0.023193535883637026,0.8510558770503419,0.002214775354488368,-0.122091,-32.653239
11.185,2.0,1.0,1.0,34.3,34.9,34.9,3.6,3.4,2.59,0.48952511330856835,-0.0237214046431193,0.8556490424826407,0.0020190004695069784,-0.124365,-32.465844
11.185,2.0,1.0,1.0,34.3,34.9,34.9,3.6,3.4,2.5925,0.48095903877279916,-0.024265252498733732,0.8601872204488562,0.0018119445955607895,-0.126718,-32.276155
11.185,2.0,1.0,1.0,34.3,34.9,34.9,3.6,3.4,2.595,0.4722789899348102,-0.024825802179687842,0.8646682955517079,0.001592936612124651,-0.129155,-32.084091
11.185,2.0,1.0,1.0,34.3,34.9,34.9,3.6,3.4,2.5975,0.46348327573516596,-0.025403821594465935,0.8690900615119459,0.0013612545474713683,-0.131681,-31.889567
11.185,2.0,1.0,1.0,34.3,34.9,34.9,3.6,3.4,2.6,0.45457015280028523,-0.0260001273863523,0.8734502152734442,0.0011161207548122615,-0.134301,-31.692495
11.185,2.0,1.0,1.0,34.3,34.9,34.9,3.6,3.4,2.6025,0.4455378219490292,-0.02661558882085014,0.8777463505321023,0.000856696536476717,-0.137019,-31.492781
11.185,2.0,1.0,1.0,34.3,34.9,34.9,3.6,3.4,2.605,0.4363844243556869,-0.02725113204025346,0.8819759506145433,0.0005820761421135676,-0.139843,-31.290328
11.185,2.0,1.0,1.0,34.3,34.9,34.9,3.6,3.4,2.6075,0.4271080373308647,-0.027907744724733,0.8861363806213204,0.0002912800554977981,-0.142777,-31.085032
11.185,2.0,1.0,1.0,34.3,34.9,34.9,3.6,3.4,2.61,0.41770666967715964,-0.028586481203892077,0.8902248787360458,-1.675252886251339e-05,-0.145829,-30.876785
11.185,2.0,1.0,1.0,34.3,34.9,34.9,3.6,3.4,2.6125,0.4081782565713473,-0.029288468067900333,0.8942385465862778,-0.00034317215389006994,-0.149006,-30.665471
11.185,2.0,1.0,1.0,34.3,34.9,34.9,3.6,3.4,2.615,0.39852065391904057,-0.030014910333067364,0.8981743385235511,-0.0006892286060571274,-0.152316,-30.45097
11.185,2.0,1.0,1.0,34.3,34.9,34.9,3.6,3.4,2.6175,0.3887316321213227,-0.030767098223143836,0.9020290496681173,-0.001056281634679663,-0.155768,-30.233153
11.185,2.0,1.0,1.0,34.3,34.9,34.9,3.6,3.4,2.62,0.3788088691856635,-0.031546414634793025,0.9057993025380792,-0.0014458130657744863,-0.159371,-30.011887
11.185,2.0,1.0,1.0,34.3,34.9,34.9,3.6,3.4,2.6225,0.36874994310541476,-0.0323543433636084,0.9094815320517459,-0.0018594405230299071,-0.163137,-29.787027
11.185,2.0,1.0,1.0,34.3,34.9,34.9,3.6,3.4,2.625,0.358552323423376,-0.0331924781758155,0.913071968655215,-0.00229893300566317,-0.167075,-29.558423
11.185,2.0,1.0,1.0,34.3,34.9,34.9,3.6,3.4,2.6275,0.3482133618851362,-0.03406253282041009,0.9165666192830585,-0.002766228617548839,-0.171199,-29.325913
11.185,2.0,1.0,1.0,34.3,34.9,34.9,3.6,3.4,2.63,0.33773028207734307,-0.03496635208694046,0.9199612458069268,-0.003263454795631484,-0.175522,-29.089327
11.185,2.0,1.0,1.0,34.3,34.9,34.9,3.6,3.4,2.6325,0.32710016793457325,-0.035905924025387524,0.9232513405629134,-0.0037929514503323492,-0.180059,-28.848484
11.185,2.0,1.0,1.0,34.3,34.9,34.9,3.6,3.4,2.635,0.31631995098632765,-0.036883393456495196,0.9264320984710611,-0.004357297508974063,-0.184828,-28.60319
11.185,2.0,1.0,1.0,34.3,34.9,34.9,3.6,3.4,2.6375,0.30538639620305336,-0.037901076913184,0.9294983851663066,-0.004959341448391651,-0.189846,-28.35324
11.185,2.0,1.0,1.0,34.3,34.9,34.9,3.6,3.4,2.64,0.29429608628733855,-0.03896147916594657,0.9324447004454652,-0.0056022365189086435,-0.195133,-28.098415
11.185,2.0,1.0,1.0,34.3,34.9,34.9,3.6,3.4,2.6425,0.28304540424439084,-0.0400673114966241,0.9352651361944234,-0.006289481503862827,-0.200714,-27.838481
11.185,2.0,1.0,1.0,34.3,34.9,34.9,3.6,3.4,2.645,0.27163051405536226,-0.0412215118946612,0.9379533277872006,-0.00702496803337049,-0.206613,-27.573187
11.185,2.0,1.0,1.0,34.3,34.9,34.9,3.6,3.4,2.6475,0.26004733926988977,-0.042427267356146915,0.9405023977356578,-0.007813035686326983,-0.212858,-27.302264
11.185,2.0,1.0,1.0,34.3,34.9,34.9,3.6,3.4,2.65,0.24829153933256032,-0.043688038466198655,0.9429048901048742,-0.008658536381425571,-0.219481,-27.025426
11.185,2.0,1.0,1.0,34.3,34.9,34.9,3.6,3.4,2.6525,0.23635848346568952,-0.04500758643581332,0.9451526938810114,-0.009566909889943282,-0.226519,-26.742364
11.185,2.0,1.0,1.0,34.3,34.9,34.9,3.6,3.4,2.655,0.22424322195289048,-0.04639000273974207,0.9472369530682397,-0.010544272717975128,-0.234011,-26.452744
11.185,2.0,1.0,1.0,34.3,34.9,34.9,3.6,3.4,2.6575,0.2119404547126118,-0.04783974145408098,0.9491479607762239,-0.01159752312676635,-0.242004,-26.156209
11.185,2.0,1.0,1.0,34.3,34.9,34.9,3.6,3.4,2.66,0.19944449712949983,-0.049361654309219904,0.9508750339098414,-0.012734465716953658,-0.250549,-25.852372
11.185,2.0,1.0,1.0,34.3,34.9,34.9,3.6,3.4,2.6625,0.18674924324154102,-0.05096102833788049,0.9524063642492286,-0.01396395983541812,-0.259707,-25.540817
11.185,2.0,1.0,1.0,34.3,34.9,34.9,3.6,3.4,2.665,0.17384812658775786,-0.05264362578316206,0.9537288406592365,-0.015296097124161497,-0.269545,-25.22109
11.185,2.0,1.0,1.0,34.3,34.9,34.9,3.6,3.4,2.6675,0.16073407934276426,-0.054415725599181876,0.9548278358247568,-0.016742414888053742,-0.280141,-24.892701
11.185,2.0,1.0,1.0,34.3,34.9,34.9,3.6,3.4,2.67,0.14739949085676465,-0.05628416536964425,0.955686949181544,-0.018316153703985497,-0.291586,-24.555117
11.185,2.0,1.0,1.0,34.3,34.9,34.9,3.6,3.4,2.6725,0.1338361674669544,-0.05825638170165923,0.9562876954801655,-0.020032569949856128,-0.303985,-24.207756
11.185,2.0,1.0,1.0,34.3,34.9,34.9,3.6,3.4,2.675,0.12003529657507496,-0.06034044599455324,0.9566091255221146,-0.021909316860931855,-0.317462,-23.849987
11.185,2.0,1.0,1.0,34.3,34.9,34.9,3.6,3.4,2.6775,0.10598741968732184,-0.06254509074154391,0.9566273618254407,-0.023966911541652487,-0.332159,-23.481116
11.185,2.0,1.0,1.0,34.3,34.9,34.9,3.6,3.4,2.68,0.09168242167791997,-0.06487971889987003,0.9563150270225662,-0.026229310365196146,-0.348246,-23.100384
11.185,2.0,1.0,1.0,34.3,34.9,34.9,3.6,3.4,2.6825,0.07710954741254542,-0.06735438490867532,0.9556405362772985,-0.028724621771704983,-0.365925,-22.706961
11.185,2.0,1.0,1.0,34.3,34.9,34.9,3.6,3.4,2.685,0.062257462741208816,-0.06997972994337756,0.9545672164152468,-0.03148599414856312,-0.385435,-22.299931
11.185,2.0,1.0,1.0,34.3,34.9,34.9,3.6,3.4,2.6875,0.0471143858151613,-0.0727668448807066,0.953052203111624,-0.0345527279260622,-0.407066,-21.878286
11.185,2.0,1.0,1.0,34.3,34.9,34.9,3.6,3.4,2.69,0.031668328382978304,-0.07572702050004795,0.9510450524938581,-0.03797167613134556,-0.431165,-21.440916
11.185,2.0,1.0,1.0,34.3,34.9,34.9,3.6,3.4,2.6925,0.015907507844500964,-0.07887132295762356,0.9484859837959314,-0.0417990175111609,-0.45816,-20.986592
11.185,2.0,1.0,1.0,34.3,34.9,34.9,3.6,3.4,2.695,-0.0001789763525163572,-0.08220989922039694,0.9453036439661054,-0.04610251223628304,-0.488573,-20.513959
11.185,2.0,1.0,1.0,34.3,34.9,34.9,3.6,3.4,2.6975,-0.01660005704209589,-0.08575086498532969,0.9414122520931092,-0.0509643834071783,-0.523053,-20.021516
11.185,2.0,1.0,1.0,34.3,34.9,34.9,3.6,3.4,2.7,-0.03336097845883675,-0.08949854537179139,0.9367079404079577,-0.056485008817458576,-0.562411,-19.507608
11.185,2.0,1.0,1.0,34.3,34.9,34.9,3.6,3.4,2.7025,-0.05046058541246292,-0.09345070800532992,0.9310640604942089,-0.06278765554291867,-0.607671,-18.970409
11.185,2.0,1.0,1.0,34.3,34.9,34.9,3.6,3.4,2.705,-0.06788706156348677,-0.09759421902733488,0.9243251741426705,-0.07002453874640235,-0.660141,-18.407918
11.185,2.0,1.0,1.0,34.3,34.9,34.9,3.6,3.4,2.7075,-0.08561122388655731,-0.10189821622851707,0.9162994157774592,-0.07838451740314563,-0.721505,-17.81796
11.185,2.0,1.0,1.0,34.3,34.9,34.9,3.6,3.4,2.71,-0.10357594487586136,-0.10630335131094289,0.906748942480933,-0.08810270758968707,-0.793959,-17.198204
11.185,2.0,1.0,1.0,34.3,34.9,34.9,3.6,3.4,2.7125,-0.12167941315314662,-0.11070478241731907,0.8953783839477713,-0.09947209102434992,-0.880394,-16.546215
11.185,2.0,1.0,1.0,34.3,34.9,34.9,3.6,3.4,2.715,-0.13974857852657807,-0.11492521907361399,0.8818218065270303,-0.11285658050223678,-0.984657,-15.859561
11.185,2.0,1.0,1.0,34.3,34.9,34.9,3.6,3.4,2.7175,-0.15749703782471328,-0.11867221291939342,0.8656302352117214,-0.12870344473100462,-1.111911,-15.136025
11.185,2.0,1.0,1.0,34.3,34.9,34.9,3.6,3.4,2.72,-0.1744586620203493,-0.12147091167558242,0.8462653446481517,-0.1475493685662462,-1.269115,-14.373979
11.185,2.0,1.0,1.0,34.3,34.9,34.9,3.6,3.4,2.7225,-0.18988487041193958,-0.12256009409813255,0.8231127813580846,-0.17000645824469507,-1.465629,-13.573063
11.185,2.0,1.0,1.0,34.3,34.9,34.9,3.6,3.4,2.725,-0.20259216401940475,-0.12073807205209018,0.7955448528151777,-0.1966980169608043,-1.713819,-12.735353
11.185,2.0,1.0,1.0,34.3,34.9,34.9,3.6,3.4,2.7275,-0.21075619435114443,-0.11415497846599679,0.7630930562987096,-0.22808283977502491,-2.029201,-11.867317
11.185,2.0,1.0,1.0,34.3,34.9,34.9,3.6,3.4,2.73,-0.21169371861438757,-0.10009382674722092,0.7258386874121062,-0.26405862799202934,-2.428652,-10.982925
11.185,2.0,1.0,1.0,34.3,34.9,34.9,3.6,3.4,2.7325,-0.20180606796461079,-0.07491683216537103,0.6851677214676587,-0.3031973253568154,-2.922761,-10.108121
11.185,2.0,1.0,1.0,34.3,34.9,34.9,3.6,3.4,2.735,-0.1771328128664207,-0.03463147900877381,0.6449338183515382,-0.34157009003089145,-3.493859,-9.285987
11.185,2.0,1.0,1.0,34.3,34.9,34.9,3.6,3.4,2.7375,-0.13524252470770992,0.023190136408328687,0.6125124864543782,-0.37168867927520843,-4.050971,-8.57954
11.185,2.0,1.0,1.0,34.3,34.9,34.9,3.6,3.4,2.74,-0.0786496331286749,0.09595515734512657,0.5980451464306716,-0.38328648695709744,-4.390851,-8.065528
11.185,2.0,1.0,1.0,34.3,34.9,34.9,3.6,3.4,2.7425,-0.017421750196418964,0.17343066228193735,0.6098694581575913,-0.36795715932861056,-4.29172,-7.81279
11.185,2.0,1.0,1.0,34.3,34.9,34.9,3.6,3.4,2.745,0.03364817702538024,0.24063593746839287,0.6480074631083793,-0.32573546777591683,-3.756706,-7.851317
11.185,2.0,1.0,1.0,34.3,34.9,34.9,3.6,3.4,2.7475,0.06327070333292098,0.286180950037444,0.7027638371872075,-0.2664805592682004,-3.028752,-8.155601
11.185,2.0,1.0,1.0,34.3,34.9,34.9,3.6,3.4,2.75,0.0692236149964962,0.307873040042595,0.761030277141067,-0.203467765838772,-2.336177,-8.658709
11.185,2.0,1.0,1.0,34.3,34.9,34.9,3.6,3.4,2.7525,0.056394762133215565,0.31070485902125866,0.8132668318429453,-0.1463269766168493,-1.774506,-9.283054
11.185,2.0,1.0,1.0,34.3,34.9,34.9,3.6,3.4,2.755,0.03169825676486147,0.30169738033185695,0.8554265978073357,-0.09911512557729901,-1.350386,-9.963451
11.185,2.0,1.0,1.0,34.3,34.9,34.9,3.6,3.4,2.7575,0.0008435084186928726,0.2866347299488997,0.8872648529426251,-0.06204260164904571,-1.038931,-10.654573
11.185,2.0,1.0,1.0,34.3,34.9,34.9,3.6,3.4,2.76,-0.032446882010795076,0.26928120493888247,0.9102105782005928,-0.03363248852940881,-0.811647,-11.328655
11.185,2.0,1.0,1.0,34.3,34.9,34.9,3.6,3.4,2.7625,-0.06606930736492438,0.25175952494041687,0.9260649745647925,-0.012037209138431135,-0.645121,-11.970365
11.185,2.0,1.0,1.0,34.3,34.9,34.9,3.6,3.4,2.765,-0.0989671512962149,0.23513269004677922,0.9364492588695056,0.004404706141125943,-0.522078,-12.572216
11.185,2.0,1.0,1.0,34.3,34.9,34.9,3.6,3.4,2.7675,-0.13068620992866378,0.2198550154224465,0.9426542217418988,0.01701829035854769,-0.430272,-13.131328
11.185,2.0,1.0,1.0,34.3,34.9,34.9,3.6,3.4,2.77,-0.1610936166844032,0.20605682519823265,0.9456525362275421,0.026805978308930348,-0.361131,-13.647377
11.185,2.0,1.0,1.0,34.3,34.9,34.9,3.6,3.4,2.7725,-0.19021637379486375,0.19370777434998632,0.9461587302484673,0.034509220713544606,-0.308644,-14.121366
11.185,2.0,1.0,1.0,34.3,34.9,34.9,3.6,3.4,2.775,-0.2181535148508995,0.1827055703978595,0.9446919451427701,0.04067261681385653,-0.268565,-14.554906
11.185,2.0,1.0,1.0,34.3,34.9,34.9,3.6,3.4,2.7775,-0.24503022195389398,0.17292224483005672,0.9416278488588653,0.04569690059275755,-0.237863,-14.949816
11.185,2.0,1.0,1.0,34.3,34.9,34.9,3.6,3.4,2.78,-0.27097489734084784,0.16422723023057115,0.9372379282740644,0.0498790719648983,-0.21435,-15.307893
11.185,2.0,1.0,1.0,34.3,34.9,34.9,3.6,3.4,2.7825,-0.2961084729129592,0.15649809096541223,0.9317180695360088,0.05344166155875276,-0.196426,-15.630798
11.185,2.0,1.0,1.0,34.3,34.9,34.9,3.6,3.4,2.785,-0.3205400947388523,0.1496248352496829,0.9252089738350855,0.05655374467559245,-0.182912,-15.91999
11.185,2.0,1.0,1.0,34.3,34.9,34.9,3.6,3.4,2.7875,-0.3443660291559035,0.14351099268949793,0.9178106306753981,0.0593459804643925,-0.172927,-16.176704
11.185,2.0,1.0,1.0,34.3,34.9,34.9,3.6,3.4,2.79,-0.36767011556562024,0.13807314558798164,0.9095925492721654,0.06192142022685214,-0.165812,-16.401938
11.185,2.0,1.0,1.0,34.3,34.9,34.9,3.6,3.4,2.7925,-0.39052488874131575,0.13323979573876354,0.9006009777304815,0.06436335161961657,-0.161069,-16.596454
11.185,2.0,1.0,1.0,34.3,34.9,34.9,3.6,3.4,2.795,-0.4129929209562067,0.12895001618529567,0.8908639745650814,0.06674107837866283,-0.158321,-16.760783
11.185,2.0,1.0,1.0,34.3,34.9,34.9,3.6,3.4,2.7975,-0.4351281616568132,0.12515210700820875,0.8803949310101531,0.06911427068467546,-0.157285,-16.895227
11.185,2.0,1.0,1.0,34.3,34.9,34.9,3.6,3.4,2.8,-0.45697717184100495,0.12180235221177767,0.869194953386758,0.07153633718188537,-0.157752,-16.999861
11.185,2.0,1.0,1.0,34.3,34.9,34.9,3.6,3.4,2.8025,-0.4785802113471195,0.11886391074900354,0.8572543808587415,0.0740571444942093,-0.159572,-17.07454
11.185,2.0,1.0,1.0,34.3,34.9,34.9,3.6,3.4,2.805,-0.4999721665386741,0.11630584127090789,0.8445536178496323,0.07672532717015895,-0.162641,-17.118889
11.185,2.0,1.0,1.0,34.3,34.9,34.9,3.6,3.4,2.8075,-0.5211833175271174,0.11410224226022744,0.8310633892258166,0.07959037858533201,-0.166902,-17.132304
11.185,2.0,1.0,1.0,34.3,34.9,34.9,3.6,3.4,2.81,-0.5422399453837438,0.11223147826400243,0.816744470456854,0.0827046837890396,-0.172334,-17.113938
11.185,2.0,1.0,1.0,34.3,34.9,34.9,3.6,3.4,2.8125,-0.563164774056902,0.110675453689946,0.801546896948135,0.0861256441964519,-0.178953,-17.062689
11.185,2.0,1.0,1.0,34.3,34.9,34.9,3.6,3.4,2.815,-0.5839772296842175,0.1094188841408998,0.7854086103924085,0.08991804967465562,-0.186816,-16.977178
11.185,2.0,1.0,1.0,34.3,34.9,34.9,3.6,3.4,2.8175,-0.6046934803568387,0.10844849759646227,0.7682534493211768,0.09415687670041398,-0.196023,-16.855725
11.185,2.0,1.0,1.0,34.3,34.9,34.9,3.6,3.4,2.82,-0.6253261885432245,0.1077520687106054,0.7499883293181574,0.0989307353108247,-0.206723,-16.696309
11.185,2.0,1.0,1.0,34.3,34.9,34.9,3.6,3.4,2.8225,-0.6458838593861369,0.10731714094008651,0.7304993769281695,0.10434625933939315,-0.21913,-16.496529
11.185,2.0,1.0,1.0,34.3,34.9,34.9,3.6,3.4,2.825,-0.6663695884876475,0.10712920934725878,0.7096466679993914,0.11053384548820216,-0.233535,-16.253543
11.185,2.0,1.0,1.0,34.3,34.9,34.9,3.6,3.4,2.8275,-0.686778880246397,0.10716899733399254,0.687257058094227,0.11765531573985909,-0.250338,-15.963997
11.185,2.0,1.0,1.0,34.3,34.9,34.9,3.6,3.4,2.83,-0.7070959816017047,0.10740821888608727,0.663114352615103,0.12591433375154135,-0.270083,-15.62393
