1,w,sub_t,h,l1,l2,l3,g1,g2,Freq,S11_re,S21_re,S11_img,S21_img,S11_dB,S21_dB
11.185,2.0,1.0,1.0,33.0,33.1,33.1,3.0,2.9,2.5,0.898225065084048,-0.00517945134774993,0.426767777560721,0.0053982638613561,-0.048305,-42.520605
11.185,2.0,1.0,1.0,33.0,33.1,33.1,3.0,2.9,2.5025,0.8955714883261798,-0.005289030506657615,0.43220362809620255,0.005432614822080071,-0.048703,-42.404292
11.185,2.0,1.0,1.0,33.0,33.1,33.1,3.0,2.9,2.505,0.8928749106645347,-0.005400523627310186,0.4376419865230853,0.005466669815463083,-0.049108,-42.287791
11.185,2.0,1.0,1.0,33.0,33.1,33.1,3.0,2.9,2.5075,0.890134943805489,-0.00551396640345098,0.4430827206270675,0.005500412057506746,-0.049519,-42.171093
11.185,2.0,1.0,1.0,33.0,33.1,33.1,3.0,2.9,2.51,0.8873511931395809,-0.005629395371324228,0.4485256941700798,0.005533824156810475,-0.049937,-42.054192
11.185,2.0,1.0,1.0,33.0,33.1,33.1,3.0,2.9,2.5125,0.8845232576317654,-0.005746847933474525,0.45397076675483083,0.005566888090722087,-0.050361,-41.93708
11.185,2.0,1.0,1.0,33.0,33.1,33.1,3.0,2.9,2.515,0.8816507297097393,-0.005866362383313702,0.4594177936849279,0.005599585180466566,-0.050793,-41.819751
11.185,2.0,1.0,1.0,33.0,33.1,33.1,3.0,2.9,2.5175,0.878733195150314,-0.005987977930481736,0.46486662582040295,0.005631896065205226,-0.051231,-41.702195
11.185,2.0,1.0,1.0,33.0,33.1,33.1,3.0,2.9,2.52,0.8757702329637966,-0.006111734727032428,0.47031710942849786,0.005663800674974191,-0.051676,-41.584407
11.185,2.0,1.0,1.0,33.0,33.1,33.1,3.0,2.9,2.5225,0.8727614152763624,-0.006237673894473488,0.4757690860295173,0.0056952782024492655,-0.052129,-41.466379
11.185,2.0,1.0,1.0,33.0,33.1,33.1,3.0,2.9,2.525,0.8697063072103755,-0.006365837551693284,0.4812223922375965,0.005726307073480525,-0.052589,-41.348102
11.185,2.0,1.0,1.0,33.0,33.1,33.1,3.0,2.9,2.5275,0.8666044667626348,-0.0064962688438074765,0.4866768595961902,0.005756864916337818,-0.053056,-41.229571
11.185,2.0,1.0,1.0,33.0,33.1,33.1,3.0,2.9,2.53,0.8634554446805156,-0.006629011971959896,0.4921323144080936,0.005786928529604593,-0.053532,-41.110776
11.185,2.0,1.0,1.0,33.0,33.1,33.1,3.0,2.9,2.5325,0.8602587843359725,-0.006764112224113747,0.4975885775597993,0.005816473848654304,-0.054015,-40.991711
11.185,2.0,1.0,1.0,33.0,33.1,33.1,3.0,2.9,2.535,0.8570140215973757,-0.006901616006871043,0.503045464339991,0.005845475910640358,-0.054507,-40.872367
11.185,2.0,1.0,1.0,33.0,33.1,33.1,3.0,2.9,2.5375,0.8537206846991539,-0.007041570878358975,0.5085027842519486,0.005873908817926126,-0.055007,-40.752736
11.185,2.0,1.0,1.0,33.0,33.1,33.1,3.0,2.9,2.54,0.8503782941092083,-0.0071840255822242915,0.5139603408196548,0.0059017456998783704,-0.055515,-40.632811
11.185,2.0,1.0,1.0,33.0,33.1,33.1,3.0,2.9,2.5425,0.84698636239407,-0.007329030082778567,0.5194179313873668,0.005928958672942349,-0.056033,-40.512583
11.185,2.0,1.0,1.0,33.0,33.1,33.1,3.0,2.9,2.545,0.8435443940817737,-0.007476635601338403,0.5248753469124169,0.005955518798913116,-0.056559,-40.392045
11.185,2.0,1.0,1.0,33.0,33.1,33.1,3.0,2.9,2.5475,0.8400518855224187,-0.00762689465380716,0.5303323717509825,0.005981396041312003,-0.057094,-40.271188
11.185,2.0,1.0,1.0,33.0,33.1,33.1,3.0,2.9,2.55,0.8365083247463784,-0.0077798610895468984,0.535788783436583,0.006006559219772927,-0.057639,-40.150004
11.185,2.0,1.0,1.0,33.0,33.1,33.1,3.0,2.9,2.5525,0.8329131913201482,-0.007935590131590384,0.5412443524510088,0.006030975962337213,-0.058193,-40.028485
11.185,2.0,1.0,1.0,33.0,33.1,33.1,3.0,2.9,2.555,0.8292659561997862,-0.008094138418246704,0.5466988419874212,0.0060546126555497725,-0.058758,-39.906621
11.185,2.0,1.0,1.0,33.0,33.1,33.1,3.0,2.9,2.5575,0.8255660815819269,-0.008255564046155081,0.5521520077053215,0.006077434392244386,-0.059332,-39.784405
11.185,2.0,1.0,1.0,33.0,33.1,33.1,3.0,2.9,2.56,0.8218130207523402,-0.008419926614844779,0.5576035974770743,0.006099404916897612,-0.059917,-39.661827
11.185,2.0,1.0,1.0,33.0,33.1,33.1,3.0,2.9,2.5625,0.8180062179320116,-0.008587287272860688,0.5630533511256807,0.006120486568425822,-0.060512,-39.53888
11.185,2.0,1.0,1.0,33.0,33.1,33.1,3.0,2.9,2.565,0.8141451081207067,-0.008757708765518114,0.5685010001534548,0.006140640220290877,-0.061118,-39.415553
11.185,2.0,1.0,1.0,33.0,33.1,33.1,3.0,2.9,2.5675,0.810229116938013,-0.008931255484351407,0.573946267461263,0.006159825217773188,-0.061735,-39.291838
11.185,2.0,1.0,1.0,33.0,33.1,33.1,3.0,2.9,2.57,0.8062576604618182,-0.009107993518326155,0.5793888670579579,0.006177999312262189,-0.062364,-39.167726
11.185,2.0,1.0,1.0,33.0,33.1,33.1,3.0,2.9,2.5725,0.8022301450642084,-0.009287990706885399,0.5848285037596342,0.006195118592405034,-0.063004,-39.043207
11.185,2.0,1.0,1.0,33.0,33.1,33.1,3.0,2.9,2.575,0.7981459672447645,-0.009471316694905777,0.590264872878309,0.006211137411945452,-0.063656,-38.918273
11.185,2.0,1.0,1.0,33.0,33.1,33.1,3.0,2.9,2.5775,0.7940045134612331,-0.009658042989641012,0.5956976598996073,0.0062260083140741,-0.06432,-38.792913
11.185,2.0,1.0,1.0,33.0,33.1,33.1,3.0,2.9,2.58,0.7898051599575553,-0.009848243019735572,0.6011265401490292,0.006239681952100801,-0.064997,-38.667118
11.185,2.0,1.0,1.0,33.0,33.1,33.1,3.0,2.9,2.5825,0.7855472725892275,-0.010041992196393146,0.6065511784463454,0.006252107006248458,-0.065687,-38.540878
11.185,2.0,1.0,1.0,33.0,33.1,33.1,3.0,2.9,2.585,0.7812302066459865,-0.01023936797679018,0.6119712287476449,0.006263230096354593,-0.06639,-38.414183
11.185,2.0,1.0,1.0,33.0,33.1,33.1,3.0,2.9,2.5875,0.7768533066717926,-0.010440449929828139,0.6173863337745527,0.006272995690254826,-0.067106,-38.287023
11.185,2.0,1.0,1.0,33.0,33.1,33.1,3.0,2.9,2.59,0.7724159062821053,-0.010645319804322005,0.6227961246300864,0.006281346007607117,-0.067837,-38.159388
11.185,2.0,1.0,1.0,33.0,33.1,33.1,3.0,2.9,2.5925,0.7679173279784303,-0.010854061599728274,0.6282002204006291,0.006288220918901984,-0.068582,-38.031267
11.185,2.0,1.0,1.0,33.0,33.1,33.1,3.0,2.9,2.595,0.7633568829601405,-0.011066761639519208,0.633598227743435,0.006293557839386326,-0.069341,-37.90265
11.185,2.0,1.0,1.0,33.0,33.1,33.1,3.0,2.9,2.5975,0.758733870933545,-0.01128350864731596,0.6389897404590908,0.006297291617611966,-0.070115,-37.773526
11.185,2.0,1.0,1.0,33.0,33.1,33.1,3.0,2.9,2.6,0.7540475799182139,-0.011504393825898332,0.6443743390483103,0.006299354418302132,-0.070905,-37.643884
11.185,2.0,1.0,1.0,33.0,33.1,33.1,3.0,2.9,2.6025,0.7492972860505485,-0.011729510939213966,0.6497515902523973,0.0062996755992074825,-0.071711,-37.513713
11.185,2.0,1.0,1.0,33.0,33.1,33.1,3.0,2.9,2.605,0.7444822533845983,-0.011958956397515602,0.6551210465767205,0.00629818158160418,-0.072533,-37.383001
11.185,2.0,1.0,1.0,33.0,33.1,33.1,3.0,2.9,2.6075,0.7396017336901205,-0.012192829345762629,0.660482245796459,0.006294795714061841,-0.073371,-37.251738
11.185,2.0,1.0,1.0,33.0,33.1,33.1,3.0,2.9,2.61,0.7346549662478989,-0.012431231755426155,0.6658347104438856,0.00628943812908611,-0.074227,-37.119911
11.185,2.0,1.0,1.0,33.0,33.1,33.1,3.0,2.9,2.6125,0.7296411776423155,-0.012674268519847277,0.6711779472763901,0.006282025592213578,-0.075101,-36.987509
11.185,2.0,1.0,1.0,33.0,33.1,33.1,3.0,2.9,2.615,0.7245595815511932,-0.012922047553302816,0.6765114467244181,0.006272471343108426,-0.075992,-36.854519
11.185,2.0,1.0,1.0,33.0,33.1,33.1,3.0,2.9,2.6175,0.7194093785329249,-0.013174679893940663,0.6818346823184538,0.006260684928180685,-0.076903,-36.720929
11.185,2.0,1.0,1.0,33.0,33.1,33.1,3.0,2.9,2.62,0.7141897558109069,-0.013432279810754358,0.6871471100941253,0.0062465720242121095,-0.077832,-36.586727
11.185,2.0,1.0,1.0,33.0,33.1,33.1,3.0,2.9,2.6225,0.7088998870552937,-0.013694964914775738,0.6924481679744804,0.006230034252441645,-0.078781,-36.4519
11.185,2.0,1.0,1.0,33.0,33.1,33.1,3.0,2.9,2.625,0.703538932162116,-0.0139628562746706,0.697737275128401,0.00621096898252421,-0.079751,-36.316434
11.185,2.0,1.0,1.0,33.0,33.1,33.1,3.0,2.9,2.6275,0.6981060370297758,-0.01423607853693326,0.7030138313041027,0.006189269125735148,-0.080741,-36.180316
11.185,2.0,1.0,1.0,33.0,33.1,33.1,3.0,2.9,2.63,0.6926003333329703,-0.014514760050884219,0.7082772161365821,0.006164822916750151,-0.081753,-36.043534
11.185,2.0,1.0,1.0,33.0,33.1,33.1,3.0,2.9,2.6325,0.6870209382940818,-0.01479903299868361,0.7135267884278296,0.00613751368328145,-0.082786,-35.906072
11.185,2.0,1.0,1.0,33.0,33.1,33.1,3.0,2.9,2.635,0.6813669544520798,-0.015089033530585463,0.7187618853985442,0.006107219602801345,-0.083843,-35.767917
11.185,2.0,1.0,1.0,33.0,33.1,33.1,3.0,2.9,2.6375,0.6756374694290057,-0.015384901905665885,0.7239818219100306,0.006073813445527707,-0.084923,-35.629055
11.185,2.0,1.0,1.0,33.0,33.1,33.1,3.0,2.9,2.64,0.6698315556940768,-0.015686782638270072,0.7291858896548825,0.006037162302787455,-0.086027,-35.48947
11.185,2.0,1.0,1.0,33.0,33.1,33.1,3.0,2.9,2.6425,0.6639482703255055,-0.01599482465043467,0.7343733563149578,0.0059971272998083774,-0.087156,-35.349148
11.185,2.0,1.0,1.0,33.0,33.1,33.1,3.0,2.9,2.645,0.6579866547700954,-0.01630918143055321,0.7395434646850907,0.005953563291920764,-0.088311,-35.208073
11.185,2.0,1.0,1.0,33.0,33.1,33.1,3.0,2.9,2.6475,0.6519457346007099,-0.01663001119856327,0.7446954317608714,0.005906318543074399,-0.089492,-35.06623
11.185,2.0,1.0,1.0,33.0,33.1,33.1,3.0,2.9,2.65,0.6458245192716981,-0.016957477077950082,0.7498284477887442,0.005855234385493849,-0.0907,-34.923603
11.185,2.0,1.0,1.0,33.0,33.1,33.1,3.0,2.9,2.6525,0.6396220018724027,-0.017291747274868614,0.7549416752765421,0.005800144859207559,-0.091937,-34.780174
11.185,2.0,1.0,1.0,33.0,33.1,33.1,3.0,2.9,2.655,0.6333371588788468,-0.017632995264705874,0.7600342479624943,0.005740876330088417,-0.093202,-34.635929
11.185,2.0,1.0,1.0,33.0,33.1,33.1,3.0,2.9,2.6575,0.6269689499037419,-0.017981399986412887,0.76510526974059,0.005677247084940284,-0.094498,-34.490848
11.185,2.0,1.0,1.0,33.0,33.1,33.1,3.0,2.9,2.66,0.6205163174449522,-0.0183371460449542,0.77015381354007,0.005609066902050025,-0.095824,-34.344915
11.185,2.0,1.0,1.0,33.0,33.1,33.1,3.0,2.9,2.6625,0.613978186632581,-0.018700423922233807,0.7751789201566548,0.0055361365955022696,-0.097182,-34.198113
11.185,2.0,1.0,1.0,33.0,33.1,33.1,3.0,2.9,2.665,0.6073534649748308,-0.019071430196873358,0.7801795970329891,0.005458247531418628,-0.098573,-34.050421
11.185,2.0,1.0,1.0,33.0,33.1,33.1,3.0,2.9,2.6675,0.600641042102852,-0.019450367773230164,0.7851548169855862,0.005375181114138314,-0.099998,-33.901822
11.185,2.0,1.0,1.0,33.0,33.1,33.1,3.0,2.9,2.67,0.5938397895147661,-0.019837446120060345,0.7901035168753959,0.005286708240195895,-0.101458,-33.752297
11.185,2.0,1.0,1.0,33.0,33.1,33.1,3.0,2.9,2.6725,0.5869485603190949,-0.020232881519243316,0.7950245962189216,0.005192588717780051,-0.102954,-33.601825
11.185,2.0,1.0,1.0,33.0,33.1,33.1,3.0,2.9,2.675,0.5799661889778543,-0.020636897325001114,0.7999169157365881,0.005092570649166104,-0.104488,-33.450386
11.185,2.0,1.0,1.0,33.0,33.1,33.1,3.0,2.9,2.6775,0.5728914910495735,-0.02104972423405665,0.8047792958348418,0.004986389773409446,-0.106061,-33.297959
11.185,2.0,1.0,1.0,33.0,33.1,33.1,3.0,2.9,2.68,0.565723262932551,-0.02147160056719078,0.8096105150182212,0.004873768766359429,-0.107674,-33.144524
11.185,2.0,1.0,1.0,33.0,33.1,33.1,3.0,2.9,2.6825,0.5584602816086757,-0.021902772562667632,0.8144093082273436,0.004754416494807461,-0.109328,-32.990058
11.185,2.0,1.0,1.0,33.0,33.1,33.1,3.0,2.9,2.685,0.5511013043881754,-0.02234349468201053,0.8191743650984794,0.004628027221310645,-0.111026,-32.834538
11.185,2.0,1.0,1.0,33.0,33.1,33.1,3.0,2.9,2.6875,0.5436450686556996,-0.022794029928617048,0.8239043281400561,0.004494279755937526,-0.112769,-32.677942
11.185,2.0,1.0,1.0,33.0,33.1,33.1,3.0,2.9,2.69,0.5360902916181867,-0.02325465017971115,0.8285977908210733,0.004352836550855242,-0.114557,-32.520246
11.185,2.0,1.0,1.0,33.0,33.1,33.1,3.0,2.9,2.6925,0.5284356700549918,-0.023725636532134213,0.8332532955660488,0.004203342733322646,-0.116394,-32.361425
11.185,2.0,1.0,1.0,33.0,33.1,33.1,3.0,2.9,2.695,0.5206798800708496,-0.024207279662474712,0.837869331650667,0.0040454250722604486,-0.11828,-32.201454
11.185,2.0,1.0,1.0,33.0,33.1,33.1,3.0,2.9,2.6975,0.5128215768522469,-0.02469988020203669,0.842444332991877,0.003878690873140028,-0.120218,-32.040308
11.185,2.0,1.0,1.0,33.0,33.1,33.1,3.0,2.9,2.7,0.5048593944279088,-0.025203749127136223,0.8469766758256501,0.003702726795457153,-0.122209,-31.87796
11.185,2.0,1.0,1.0,33.0,33.1,33.1,3.0,2.9,2.7025,0.4967919454341287,-0.025719208165201356,0.8514646762650845,0.0035170975865364187,-0.124256,-31.714383
11.185,2.0,1.0,1.0,33.0,33.1,33.1,3.0,2.9,2.705,0.4886178208858011,-0.026246590217127136,0.8559065877309203,0.003321344724836888,-0.126361,-31.549548
11.185,2.0,1.0,1.0,33.0,33.1,33.1,3.0,2.9,2.7075,0.4803355899540836,-0.02678623979630976,0.8603005982458722,0.0031149849652929505,-0.128526,-31.383427
11.185,2.0,1.0,1.0,33.0,33.1,33.1,3.0,2.9,2.71,0.47194379975175726,-0.02733851348473589,0.8646448275834522,0.002897508778527134,-0.130753,-31.215989
11.185,2.0,1.0,1.0,33.0,33.1,33.1,3.0,2.9,2.7125,0.46344097512746374,-0.027903780406453804,0.8689373242611453,0.002668378674993712,-0.133046,-31.047205
11.185,2.0,1.0,1.0,33.0,33.1,33.1,3.0,2.9,2.715,0.4548256184701644,-0.02848242271867755,0.8731760623669167,0.002427027404257354,-0.135405,-30.877041
11.185,2.0,1.0,1.0,33.0,33.1,33.1,3.0,2.9,2.7175,0.4460962095253268,-0.029074836120687356,0.8773589382070387,0.0021728560186607404,-0.137836,-30.705466
11.185,2.0,1.0,1.0,33.0,33.1,33.1,3.0,2.9,2.72,0.43725120522456845,-0.029681430380576784,0.8814837667621358,0.0019052317895837758,-0.140339,-30.532446
11.185,2.0,1.0,1.0,33.0,33.1,33.1,3.0,2.9,2.7225,0.42828903953067715,-0.030302629879758698,0.8855482779371575,0.001623485963328823,-0.142919,-30.357946
11.185,2.0,1.0,1.0,33.0,33.1,33.1,3.0,2.9,2.725,0.4192081233002518,-0.0309388741749692,0.8895501125896272,0.0013269113423698727,-0.145579,-30.181929
11.185,2.0,1.0,1.0,33.0,33.1,33.1,3.0,2.9,2.7275,0.41000684416645644,-0.03159061857730389,0.8934868183190573,0.0010147596762602232,-0.148322,-30.004359
11.185,2.0,1.0,1.0,33.0,33.1,33.1,3.0,2.9,2.73,0.40068356644480146,-0.03225833474756177,0.897355844998757,0.000686238844889257,-0.151151,-29.825196
11.185,2.0,1.0,1.0,33.0,33.1,33.1,3.0,2.9,2.7325,0.39123663106522893,-0.03294251130686976,0.901154540029437,0.00034050981498662074,-0.154072,-29.644402
11.185,2.0,1.0,1.0,33.0,33.1,33.1,3.0,2.9,2.735,0.3816643555343219,-0.03364365446118475,0.9048801432919579,-2.3316651221586085e-05,-0.157087,-29.461935
11.185,2.0,1.0,1.0,33.0,33.1,33.1,3.0,2.9,2.7375,0.37196503393198066,-0.034362288637828434,0.9085297817743127,-0.0004061835585328456,-0.160201,-29.277752
11.185,2.0,1.0,1.0,33.0,33.1,33.1,3.0,2.9,2.74,0.36213693694761895,-0.035098957131665505,0.9121004638453607,-0.0008090915382838673,-0.16342,-29.091809
11.185,2.0,1.0,1.0,33.0,33.1,33.1,3.0,2.9,2.7425,0.35217831196167904,-0.03585422275789817,0.915589073145017,-0.0012331030334747821,-0.166747,-28.90406
11.185,2.0,1.0,1.0,33.0,33.1,33.1,3.0,2.9,2.745,0.3420873831792078,-0.03662866850767231,0.9189923620573841,-0.0016793468412427826,-0.170188,-28.714458
11.185,2.0,1.0,1.0,33.0,33.1,33.1,3.0,2.9,2.7475,0.3318623518233012,-0.037422898201765094,0.9223069447297574,-0.0021490230479356397,-0.173748,-28.522954
11.185,2.0,1.0,1.0,33.0,33.1,33.1,3.0,2.9,2.75,0.321501396397496,-0.0382375371365214,0.925529289596426,-0.00264340839598154,-0.177434,-28.329496
11.185,2.0,1.0,1.0,33.0,33.1,33.1,3.0,2.9,2.7525,0.3110026730276747,-0.03907323271487457,0.9286557113616744,-0.0031638621261852657,-0.181252,-28.134031
11.185,2.0,1.0,1.0,33.0,33.1,33.1,3.0,2.9,2.755,0.30036431589583024,-0.03993065505371084,0.9316823623913144,-0.003711832344076008,-0.185208,-27.936505
11.185,2.0,1.0,1.0,33.0,33.1,33.1,3.0,2.9,2.7575,0.28958443778007836,-0.040810497556940495,0.9346052234563814,-0.004288862964565291,-0.18931,-27.73686
11.185,2.0,1.0,1.0,33.0,33.1,33.1,3.0,2.9,2.76,0.2786611307178286,-0.04171347744137533,0.937420093766148,-0.004896601295527197,-0.193566,-27.535037
11.185,2.0,1.0,1.0,33.0,33.1,33.1,3.0,2.9,2.7625,0.2675924668118777,-0.042640336199805916,0.9401225802203413,-0.0055368063281021505,-0.197983,-27.330973
11.185,2.0,1.0,1.0,33.0,33.1,33.1,3.0,2.9,2.765,0.256376499202713,-0.04359183998243198,0.9427080858021973,-0.0062113578096496995,-0.202571,-27.124604
11.185,2.0,1.0,1.0,33.0,33.1,33.1,3.0,2.9,2.7675,0.2450112632343998,-0.04456877987392017,0.9451717970246476,-0.006922266184493698,-0.207339,-26.915863
11.185,2.0,1.0,1.0,33.0,33.1,33.1,3.0,2.9,2.77,0.23349477784633704,-0.04557197203871366,0.9475086703313427,-0.007671683498046066,-0.212296,-26.70468
11.185,2.0,1.0,1.0,33.0,33.1,33.1,3.0,2.9,2.7725,0.22182504722902444,-0.04660225770164751,0.9497134173421913,-0.00846191537176679,-0.217455,-26.490982
11.185,2.0,1.0,1.0,33.0,33.1,33.1,3.0,2.9,2.775,0.21000006278897343,-0.04766050292422503,0.9517804888194128,-0.009295434169910712,-0.222827,-26.274693
11.185,2.0,1.0,1.0,33.0,33.1,33.1,3.0,2.9,2.7775,0.19801780547625197,-0.048747598128873755,0.9537040572145504,-0.010174893494375132,-0.228425,-26.055734
11.185,2.0,1.0,1.0,33.0,33.1,33.1,3.0,2.9,2.78,0.1858762485381746,-0.049864457313821185,0.955477997639129,-0.011103144161475238,-0.234262,-25.834021
11.185,2.0,1.0,1.0,33.0,33.1,33.1,3.0,2.9,2.7825,0.1735733607747239,-0.05101201688956541,0.9570958670814196,-0.012083251834453487,-0.240353,-25.609468
11.185,2.0,1.0,1.0,33.0,33.1,33.1,3.0,2.9,2.785,0.161107110385706,-0.05219123405386161,0.9585508816686366,-0.013118516508361296,-0.246715,-25.381984
11.185,2.0,1.0,1.0,33.0,33.1,33.1,3.0,2.9,2.7875,0.14847546951718268,-0.053403084605135286,0.9598358917474565,-0.014212494070050059,-0.253364,-25.151474
11.185,2.0,1.0,1.0,33.0,33.1,33.1,3.0,2.9,2.79,0.13567641963572344,-0.05464856007367547,0.9609433545254823,-0.015369020185894765,-0.26032,-24.917839
11.185,2.0,1.0,1.0,33.0,33.1,33.1,3.0,2.9,2.7925,0.12270795788460581,-0.05592866402501427,0.9618653039815931,-0.016592236804103575,-0.267603,-24.680975
11.185,2.0,1.0,1.0,33.0,33.1,33.1,3.0,2.9,2.795,0.10956810460692928,-0.05724440735962629,0.9625933177133679,-0.01788662159772732,-0.275236,-24.440773
11.185,2.0,1.0,1.0,33.0,33.1,33.1,3.0,2.9,2.7975,0.09625491225829526,-0.05859680239622092,0.9631184803441483,-0.019257020719516394,-0.283243,-24.197118
11.185,2.0,1.0,1.0,33.0,33.1,33.1,3.0,2.9,2.8,0.08276647597733726,-0.05998685548099526,0.963431343059928,-0.02070868529148886,-0.291651,-23.94989
11.185,2.0,1.0,1.0,33.0,33.1,33.1,3.0,2.9,2.8025,0.06910094613829662,-0.061415557810327356,0.9635218787861188,-0.022247312111445327,-0.300488,-23.698963
11.185,2.0,1.0,1.0,33.0,33.1,33.1,3.0,2.9,2.805,0.055256543278099424,-0.06288387408722043,0.9633794324451718,-0.02387908912686575,-0.309789,-23.444205
11.185,2.0,1.0,1.0,33.0,33.1,33.1,3.0,2.9,2.8075,0.041231575874081446,-0.06439272854938739,0.9629926656567067,-0.02561074630492724,-0.319586,-23.185477
11.185,2.0,1.0,1.0,33.0,33.1,33.1,3.0,2.9,2.81,0.027024461551376423,-0.06594298780551787,0.9623494951508085,-0.02744961261724638,-0.32992,-22.92263
11.185,2.0,1.0,1.0,33.0,33.1,33.1,3.0,2.9,2.8125,0.012633752425721737,-0.06753543979134544,0.9614370240607795,-0.02940367996095606,-0.340833,-22.655513
11.185,2.0,1.0,1.0,33.0,33.1,33.1,3.0,2.9,2.815,-0.0019418345561342646,-0.06917076800279884,0.9602414651422542,-0.03148167495563619,-0.352373,-22.38396
11.185,2.0,1.0,1.0,33.0,33.1,33.1,3.0,2.9,2.8175,-0.016703381222475208,-0.07084951997233571,0.9587480548292113,-0.03369313969021742,-0.364592,-22.107803
11.185,2.0,1.0,1.0,33.0,33.1,33.1,3.0,2.9,2.82,-0.03165172443269222,-0.07257206871718379,0.9569409568823037,-0.036048522647149125,-0.377548,-21.826858
11.185,2.0,1.0,1.0,33.0,33.1,33.1,3.0,2.9,2.8225,-0.04678740338769702,-0.07433856559266705,0.9548031542092312,-0.03855928120456907,-0.391307,-21.540937
11.185,2.0,1.0,1.0,33.0,33.1,33.1,3.0,2.9,2.825,-0.06211059602549875,-0.0761488826149215,0.9523163272392136,-0.04123799731237064,-0.405941,-21.249836
11.185,2.0,1.0,1.0,33.0,33.1,33.1,3.0,2.9,2.8275,-0.0776210420655292,-0.07800254185565343,0.9494607170132233,-0.0440985081556582,-0.42153,-20.953345
