1,w,sub_t,h,l1,l2,l3,g1,g2,Freq,S11_re,S21_re,S11_img,S21_img,S11_dB,S21_dB
11.185,2.0,1.0,1.0,33.0,34.5,34.5,2.0,2.0,2.5,0.894078101985733,-0.0111517735100051,0.43136193404951,0.0139146713688119,-0.063659,-34.976
11.185,2.0,1.0,1.0,33.0,34.5,34.5,2.0,2.0,2.5025,0.8912156846598167,-0.011433094798327527,0.4370505550080441,0.014057119650729916,-0.06441,-34.837049
11.185,2.0,1.0,1.0,33.0,34.5,34.5,2.0,2.0,2.505,0.8883025298338384,-0.011721323151293603,0.44274496449970646,0.014200692397822769,-0.065177,-34.697374
11.185,2.0,1.0,1.0,33.0,34.5,34.5,2.0,2.0,2.5075,0.8853380062618259,-0.012016666487323859,0.4484450586739145,0.014345387132722778,-0.065962,-34.556958
11.185,2.0,1.0,1.0,33.0,34.5,34.5,2.0,2.0,2.51,0.882321467161208,-0.01231934075864014,0.45415072917305144,0.014491200269122467,-0.066766,-34.415782
11.185,2.0,1.0,1.0,33.0,34.5,34.5,2.0,2.0,2.5125,0.879252249677585,-0.012629570331104878,0.45986186291387016,0.014638127016122139,-0.067589,-34.27383
11.185,2.0,1.0,1.0,33.0,34.5,34.5,2.0,2.0,2.515,0.8761296743243953,-0.012947588385331294,0.46557834185696445,0.014786161274886892,-0.068432,-34.131083
11.185,2.0,1.0,1.0,33.0,34.5,34.5,2.0,2.0,2.5175,0.8729530443959845,-0.013273637340441492,0.4713000427634745,0.014935295526959252,-0.069295,-33.987524
11.185,2.0,1.0,1.0,33.0,34.5,34.5,2.0,2.0,2.52,0.8697216453524687,-0.013607969301955767,0.4770268369381694,0.015085520713514664,-0.07018,-33.843132
11.185,2.0,1.0,1.0,33.0,34.5,34.5,2.0,2.0,2.5225,0.8664347441746844,-0.013950846535399684,0.4827585899579258,0.015236826104778367,-0.071086,-33.697888
11.185,2.0,1.0,1.0,33.0,34.5,34.5,2.0,2.0,2.525,0.8630915886873705,-0.014302541967340529,0.4884951613845889,0.015389199158751149,-0.072015,-33.551774
11.185,2.0,1.0,1.0,33.0,34.5,34.5,2.0,2.0,2.5275,0.8596914068486151,-0.014663339715690508,0.4942364044610881,0.015542625368310097,-0.072968,-33.404767
11.185,2.0,1.0,1.0,33.0,34.5,34.5,2.0,2.0,2.53,0.8562334060034424,-0.015033535651253873,0.4999821657895789,0.015697088095660814,-0.073944,-33.256848
11.185,2.0,1.0,1.0,33.0,34.5,34.5,2.0,2.0,2.5325,0.8527167720992604,-0.015413437992648072,0.5057322849902927,0.01585256839302013,-0.074946,-33.107995
11.185,2.0,1.0,1.0,33.0,34.5,34.5,2.0,2.0,2.535,0.8491406688607164,-0.015803367936893097,0.5114865943396492,0.016009044808299438,-0.075974,-32.958186
11.185,2.0,1.0,1.0,33.0,34.5,34.5,2.0,2.0,2.5375,0.8455042369213315,-0.016203660328141557,0.5172449183860502,0.016166493174438176,-0.077029,-32.807399
11.185,2.0,1.0,1.0,33.0,34.5,34.5,2.0,2.0,2.54,0.8418065929090671,-0.016614664367217733,0.5230070735416452,0.01632488638090467,-0.078112,-32.65561
11.185,2.0,1.0,1.0,33.0,34.5,34.5,2.0,2.0,2.5425,0.8380468284827739,-0.017036744364844078,0.5287728676481926,0.016484194125733768,-0.079225,-32.502797
11.185,2.0,1.0,1.0,33.0,34.5,34.5,2.0,2.0,2.545,0.8342240093162214,-0.01747028054166507,0.5345420995149665,0.016644382646306986,-0.080367,-32.348934
11.185,2.0,1.0,1.0,33.0,34.5,34.5,2.0,2.0,2.5475,0.8303371740261664,-0.017915669878427583,0.5403145584264601,0.016805414426899666,-0.081541,-32.193996
11.185,2.0,1.0,1.0,33.0,34.5,34.5,2.0,2.0,2.55,0.8263853330406035,-0.018373327019952864,0.5460900236174505,0.016967247880818336,-0.082748,-32.037958
11.185,2.0,1.0,1.0,33.0,34.5,34.5,2.0,2.0,2.5525,0.8223674674030781,-0.01884368523682988,0.5518682637126991,0.01712983700472602,-0.083988,-31.880794
11.185,2.0,1.0,1.0,33.0,34.5,34.5,2.0,2.0,2.555,0.8182825275085647,-0.019327197449087622,0.5576490361283657,0.017293131002505548,-0.085264,-31.722477
11.185,2.0,1.0,1.0,33.0,34.5,34.5,2.0,2.0,2.5575,0.8141294317660704,-0.019824337316460407,0.5634320864318692,0.017457073875730877,-0.086576,-31.562978
11.185,2.0,1.0,1.0,33.0,34.5,34.5,2.0,2.0,2.56,0.8099070651827199,-0.02033560040024365,0.5692171476566239,0.017621603977507033,-0.087927,-31.402269
11.185,2.0,1.0,1.0,33.0,34.5,34.5,2.0,2.0,2.5625,0.805614277863644,-0.0208615054021679,0.575003939567722,0.0177866535260931,-0.089318,-31.24032
11.185,2.0,1.0,1.0,33.0,34.5,34.5,2.0,2.0,2.565,0.8012498834215006,-0.021402595486180787,0.5807921678742214,0.01795214807433502,-0.09075,-31.077102
11.185,2.0,1.0,1.0,33.0,34.5,34.5,2.0,2.0,2.5675,0.7968126572889624,-0.021959439689535572,0.5865815233832462,0.01811800593050191,-0.092225,-30.912582
11.185,2.0,1.0,1.0,33.0,34.5,34.5,2.0,2.0,2.57,0.7923013349269037,-0.022532634430143316,0.592371681090611,0.018284137525634535,-0.093745,-30.746728
11.185,2.0,1.0,1.0,33.0,34.5,34.5,2.0,2.0,2.5725,0.7877146099204112,-0.02312280511775827,0.5981622992021174,0.01845044472197025,-0.095313,-30.579507
11.185,2.0,1.0,1.0,33.0,34.5,34.5,2.0,2.0,2.575,0.7830511319540473,-0.023730607877236565,0.6039530180790265,0.018616820056397938,-0.09693,-30.410886
11.185,2.0,1.0,1.0,33.0,34.5,34.5,2.0,2.0,2.5775,0.7783095046570437,-0.02435673139284413,0.6097434591005207,0.01878314591221013,-0.098598,-30.240827
11.185,2.0,1.0,1.0,33.0,34.5,34.5,2.0,2.0,2.58,0.7734882833082695,-0.025001898883403418,0.6155332234351557,0.018949293611646902,-0.10032,-30.069296
11.185,2.0,1.0,1.0,33.0,34.5,34.5,2.0,2.0,2.5825,0.7685859723899079,-0.025666870218957236,0.6213218907124313,0.019115122420855914,-0.102098,-29.896253
11.185,2.0,1.0,1.0,33.0,34.5,34.5,2.0,2.0,2.585,0.7636010229777783,-0.02635244419060749,0.6271090175845726,0.019280478457911154,-0.103935,-29.721661
11.185,2.0,1.0,1.0,33.0,34.5,34.5,2.0,2.0,2.5875,0.758531829955126,-0.027059460946270316,0.6328941361675178,0.0194451934934251,-0.105833,-29.545479
11.185,2.0,1.0,1.0,33.0,34.5,34.5,2.0,2.0,2.59,0.7533767290355031,-0.02778880460627321,0.6386767523487755,0.019609083632034313,-0.107796,-29.367666
11.185,2.0,1.0,1.0,33.0,34.5,34.5,2.0,2.0,2.5925,0.7481339935790019,-0.028541406074037795,0.6444563439484212,0.019771947861619815,-0.109827,-29.188177
11.185,2.0,1.0,1.0,33.0,34.5,34.5,2.0,2.0,2.595,0.7428018311846606,-0.029318246058532373,0.6502323587178072,0.019933566455514036,-0.111929,-29.00697
11.185,2.0,1.0,1.0,33.0,34.5,34.5,2.0,2.0,2.5975,0.7373783800401879,-0.0301203583267825,0.6560042121587462,0.020093699211118258,-0.114105,-28.823997
11.185,2.0,1.0,1.0,33.0,34.5,34.5,2.0,2.0,2.6,0.731861705008388,-0.03094883320648859,0.6617712851437834,0.020252083506278034,-0.11636,-28.639212
11.185,2.0,1.0,1.0,33.0,34.5,34.5,2.0,2.0,2.6025,0.726249793427673,-0.031804821360749524,0.6675329213157754,0.02040843215239729,-0.118698,-28.452564
11.185,2.0,1.0,1.0,33.0,34.5,34.5,2.0,2.0,2.605,0.7205405506018336,-0.03268953785905163,0.6732884242422689,0.020562431020575728,-0.121122,-28.264002
11.185,2.0,1.0,1.0,33.0,34.5,34.5,2.0,2.0,2.6075,0.714731794951841,-0.03360426657106319,0.6790370542970358,0.020713736413973744,-0.123637,-28.073474
11.185,2.0,1.0,1.0,33.0,34.5,34.5,2.0,2.0,2.61,0.7088212527997346,-0.03455036491241776,0.6847780252375503,0.020861972156086303,-0.126249,-27.880924
11.185,2.0,1.0,1.0,33.0,34.5,34.5,2.0,2.0,2.6125,0.7028065527517001,-0.0355292689745907,0.6905105004431253,0.021006726360572783,-0.128963,-27.686294
11.185,2.0,1.0,1.0,33.0,34.5,34.5,2.0,2.0,2.615,0.6966852196441258,-0.03654249907421103,0.6962335887737326,0.021147547843660828,-0.131783,-27.489527
11.185,2.0,1.0,1.0,33.0,34.5,34.5,2.0,2.0,2.6175,0.6904546680128065,-0.037591665760732584,0.7019463400041518,0.02128394213482174,-0.134718,-27.290559
11.185,2.0,1.0,1.0,33.0,34.5,34.5,2.0,2.0,2.62,0.6841121950413992,-0.03867847632535901,0.7076477397819213,0.021415367035293363,-0.137772,-27.089327
11.185,2.0,1.0,1.0,33.0,34.5,34.5,2.0,2.0,2.6225,0.6776549729407736,-0.039804741858516485,0.7133367040504385,0.021541227666965406,-0.140952,-26.885763
11.185,2.0,1.0,1.0,33.0,34.5,34.5,2.0,2.0,2.625,0.671080040705968,-0.0409723849080291,0.71901207287032,0.0216608709459885,-0.144268,-26.679799
11.185,2.0,1.0,1.0,33.0,34.5,34.5,2.0,2.0,2.6275,0.6643842951919424,-0.04218344779554915,0.7246726035626485,0.021773579406033187,-0.147726,-26.471363
11.185,2.0,1.0,1.0,33.0,34.5,34.5,2.0,2.0,2.63,0.657564481443294,-0.043440101654747,0.7303169630866944,0.021878564285189143,-0.151335,-26.260378
11.185,2.0,1.0,1.0,33.0,34.5,34.5,2.0,2.0,2.6325,0.6506171822063883,-0.04474465626135579,0.7359437195519289,0.02197495777779372,-0.155105,-26.046766
11.185,2.0,1.0,1.0,33.0,34.5,34.5,2.0,2.0,2.635,0.6435388065449591,-0.04609957073243854,0.7415513327492728,0.022061804337703567,-0.159047,-25.830445
11.185,2.0,1.0,1.0,33.0,34.5,34.5,2.0,2.0,2.6375,0.6363255774720921,-0.04750746518025434,0.7471381435691901,0.022138050902295987,-0.163171,-25.61133
11.185,2.0,1.0,1.0,33.0,34.5,34.5,2.0,2.0,2.64,0.6289735185025105,-0.04897113341492198,0.7527023621540373,0.02220253588636793,-0.167489,-25.389332
11.185,2.0,1.0,1.0,33.0,34.5,34.5,2.0,2.0,2.6425,0.6214784390192769,-0.05049355679974048,0.7582420546083719,0.022253976771552983,-0.172014,-25.164357
11.185,2.0,1.0,1.0,33.0,34.5,34.5,2.0,2.0,2.645,0.6138359183382264,-0.052077919373598874,0.7637551280632209,0.022290956089260048,-0.176761,-24.936308
11.185,2.0,1.0,1.0,33.0,34.5,34.5,2.0,2.0,2.6475,0.6060412883417462,-0.053727624366410494,0.7692393138576812,0.02231190556268406,-0.181745,-24.705082
11.185,2.0,1.0,1.0,33.0,34.5,34.5,2.0,2.0,2.65,0.5980896145407959,-0.05544631224595776,0.7746921485628845,0.02231508813521808,-0.186984,-24.470573
11.185,2.0,1.0,1.0,33.0,34.5,34.5,2.0,2.0,2.6525,0.58997567541045,-0.05723788044789731,0.7801109525280341,0.022298577567485107,-0.192495,-24.23267
11.185,2.0,1.0,1.0,33.0,34.5,34.5,2.0,2.0,2.655,0.5816939398296368,-0.05910650495491803,0.7854928055747208,0.022260235231850736,-0.198299,-23.991254
11.185,2.0,1.0,1.0,33.0,34.5,34.5,2.0,2.0,2.6575,0.5732385424405008,-0.061056663905964946,0.7908345194022227,0.0221976836700247,-0.204418,-23.746203
11.185,2.0,1.0,1.0,33.0,34.5,34.5,2.0,2.0,2.66,0.5646032567269486,-0.06309316343186451,0.7961326061911268,0.022108276404205124,-0.210876,-23.497388
11.185,2.0,1.0,1.0,33.0,34.5,34.5,2.0,2.0,2.6625,0.5557814655960023,-0.06522116592916377,0.8013832428028209,0.021989063402723854,-0.217701,-23.244673
11.185,2.0,1.0,1.0,33.0,34.5,34.5,2.0,2.0,2.665,0.5467661292300053,-0.0674462209989874,0.8065822298653098,0.02183675149433175,-0.224922,-22.987916
11.185,2.0,1.0,1.0,33.0,34.5,34.5,2.0,2.0,2.6675,0.5375497499635392,-0.06977429929130734,0.811724944907615,0.021647658897469144,-0.232571,-22.726968
11.185,2.0,1.0,1.0,33.0,34.5,34.5,2.0,2.0,2.67,0.5281243339271532,-0.07221182950598888,0.8168062885514125,0.02141766287762881,-0.240685,-22.46167
11.185,2.0,1.0,1.0,33.0,34.5,34.5,2.0,2.0,2.6725,0.5184813491926593,-0.07476573880848228,0.8218206225838764,0.021142139361747164,-0.249305,-22.191856
11.185,2.0,1.0,1.0,33.0,34.5,34.5,2.0,2.0,2.675,0.508611680154239,-0.07744349691753147,0.8267616985132643,0.020815893116694024,-0.258473,-21.917352
11.185,2.0,1.0,1.0,33.0,34.5,34.5,2.0,2.0,2.6775,0.4985055778894959,-0.08025316411117529,0.8316225749402275,0.020433076831064503,-0.268241,-21.637974
11.185,2.0,1.0,1.0,33.0,34.5,34.5,2.0,2.0,2.68,0.4881526062699571,-0.08320344337057457,0.8363955217528628,0.019987097115346006,-0.278664,-21.353527
11.185,2.0,1.0,1.0,33.0,34.5,34.5,2.0,2.0,2.6825,0.4775415836382817,-0.0863037368318013,0.8410719087594684,0.019470505042494316,-0.289804,-21.063805
11.185,2.0,1.0,1.0,33.0,34.5,34.5,2.0,2.0,2.685,0.46666051994930247,-0.0895642066339072,0.8456420758941411,0.018874868373387515,-0.30173,-20.768592
11.185,2.0,1.0,1.0,33.0,34.5,34.5,2.0,2.0,2.6875,0.455496549397574,-0.0929958401237633,0.850095181547444,0.0181906220302804,-0.314522,-20.46766
11.185,2.0,1.0,1.0,33.0,34.5,34.5,2.0,2.0,2.69,0.4440358587440601,-0.09661051918548094,0.8544190248635297,0.01740689267251887,-0.328267,-20.160765
11.185,2.0,1.0,1.0,33.0,34.5,34.5,2.0,2.0,2.6925,0.4322636118350578,-0.1004210931785029,0.8585998369770572,0.016511292363216905,-0.343066,-19.847652
11.185,2.0,1.0,1.0,33.0,34.5,34.5,2.0,2.0,2.695,0.42016387121387994,-0.10444145455724141,0.8626220351020304,0.015489675257621802,-0.359033,-19.528051
11.185,2.0,1.0,1.0,33.0,34.5,34.5,2.0,2.0,2.6975,0.4077195183104811,-0.10868661565584134,0.8664679320866365,0.01432584994995531,-0.376298,-19.201674
11.185,2.0,1.0,1.0,33.0,34.5,34.5,2.0,2.0,2.7,0.39491217452693284,-0.11317278428359598,0.8701173924603132,0.01300123853310457,-0.395007,-18.86822
11.185,2.0,1.0,1.0,33.0,34.5,34.5,2.0,2.0,2.7025,0.3817221267153592,-0.11791743459136422,0.873547424058691,0.011494471491979125,-0.415332,-18.527367
11.185,2.0,1.0,1.0,33.0,34.5,34.5,2.0,2.0,2.705,0.3681282622074271,-0.12293936799938783,0.8767316919447998,0.009780905193453135,-0.437466,-18.178778
11.185,2.0,1.0,1.0,33.0,34.5,34.5,2.0,2.0,2.7075,0.3541080208928097,-0.12825875662978004,0.8796399384672423,0.007832045870462974,-0.461635,-17.822095
11.185,2.0,1.0,1.0,33.0,34.5,34.5,2.0,2.0,2.71,0.3396373751279507,-0.13389715839297078,0.8822372898170572,0.005614860535358465,-0.488101,-17.456943
11.185,2.0,1.0,1.0,33.0,34.5,34.5,2.0,2.0,2.7125,0.32469085286386823,-0.13987748825860238,0.884483425274862,0.0030909511095557063,-0.517166,-17.082923
11.185,2.0,1.0,1.0,33.0,34.5,34.5,2.0,2.0,2.715,0.3092416258431224,-0.1462239237676097,0.886331580405647,0.00021556315203863173,-0.549186,-16.699622
11.185,2.0,1.0,1.0,33.0,34.5,34.5,2.0,2.0,2.7175,0.2932616937748878,-0.15296171377060758,0.8877273497351795,-0.003063605114061488,-0.584576,-16.306603
11.185,2.0,1.0,1.0,33.0,34.5,34.5,2.0,2.0,2.72,0.2767222080938918,-0.1601168466691147,0.888607248008212,-0.006807834157136152,-0.623828,-15.903415
11.185,2.0,1.0,1.0,33.0,34.5,34.5,2.0,2.0,2.7225,0.25959399669389477,-0.16771551664283618,0.8888969822667758,-0.011089102343888546,-0.667523,-15.489591
11.185,2.0,1.0,1.0,33.0,34.5,34.5,2.0,2.0,2.725,0.24184837590778432,-0.17578330146450794,0.8885093803547426,-0.015992146998970697,-0.716351,-15.06465
11.185,2.0,1.0,1.0,33.0,34.5,34.5,2.0,2.0,2.7275,0.2234583707344247,-0.18434393079097705,0.8873419163802216,-0.02161692625998619,-0.771141,-14.628111
11.185,2.0,1.0,1.0,33.0,34.5,34.5,2.0,2.0,2.73,0.2044005125905841,-0.19341747558518768,0.885273772642249,-0.028081541516026213,-0.832886,-14.179492
11.185,2.0,1.0,1.0,33.0,34.5,34.5,2.0,2.0,2.7325,0.18465745054176735,-0.20301772274280772,0.8821623850287351,-0.03552567247929511,-0.902788,-13.718332
11.185,2.0,1.0,1.0,33.0,34.5,34.5,2.0,2.0,2.735,0.16422170309396342,-0.2131484080496483,0.8778394427159261,-0.044114552805406285,-0.982307,-13.244202
11.185,2.0,1.0,1.0,33.0,34.5,34.5,2.0,2.0,2.7375,0.1431010001460565,-0.2237978584014978,0.8721063663964449,-0.054043460386987055,-1.073226,-12.756735
11.185,2.0,1.0,1.0,33.0,34.5,34.5,2.0,2.0,2.74,0.12132582516987972,-0.2349314343057073,0.8647293942342191,-0.06554259099693367,-1.177733,-12.255662
11.185,2.0,1.0,1.0,33.0,34.5,34.5,2.0,2.0,2.7425,0.09895996899011818,-0.24648096330078098,0.8554345968914734,-0.0788819912813143,-1.298529,-11.740858
11.185,2.0,1.0,1.0,33.0,34.5,34.5,2.0,2.0,2.745,0.07611514047821454,-0.2583301224754636,0.8439034780436653,-0.09437589154559337,-1.438958,-11.212412
11.185,2.0,1.0,1.0,33.0,34.5,34.5,2.0,2.0,2.7475,0.052970911474224225,-0.2702944985896535,0.8297703780630308,-0.11238521730088824,-1.603179,-10.670721
11.185,2.0,1.0,1.0,33.0,34.5,34.5,2.0,2.0,2.75,0.0298014130913011,-0.282094917931234,0.812623801256257,-0.1333161563728,-1.796372,-10.116607
11.185,2.0,1.0,1.0,33.0,34.5,34.5,2.0,2.0,2.7525,0.007010050716538862,-0.2933227927726239,0.7920151692448523,-0.1576112783793454,-2.02499,-9.551484
11.185,2.0,1.0,1.0,33.0,34.5,34.5,2.0,2.0,2.755,-0.014827320723092584,-0.3033970632570803,0.7674804775414381,-0.18572773438437626,-2.297033,-8.977565
11.185,2.0,1.0,1.0,33.0,34.5,34.5,2.0,2.0,2.7575,-0.034912499974492826,-0.3115145003064483,0.7385828481025739,-0.21809455999492613,-2.622323,-8.398121
11.185,2.0,1.0,1.0,33.0,34.5,34.5,2.0,2.0,2.76,-0.05217463244477645,-0.3165997109468905,0.7049864987020779,-0.2550385971595351,-3.012662,-7.817795
11.185,2.0,1.0,1.0,33.0,34.5,34.5,2.0,2.0,2.7625,-0.06523400442365836,-0.3172693799921019,0.6665736021628943,-0.2966676289615524,-3.481641,-7.242936
11.185,2.0,1.0,1.0,33.0,34.5,34.5,2.0,2.0,2.765,-0.07240689016713704,-0.3118376899834907,0.6236114409705882,-0.3427034287696946,-4.043561,-6.681915
11.185,2.0,1.0,1.0,33.0,34.5,34.5,2.0,2.0,2.7675,-0.0717929323310932,-0.29840431566777736,0.576962476506443,-0.3922722425392392,-4.71032,-6.14532
11.185,2.0,1.0,1.0,33.0,34.5,34.5,2.0,2.0,2.77,-0.06149453292005222,-0.2750742606390562,0.5282983404687757,-0.44369181615405234,-5.483967,-5.645884
11.185,2.0,1.0,1.0,33.0,34.5,34.5,2.0,2.0,2.7725,-0.04000110133278693,-0.24034202944722108,0.4802310077415411,-0.49434169534898215,-6.340968,-5.197946
11.185,2.0,1.0,1.0,33.0,34.5,34.5,2.0,2.0,2.775,-0.006707638755410121,-0.19360921123782585,0.43623138004013545,-0.5407462656512878,-7.204635,-4.816295
11.185,2.0,1.0,1.0,33.0,34.5,34.5,2.0,2.0,2.7775,0.03757451833146439,-0.1356931144797032,0.40021659540456106,-0.5789885481284623,-7.915985,-4.514382
11.185,2.0,1.0,1.0,33.0,34.5,34.5,2.0,2.0,2.78,0.09036089019904449,-0.06908074495413208,0.375805325438598,-0.6054546657536392,-8.256647,-4.302195
11.185,2.0,1.0,1.0,33.0,34.5,34.5,2.0,2.0,2.7825,0.14772119909015488,0.002301046923072141,0.3654480121536689,-0.6177016072357502,-8.086222,-4.184365
11.185,2.0,1.0,1.0,33.0,34.5,34.5,2.0,2.0,2.785,0.2050161490062004,0.07382332920251275,0.36979643173591453,-0.6150844037332817,-7.476786,-4.159191
11.185,2.0,1.0,1.0,33.0,34.5,34.5,2.0,2.0,2.7875,0.25787802582871977,0.14113463526112338,0.3876135752488851,-0.5988430322138711,-6.640502,-4.218974
11.185,2.0,1.0,1.0,33.0,34.5,34.5,2.0,2.0,2.79,0.3030263331995133,0.2009740942431459,0.4162423489614235,-0.5716318097806478,-5.766187,-4.351523
11.185,2.0,1.0,1.0,33.0,34.5,34.5,2.0,2.0,2.7925,0.3386366482555393,0.25153754289673524,0.45236850222938835,-0.5367562998356054,-4.957847,-4.542249
11.185,2.0,1.0,1.0,33.0,34.5,34.5,2.0,2.0,2.795,0.3642509830508442,0.29238590433178885,0.4927387069871303,-0.49745633772476433,-4.254245,-4.776179
11.185,2.0,1.0,1.0,33.0,34.5,34.5,2.0,2.0,2.7975,0.3804129248661524,0.32407944246198905,0.5346244293900447,-0.4564437153434995,-3.659892,-5.039449
11.185,2.0,1.0,1.0,33.0,34.5,34.5,2.0,2.0,2.8,0.38824052748033894,0.3477506575512425,0.576002270218637,-0.41572320930580314,-3.164943,-5.320128
11.185,2.0,1.0,1.0,33.0,34.5,34.5,2.0,2.0,2.8025,0.3890731292616273,0.36475159986200856,0.6155309710334889,-0.37661647933818193,-2.755142,-5.60851
11.185,2.0,1.0,1.0,33.0,34.5,34.5,2.0,2.0,2.805,0.38423760914624394,0.3764207745696919,0.6524270980625826,-0.33988682280702914,-2.416183,-5.897026
11.185,2.0,1.0,1.0,33.0,34.5,34.5,2.0,2.0,2.8075,0.3749228011137376,0.3839581624288079,0.6863152712683492,-0.3058890358539752,-2.135355,-6.179974
11.185,2.0,1.0,1.0,33.0,34.5,34.5,2.0,2.0,2.81,0.3621302480470205,0.38837646019967503,0.7170936172852775,-0.2747038334803698,-1.901969,-6.453184
11.185,2.0,1.0,1.0,33.0,34.5,34.5,2.0,2.0,2.8125,0.3466701877844069,0.390497426276908,0.744829071399311,-0.24624230264629057,-1.70728,-6.713686
11.185,2.0,1.0,1.0,33.0,34.5,34.5,2.0,2.0,2.815,0.3291800117347655,0.39097059407432044,0.7696829221229194,-0.22032005560399398,-1.544237,-6.959428
11.185,2.0,1.0,1.0,33.0,34.5,34.5,2.0,2.0,2.8175,0.3101511064447098,0.3903002924186102,0.7918612385822521,-0.19670647385795267,-1.407188,-7.189035
11.185,2.0,1.0,1.0,33.0,34.5,34.5,2.0,2.0,2.82,0.28995645835271583,0.388873378686291,0.8115836715852801,-0.17515556288267603,-1.291615,-7.401626
11.185,2.0,1.0,1.0,33.0,34.5,34.5,2.0,2.0,2.8225,0.26887549483926815,0.38698417699054116,0.8290649244327511,-0.15542412113690862,-1.193906,-7.596669
11.185,2.0,1.0,1.0,33.0,34.5,34.5,2.0,2.0,2.825,0.24711493931496098,0.38485541223980696,0.8445045354502831,-0.13728157479411954,-1.111167,-7.773878
11.185,2.0,1.0,1.0,33.0,34.5,34.5,2.0,2.0,2.8275,0.22482562025552305,0.38265508810714854,0.858081887859361,-0.12051455260751874,-1.041075,-7.933126
11.185,2.0,1.0,1.0,33.0,34.5,34.5,2.0,2.0,2.83,0.20211567926951257,0.380509758379973,0.869954368871106,-0.10492826699712159,-0.98176,-8.074392
11.185,2.0,1.0,1.0,33.0,34.5,34.5,2.0,2.0,2.8325,0.17906078251793406,0.3785147975543756,0.8802573263048085,-0.09034603933770556,-0.931718,-8.197713
