1,w,sub_t,h,l1,l2,l3,g1,g2,Freq,S11_re,S21_re,S11_img,S21_img,S11_dB,S21_dB
11.185,2.0,1.0,1.0,34.5,33.3,33.3,2.5,3.3,2.5,0.698894185113883,-0.0130505685921974,0.703979403167278,0.00600424312711752,-0.069872,-36.853571
11.185,2.0,1.0,1.0,34.5,33.3,33.3,2.5,3.3,2.5025,0.6931021160945248,-0.01327570813359092,0.7095637937886382,0.005966247648756701,-0.070617,-36.739909
11.185,2.0,1.0,1.0,34.5,33.3,33.3,2.5,3.3,2.505,0.6872336392043666,-0.013504160771295348,0.7151290654454601,0.0059254384121672915,-0.071375,-36.625943
11.185,2.0,1.0,1.0,34.5,33.3,33.3,2.5,3.3,2.5075,0.6812880213607689,-0.013735969157072326,0.7206744445589577,0.0058817238463601176,-0.072146,-36.511667
11.185,2.0,1.0,1.0,34.5,33.3,33.3,2.5,3.3,2.51,0.67526452296529,-0.013971176131009417,0.7261991361410158,0.005835009516793208,-0.07293,-36.397075
11.185,2.0,1.0,1.0,34.5,33.3,33.3,2.5,3.3,2.5125,0.6691623980148982,-0.014209824695294013,0.7317023232039435,0.005785198033092676,-0.073729,-36.282164
11.185,2.0,1.0,1.0,34.5,33.3,33.3,2.5,3.3,2.515,0.6629808942247724,-0.014451957985929947,0.7371831661550584,0.005732188953760081,-0.074541,-36.166927
11.185,2.0,1.0,1.0,34.5,33.3,33.3,2.5,3.3,2.5175,0.6567192531633349,-0.014697619242274943,0.742640802175769,0.005675878687772563,-0.075368,-36.051359
11.185,2.0,1.0,1.0,34.5,33.3,33.3,2.5,3.3,2.52,0.650376710400149,-0.014946851774272112,0.7480743445848574,0.005616160392974528,-0.07621,-35.935456
11.185,2.0,1.0,1.0,34.5,33.3,33.3,2.5,3.3,2.5225,0.643952495667393,-0.015199698927239855,0.753482882185621,0.005552923871162704,-0.077067,-35.819212
11.185,2.0,1.0,1.0,34.5,33.3,33.3,2.5,3.3,2.525,0.6374458330356011,-0.015456204044079188,0.7588654785965775,0.0054860554597584345,-0.077939,-35.702622
11.185,2.0,1.0,1.0,34.5,33.3,33.3,2.5,3.3,2.5275,0.6308559411044313,-0.01571641042474804,0.7642211715654088,0.005415437919961657,-0.078827,-35.58568
11.185,2.0,1.0,1.0,34.5,33.3,33.3,2.5,3.3,2.53,0.6241820332092435,-0.01598036128284555,0.7695489722658256,0.005340950321276229,-0.079731,-35.468381
11.185,2.0,1.0,1.0,34.5,33.3,33.3,2.5,3.3,2.5325,0.6174233176443004,-0.016248099699139082,0.7748478645770427,0.005262467922294971,-0.080651,-35.35072
11.185,2.0,1.0,1.0,34.5,33.3,33.3,2.5,3.3,2.535,0.6105789979034446,-0.016519668571859596,0.7801168043455637,0.005179862047627776,-0.081588,-35.232692
11.185,2.0,1.0,1.0,34.5,33.3,33.3,2.5,3.3,2.5375,0.6036482729391536,-0.016795110563579716,0.7853547186289533,0.005092999960855805,-0.082543,-35.11429
11.185,2.0,1.0,1.0,34.5,33.3,33.3,2.5,3.3,2.54,0.5966303374408912,-0.017074468044480262,0.790560504921311,0.0050017447333891235,-0.083515,-34.995509
11.185,2.0,1.0,1.0,34.5,33.3,33.3,2.5,3.3,2.5425,0.5895243821337375,-0.0173577830317998,0.7957330303601471,0.004905955109103541,-0.084505,-34.876345
11.185,2.0,1.0,1.0,34.5,33.3,33.3,2.5,3.3,2.545,0.5823295940983078,-0.01764509712525064,0.8008711309143713,0.004805485364630239,-0.085514,-34.75679
11.185,2.0,1.0,1.0,34.5,33.3,33.3,2.5,3.3,2.5475,0.5750451571130302,-0.01793645143817335,0.8059736105531135,0.004700185165166019,-0.086541,-34.63684
11.185,2.0,1.0,1.0,34.5,33.3,33.3,2.5,3.3,2.55,0.5676702520198679,-0.018231886524189802,0.8110392403951142,0.004589899415671852,-0.087588,-34.516488
11.185,2.0,1.0,1.0,34.5,33.3,33.3,2.5,3.3,2.5525,0.5602040571146725,-0.01853144229910061,0.8160667578384105,0.0044744681073221205,-0.088654,-34.39573
11.185,2.0,1.0,1.0,34.5,33.3,33.3,2.5,3.3,2.555,0.5526457485633417,-0.018835157957761185,0.8210548656700838,0.004353726159065993,-0.089741,-34.274559
11.185,2.0,1.0,1.0,34.5,33.3,33.3,2.5,3.3,2.5575,0.5449945008450496,-0.019143071885654502,0.8260022311558312,0.0042275032541560925,-0.090848,-34.152969
11.185,2.0,1.0,1.0,34.5,33.3,33.3,2.5,3.3,2.56,0.5372494872238637,-0.01945522156486466,0.8309074851091336,0.004095623671501228,-0.091977,-34.030954
11.185,2.0,1.0,1.0,34.5,33.3,33.3,2.5,3.3,2.5625,0.5294098802501047,-0.01977164347413849,0.8357692209398303,0.003957906111691266,-0.093127,-33.908509
11.185,2.0,1.0,1.0,34.5,33.3,33.3,2.5,3.3,2.565,0.5214748522928697,-0.020092372982707354,0.8405859936819126,0.003814163517545139,-0.094299,-33.785627
11.185,2.0,1.0,1.0,34.5,33.3,33.3,2.5,3.3,2.5675,0.5134435761052115,-0.020417444237521096,0.8453563190003675,0.0036642028890247094,-0.095494,-33.662303
11.185,2.0,1.0,1.0,34.5,33.3,33.3,2.5,3.3,2.57,0.5053152254235028,-0.02074689004353055,0.8500786721769443,0.00350782509235818,-0.096713,-33.538529
11.185,2.0,1.0,1.0,34.5,33.3,33.3,2.5,3.3,2.5725,0.4970889756025975,-0.02108074173663262,0.8547514870747207,0.0033448246632120735,-0.097955,-33.414301
11.185,2.0,1.0,1.0,34.5,33.3,33.3,2.5,3.3,2.575,0.488764004288457,-0.021419029048873536,0.8593731550813896,0.003174989603746863,-0.099221,-33.289611
11.185,2.0,1.0,1.0,34.5,33.3,33.3,2.5,3.3,2.5775,0.4803394921299856,-0.02176177996548276,0.863942024031204,0.002998101173393092,-0.100513,-33.164454
11.185,2.0,1.0,1.0,34.5,33.3,33.3,2.5,3.3,2.58,0.47181462353188575,-0.022109020573287667,0.8684563971055572,0.002813933673175748,-0.10183,-33.038822
11.185,2.0,1.0,1.0,34.5,33.3,33.3,2.5,3.3,2.5825,0.4631885874504011,-0.022460774900035146,0.8729145317122204,0.0026222542234178737,-0.103173,-32.91271
11.185,2.0,1.0,1.0,34.5,33.3,33.3,2.5,3.3,2.585,0.45446057823392255,-0.022817064744120735,0.8773146383432804,0.0024228225346488927,-0.104543,-32.786111
11.185,2.0,1.0,1.0,34.5,33.3,33.3,2.5,3.3,2.5875,0.44562979651047185,-0.02317790949419888,0.8816548794118695,0.0022153906715411758,-0.105941,-32.659018
11.185,2.0,1.0,1.0,34.5,33.3,33.3,2.5,3.3,2.59,0.4366954501241903,-0.02354332593811991,0.8859333680678423,0.001999702809697604,-0.107367,-32.531425
11.185,2.0,1.0,1.0,34.5,33.3,33.3,2.5,3.3,2.5925,0.4276567551230097,-0.02391332806061009,0.8901481669925708,0.0017754949851086271,-0.108822,-32.403324
11.185,2.0,1.0,1.0,34.5,33.3,33.3,2.5,3.3,2.595,0.41851293679980717,-0.02428792682907756,0.8942972871731064,0.0015424948360985157,-0.110307,-32.27471
11.185,2.0,1.0,1.0,34.5,33.3,33.3,2.5,3.3,2.5975,0.40926323078937776,-0.02466712996689785,0.8983786866560185,0.0013004213375752795,-0.111822,-32.145574
11.185,2.0,1.0,1.0,34.5,33.3,33.3,2.5,3.3,2.6,0.399906884223695,-0.025050941713492977,0.902390269281253,0.0010489845274004718,-0.113368,-32.01591
11.185,2.0,1.0,1.0,34.5,33.3,33.3,2.5,3.3,2.6025,0.39044315694800624,-0.025439362570485152,0.906329883396451,0.000787885224692473,-0.114947,-31.885712
11.185,2.0,1.0,1.0,34.5,33.3,33.3,2.5,3.3,2.605,0.3808713228003822,-0.02583238903316486,0.9101953205522202,0.0005168147398751492,-0.116558,-31.754971
11.185,2.0,1.0,1.0,34.5,33.3,33.3,2.5,3.3,2.6075,0.3711906709574648,-0.026230013306473104,0.9139843141789362,0.0002354545762845744,-0.118203,-31.62368
11.185,2.0,1.0,1.0,34.5,33.3,33.3,2.5,3.3,2.61,0.36140050734924783,-0.02663222300465363,0.9176945382457182,-5.652387685429749e-05,-0.119882,-31.491832
11.185,2.0,1.0,1.0,34.5,33.3,33.3,2.5,3.3,2.6125,0.35150015614580493,-0.027039000833685184,0.9213236059023355,-0.0003594596602708034,-0.121597,-31.35942
11.185,2.0,1.0,1.0,34.5,33.3,33.3,2.5,3.3,2.615,0.3414889613190076,-0.027450324255556154,0.9248690681048659,-0.000673702569499074,-0.123349,-31.226435
11.185,2.0,1.0,1.0,34.5,33.3,33.3,2.5,3.3,2.6175,0.3313662882823732,-0.027866165133390818,0.928328412226041,-0.0009996134889245188,-0.125137,-31.092871
11.185,2.0,1.0,1.0,34.5,33.3,33.3,2.5,3.3,2.62,0.3211315256122824,-0.02828648935638426,0.9316990606513169,-0.0013375647352127768,-0.126964,-30.958719
11.185,2.0,1.0,1.0,34.5,33.3,33.3,2.5,3.3,2.6225,0.3107840868539128,-0.028711256443444133,0.9349783693618143,-0.0016879404103087498,-0.128831,-30.823971
11.185,2.0,1.0,1.0,34.5,33.3,33.3,2.5,3.3,2.625,0.300323412415379,-0.0291404191243769,0.938163626505389,-0.00205113676418863,-0.130738,-30.68862
11.185,2.0,1.0,1.0,34.5,33.3,33.3,2.5,3.3,2.6275,0.28974897155361856,-0.029573922897392455,0.941252050957236,-0.0024275625675486286,-0.132686,-30.552657
11.185,2.0,1.0,1.0,34.5,33.3,33.3,2.5,3.3,2.63,0.2790602644557516,-0.03001170556163157,0.9442407908715318,-0.0028176394946116063,-0.134677,-30.416074
11.185,2.0,1.0,1.0,34.5,33.3,33.3,2.5,3.3,2.6325,0.2682568244196986,-0.030453696723348755,0.9471269222257892,-0.003221802516227065,-0.136712,-30.278862
11.185,2.0,1.0,1.0,34.5,33.3,33.3,2.5,3.3,2.635,0.2573382201380011,-0.030899817274305966,0.9499074473597303,-0.0036405003034422406,-0.138792,-30.141013
11.185,2.0,1.0,1.0,34.5,33.3,33.3,2.5,3.3,2.6375,0.24630405808888672,-0.03134997884085016,0.9525792935106435,-0.004074195641712645,-0.140919,-30.002519
11.185,2.0,1.0,1.0,34.5,33.3,33.3,2.5,3.3,2.64,0.23515398503874405,-0.031804083202062114,0.955139311347353,-0.004523365855921331,-0.143093,-29.863369
11.185,2.0,1.0,1.0,34.5,33.3,33.3,2.5,3.3,2.6425,0.22388769066030834,-0.03226202167526958,0.9575842735051103,-0.0049885032463687145,-0.145316,-29.723556
11.185,2.0,1.0,1.0,34.5,33.3,33.3,2.5,3.3,2.645,0.2125049102709728,-0.0327236744671197,0.9599108731238832,-0.0054701155358910965,-0.14759,-29.58307
11.185,2.0,1.0,1.0,34.5,33.3,33.3,2.5,3.3,2.6475,0.2010054276957748,-0.03318890998830117,0.9621157223927304,-0.005968726328260403,-0.149915,-29.441901
11.185,2.0,1.0,1.0,34.5,33.3,33.3,2.5,3.3,2.65,0.18938907825970544,-0.03365758412989358,0.9641953511031284,-0.006484875578012888,-0.152293,-29.300041
11.185,2.0,1.0,1.0,34.5,33.3,33.3,2.5,3.3,2.6525,0.17765575191418564,-0.03412953949920054,0.9661462052143414,-0.007019120071846591,-0.154727,-29.157479
11.185,2.0,1.0,1.0,34.5,33.3,33.3,2.5,3.3,2.655,0.16580539650258908,-0.034604604612796616,0.9679646454341456,-0.007572033921722492,-0.157216,-29.014205
11.185,2.0,1.0,1.0,34.5,33.3,33.3,2.5,3.3,2.6575,0.15383802116991,-0.035082593044379495,0.969646945818429,-0.008144209069796822,-0.159764,-28.87021
11.185,2.0,1.0,1.0,34.5,33.3,33.3,2.5,3.3,2.66,0.1417536999217367,-0.035563302524870964,0.9711892923934636,-0.008736255805303371,-0.162372,-28.725483
11.185,2.0,1.0,1.0,34.5,33.3,33.3,2.5,3.3,2.6625,0.12955257533789424,-0.0360465139920533,0.9725877818048465,-0.009348803293499379,-0.165041,-28.580014
11.185,2.0,1.0,1.0,34.5,33.3,33.3,2.5,3.3,2.665,0.11723486244616106,-0.036531990586856494,0.9738384199974198,-0.009982500116777825,-0.167774,-28.433792
11.185,2.0,1.0,1.0,34.5,33.3,33.3,2.5,3.3,2.6675,0.10480085276171561,-0.03701947659322968,0.9749371209307007,-0.010638014828042311,-0.170572,-28.286805
11.185,2.0,1.0,1.0,34.5,33.3,33.3,2.5,3.3,2.67,0.09225091849799931,-0.03750869631833137,0.9758797053346636,-0.011316036516430218,-0.173438,-28.139044
11.185,2.0,1.0,1.0,34.5,33.3,33.3,2.5,3.3,2.6725,0.07958551695488694,-0.037999352909562516,0.976661899510985,-0.012017275385463275,-0.176372,-27.990495
11.185,2.0,1.0,1.0,34.5,33.3,33.3,2.5,3.3,2.675,0.06680519509018444,-0.038491127104733874,0.9772793341851739,-0.012742463343691675,-0.179379,-27.841148
11.185,2.0,1.0,1.0,34.5,33.3,33.3,2.5,3.3,2.6775,0.053910594280596,-0.03898367591141166,0.9777275434153166,-0.013492354607890947,-0.182459,-27.69099
11.185,2.0,1.0,1.0,34.5,33.3,33.3,2.5,3.3,2.68,0.04090245527849978,-0.03947663121121615,0.9780019635634509,-0.014267726318859699,-0.185616,-27.540009
11.185,2.0,1.0,1.0,34.5,33.3,33.3,2.5,3.3,2.6825,0.02778162337097048,-0.03996959828455182,0.9780979323359681,-0.015069379169854848,-0.188851,-27.388192
11.185,2.0,1.0,1.0,34.5,33.3,33.3,2.5,3.3,2.685,0.0145490537476847,-0.04046215425093373,0.9780106878997156,-0.01589813804769191,-0.192167,-27.235527
11.185,2.0,1.0,1.0,34.5,33.3,33.3,2.5,3.3,2.6875,0.00120581708449862,-0.0409538464197237,0.977735368080851,-0.0167548526865245,-0.195567,-27.082
11.185,2.0,1.0,1.0,34.5,33.3,33.3,2.5,3.3,2.69,-0.012246894650309249,-0.041444190545714264,0.9772670096538123,-0.017640398334306945,-0.199053,-26.927598
11.185,2.0,1.0,1.0,34.5,33.3,33.3,2.5,3.3,2.6925,-0.02580776216001258,-0.0419326689835838,0.9766005477281687,-0.01855567643192976,-0.202629,-26.772306
11.185,2.0,1.0,1.0,34.5,33.3,33.3,2.5,3.3,2.695,-0.0394753325462299,-0.04241872873479512,0.9757308152414358,-0.019501615305003803,-0.206297,-26.616109
11.185,2.0,1.0,1.0,34.5,33.3,33.3,2.5,3.3,2.6975,-0.05324801279097161,-0.04290177938001436,0.9746525425663028,-0.02047917086825468,-0.21006,-26.458994
11.185,2.0,1.0,1.0,34.5,33.3,33.3,2.5,3.3,2.7,-0.06712406298612184,-0.04338119088958321,0.9733603572411269,-0.02148932734247158,-0.213922,-26.300945
11.185,2.0,1.0,1.0,34.5,33.3,33.3,2.5,3.3,2.7025,-0.0811015893022621,-0.043856291303981235,0.971848783832861,-0.022533097983934772,-0.217886,-26.141945
11.185,2.0,1.0,1.0,34.5,33.3,33.3,2.5,3.3,2.705,-0.09517853668848626,-0.04432636427555667,0.9701122439420233,-0.023611525826222817,-0.221956,-25.98198
11.185,2.0,1.0,1.0,34.5,33.3,33.3,2.5,3.3,2.7075,-0.10935268129446227,-0.044790646462081266,0.9681450563596097,-0.024725684434277813,-0.226135,-25.821031
11.185,2.0,1.0,1.0,34.5,33.3,33.3,2.5,3.3,2.71,-0.12362162260571027,-0.045248324761883084,0.9659414373863053,-0.025876678670570304,-0.230427,-25.659082
11.185,2.0,1.0,1.0,34.5,33.3,33.3,2.5,3.3,2.7125,-0.1379827752825893,-0.045698533379429605,0.9634955013246607,-0.027065645473172053,-0.234837,-25.496115
11.185,2.0,1.0,1.0,34.5,33.3,33.3,2.5,3.3,2.715,-0.15243336069303226,-0.046140350709252716,0.9608012611553154,-0.02829375464549574,-0.239367,-25.332112
11.185,2.0,1.0,1.0,34.5,33.3,33.3,2.5,3.3,2.7175,-0.16697039812851633,-0.046572796025024156,0.9578526294086791,-0.029562209657405518,-0.244024,-25.167052
11.185,2.0,1.0,1.0,34.5,33.3,33.3,2.5,3.3,2.72,-0.18159069569214065,-0.04699482595938625,0.954643419243901,-0.03087224845732995,-0.248812,-25.000918
11.185,2.0,1.0,1.0,34.5,33.3,33.3,2.5,3.3,2.7225,-0.19629084084697024,-0.04740533075880303,0.9511673457472686,-0.0322251442949255,-0.253735,-24.833687
11.185,2.0,1.0,1.0,34.5,33.3,33.3,2.5,3.3,2.725,-0.21106719061195028,-0.04780313029621072,0.9474180274626047,-0.03362220655372499,-0.258798,-24.66534
11.185,2.0,1.0,1.0,34.5,33.3,33.3,2.5,3.3,2.7275,-0.22591586139176933,-0.04818696982258591,0.9433889881665237,-0.03506478159307905,-0.264008,-24.495854
11.185,2.0,1.0,1.0,34.5,33.3,33.3,2.5,3.3,2.73,-0.2408327184259188,-0.04855551543670025,0.9390736589018632,-0.03655425359852386,-0.26937,-24.325206
11.185,2.0,1.0,1.0,34.5,33.3,33.3,2.5,3.3,2.7325,-0.2558133648409468,-0.04890734925026367,0.9344653802829056,-0.03809204543950823,-0.274889,-24.153372
11.185,2.0,1.0,1.0,34.5,33.3,33.3,2.5,3.3,2.735,-0.27085313028837077,-0.049240964223349205,0.9295574050864452,-0.03967961953315321,-0.280573,-23.980329
11.185,2.0,1.0,1.0,34.5,33.3,33.3,2.5,3.3,2.7375,-0.28594705914905616,-0.04955475864240541,0.9243429011431373,-0.04131847871240103,-0.286427,-23.80605
11.185,2.0,1.0,1.0,34.5,33.3,33.3,2.5,3.3,2.74,-0.301089898282827,-0.04984703021026548,0.9188149545439979,-0.04301016709651789,-0.29246,-23.630509
11.185,2.0,1.0,1.0,34.5,33.3,33.3,2.5,3.3,2.7425,-0.31627608429981774,-0.050115969714313945,0.912966573177402,-0.044756270961434357,-0.298678,-23.453678
11.185,2.0,1.0,1.0,34.5,33.3,33.3,2.5,3.3,2.745,-0.33149973032737085,-0.050359654235323056,0.90679069061244,-0.04655841960680514,-0.305089,-23.275529
11.185,2.0,1.0,1.0,34.5,33.3,33.3,2.5,3.3,2.7475,-0.3467546122432525,-0.05057603985537036,0.900280170345099,-0.048418286215945947,-0.311702,-23.096031
11.185,2.0,1.0,1.0,34.5,33.3,33.3,2.5,3.3,2.75,-0.36203415434234,-0.0507629538186393,0.893427810424399,-0.0503375887038979,-0.318525,-22.915153
11.185,2.0,1.0,1.0,34.5,33.3,33.3,2.5,3.3,2.7525,-0.37733141439988654,-0.050918086093710783,0.8862263484764638,-0.05231809054777725,-0.325568,-22.732863
11.185,2.0,1.0,1.0,34.5,33.3,33.3,2.5,3.3,2.755,-0.3926390680896395,-0.051038980280103445,0.8786684671454579,-0.05436160159220883,-0.332841,-22.549126
11.185,2.0,1.0,1.0,34.5,33.3,33.3,2.5,3.3,2.7575,-0.40794939270973535,-0.05112302379522029,0.8707467999715021,-0.056469978821010736,-0.340355,-22.363907
11.185,2.0,1.0,1.0,34.5,33.3,33.3,2.5,3.3,2.76,-0.42325425016279056,-0.051167437270410315,0.862453937727155,-0.05864512708426833,-0.34812,-22.177168
11.185,2.0,1.0,1.0,34.5,33.3,33.3,2.5,3.3,2.7625,-0.4385450691295583,-0.05116926307643582,0.8537824352358228,-0.06088899976749947,-0.356149,-21.98887
11.185,2.0,1.0,1.0,34.5,33.3,33.3,2.5,3.3,2.765,-0.453812826366898,-0.05112535288912107,0.8447248186976664,-0.06320359938662057,-0.364454,-21.798973
11.185,2.0,1.0,1.0,34.5,33.3,33.3,2.5,3.3,2.7675,-0.46904802705134396,-0.051032354195187854,0.8352735935513501,-0.06559097808878615,-0.373049,-21.607434
11.185,2.0,1.0,1.0,34.5,33.3,33.3,2.5,3.3,2.77,-0.4842406840783735,-0.050886695626089766,0.8254212529033472,-0.06805323803476292,-0.38195,-21.414208
11.185,2.0,1.0,1.0,34.5,33.3,33.3,2.5,3.3,2.7725,-0.49938029621469504,-0.05068457099383662,0.8151602865607932,-0.07059253163311742,-0.39117,-21.219247
11.185,2.0,1.0,1.0,34.5,33.3,33.3,2.5,3.3,2.775,-0.5144558249862803,-0.050421921887129476,0.8044831907091168,-0.07321106158997334,-0.400728,-21.022503
11.185,2.0,1.0,1.0,34.5,33.3,33.3,2.5,3.3,2.7775,-0.5294556701679546,-0.05009441866834284,0.7933824782822155,-0.07591108073016152,-0.410641,-20.823925
11.185,2.0,1.0,1.0,34.5,33.3,33.3,2.5,3.3,2.78,-0.5443676437210877,-0.04969743969169695,0.7818506900810289,-0.0786948915359522,-0.420928,-20.623456
11.185,2.0,1.0,1.0,34.5,33.3,33.3,2.5,3.3,2.7825,-0.5591789420036712,-0.04922604854002287,0.7698804067064113,-0.08156484533785566,-0.43161,-20.421042
11.185,2.0,1.0,1.0,34.5,33.3,33.3,2.5,3.3,2.785,-0.5738761160517201,-0.04867496905144393,0.7574642613845408,-0.08452334107777382,-0.442709,-20.216621
11.185,2.0,1.0,1.0,34.5,33.3,33.3,2.5,3.3,2.7875,-0.5884450397016808,-0.04803855787764552,0.7445949537784996,-0.08757282354749835,-0.45425,-20.01013
11.185,2.0,1.0,1.0,34.5,33.3,33.3,2.5,3.3,2.79,-0.6028708752901859,-0.04731077428166563,0.7312652648984658,-0.09071578098457775,-0.466259,-19.801503
11.185,2.0,1.0,1.0,34.5,33.3,33.3,2.5,3.3,2.7925,-0.6171380366291932,-0.04648514684475891,0.7174680732463657,-0.09395474188202788,-0.478763,-19.59067
11.185,2.0,1.0,1.0,34.5,33.3,33.3,2.5,3.3,2.795,-0.6312301489108282,-0.045554736708196,0.703196372359469,-0.09729227083731636,-0.491794,-19.377558
11.185,2.0,1.0,1.0,34.5,33.3,33.3,2.5,3.3,2.7975,-0.6451300051460856,-0.04451209692615718,0.6884432899529057,-0.1007309632282004,-0.505383,-19.162089
11.185,2.0,1.0,1.0,34.5,33.3,33.3,2.5,3.3,2.8,-0.6588195186844625,-0.04334922744931374,0.673202108904562,-0.10427343845691948,-0.519568,-18.944181
11.185,2.0,1.0,1.0,34.5,33.3,33.3,2.5,3.3,2.8025,-0.6722796712962351,-0.042057525194374924,0.6574662903795226,-0.10792233144799272,-0.534387,-18.723748
11.185,2.0,1.0,1.0,34.5,33.3,33.3,2.5,3.3,2.805,-0.6854904562247093,-0.040627728581786704,0.6412294994572943,-0.11168028201620207,-0.549884,-18.5007
11.185,2.0,1.0,1.0,34.5,33.3,33.3,2.5,3.3,2.8075,-0.6984308155310546,-0.0390498558407925,0.6244856337063593,-0.11554992163740227,-0.566104,-18.274941
11.185,2.0,1.0,1.0,34.5,33.3,33.3,2.5,3.3,2.81,-0.7110785709581368,-0.037313136287024554,0.6072288552507974,-0.1195338570520454,-0.583099,-18.04637
11.185,2.0,1.0,1.0,34.5,33.3,33.3,2.5,3.3,2.8125,-0.72341034743069,-0.0354059336714241,0.589453626997267,-0.123634650005393,-0.600925,-17.814879
11.185,2.0,1.0,1.0,34.5,33.3,33.3,2.5,3.3,2.815,-0.7354014881860892,-0.03331566057930167,0.5711547538427908,-0.12785479227387875,-0.619643,-17.580358
11.185,2.0,1.0,1.0,34.5,33.3,33.3,2.5,3.3,2.8175,-0.7470259603912719,-0.031028682723524763,0.5523274298718004,-0.13219667493719992,-0.639322,-17.342688
11.185,2.0,1.0,1.0,34.5,33.3,33.3,2.5,3.3,2.82,-0.7582562499462909,-0.028530211825037535,0.5329672927829016,-0.1366625506220427,-0.660035,-17.101742
11.185,2.0,1.0,1.0,34.5,33.3,33.3,2.5,3.3,2.8225,-0.7690632440023534,-0.02580418560639693,0.5130704870728011,-0.14125448715535707,-0.681865,-16.85739
11.185,2.0,1.0,1.0,34.5,33.3,33.3,2.5,3.3,2.825,-0.7794160995320027,-0.022833133239493143,0.49263373785982845,-0.14597431070961872,-0.704904,-16.609492
11.185,2.0,1.0,1.0,34.5,33.3,33.3,2.5,3.3,2.8275,-0.7892820960817719,-0.01959802438775619,0.47165443766940374,-0.15082353608313223,-0.729254,-16.357902
