1,w,sub_t,h,l1,l2,l3,g1,g2,Freq,S11_re,S21_re,S11_img,S21_img,S11_dB,S21_dB
11.185,2.0,1.0,1.0,33.5,34.0,34.0,2.0,3.0,2.5,0.844347443686029,-0.0105453412282546,0.522187691892832,0.00943663209213852,-0.062982,-36.984183
11.185,2.0,1.0,1.0,33.5,34.0,34.0,2.0,3.0,2.5025,0.8406616293306719,-0.010772541934908784,0.527956945765585,0.009491745410410077,-0.063652,-36.858359
11.185,2.0,1.0,1.0,33.5,34.0,34.0,2.0,3.0,2.505,0.8369179780633632,-0.011004324348217567,0.5337263089952926,0.009546107538851774,-0.064335,-36.732069
11.185,2.0,1.0,1.0,33.5,34.0,34.0,2.0,3.0,2.5075,0.833115841030261,-0.011240795304954183,0.5394955055863336,0.009599670258783307,-0.065032,-36.605304
11.185,2.0,1.0,1.0,33.5,34.0,34.0,2.0,3.0,2.51,0.8292545575067541,-0.011482064730691991,0.5452642501710607,0.00965238316295815,-0.065743,-36.478053
11.185,2.0,1.0,1.0,33.5,34.0,34.0,2.0,3.0,2.5125,0.8253334546458335,-0.011728245745881346,0.5510322476677497,0.009704193550724912,-0.066467,-36.350306
11.185,2.0,1.0,1.0,33.5,34.0,34.0,2.0,3.0,2.515,0.8213518472202163,-0.011979454776128324,0.5567991929252247,0.009755046317668176,-0.067207,-36.222053
11.185,2.0,1.0,1.0,33.5,34.0,34.0,2.0,3.0,2.5175,0.8173090373580425,-0.012235811666863015,0.5625647703535518,0.009804883839404276,-0.067961,-36.093283
11.185,2.0,1.0,1.0,33.5,34.0,34.0,2.0,3.0,2.52,0.8132043142719361,-0.012497439802595444,0.568328653540187,0.009853645849187721,-0.068731,-35.963985
11.185,2.0,1.0,1.0,33.5,34.0,34.0,2.0,3.0,2.5225,0.8090369539812485,-0.012764466230964526,0.5740905048508947,0.009901269308960589,-0.069516,-35.834149
11.185,2.0,1.0,1.0,33.5,34.0,34.0,2.0,3.0,2.525,0.8048062190272542,-0.013037021791799249,0.5798499750147634,0.00994768827345382,-0.070318,-35.703762
11.185,2.0,1.0,1.0,33.5,34.0,34.0,2.0,3.0,2.5275,0.8005113581810902,-0.013315241251418771,0.5856067026925716,0.009992833746922024,-0.071136,-35.572814
11.185,2.0,1.0,1.0,33.5,34.0,34.0,2.0,3.0,2.53,0.7961516061442163,-0.013599263442411094,0.591360314027733,0.010036633532066318,-0.071972,-35.441293
11.185,2.0,1.0,1.0,33.5,34.0,34.0,2.0,3.0,2.5325,0.7917261832411493,-0.01388923140914178,0.5971104221789962,0.010079012070669614,-0.072825,-35.309188
11.185,2.0,1.0,1.0,33.5,34.0,34.0,2.0,3.0,2.535,0.787234295104241,-0.014185292559256685,0.6028566268340552,0.010119890275435828,-0.073696,-35.176486
11.185,2.0,1.0,1.0,33.5,34.0,34.0,2.0,3.0,2.5375,0.7826751323502363,-0.01448759882145506,0.608598513703135,0.010159185352490338,-0.074586,-35.043175
11.185,2.0,1.0,1.0,33.5,34.0,34.0,2.0,3.0,2.54,0.778047870248355,-0.014796306809824657,0.6143356539916123,0.010196810613961084,-0.075495,-34.909244
11.185,2.0,1.0,1.0,33.5,34.0,34.0,2.0,3.0,2.5425,0.7733516683796154,-0.015111577995043923,0.6200676038506409,0.010232675280020127,-0.076424,-34.774678
11.185,2.0,1.0,1.0,33.5,34.0,34.0,2.0,3.0,2.545,0.7685856702871184,-0.015433578882772447,0.6257939038047075,0.010266684269721646,-0.077373,-34.639466
11.185,2.0,1.0,1.0,33.5,34.0,34.0,2.0,3.0,2.5475,0.7637490031170073,-0.015762481199566,0.6315140781549846,0.010298737979925053,-0.078343,-34.503595
11.185,2.0,1.0,1.0,33.5,34.0,34.0,2.0,3.0,2.55,0.7588407772497693,-0.016098462086671126,0.6372276343572726,0.010328732051543266,-0.079335,-34.36705
11.185,2.0,1.0,1.0,33.5,34.0,34.0,2.0,3.0,2.5525,0.7538600859215886,-0.016441704302069322,0.6429340623732419,0.010356557122299404,-0.080348,-34.229819
11.185,2.0,1.0,1.0,33.5,34.0,34.0,2.0,3.0,2.555,0.7488060048353978,-0.01679239643116305,0.6486328339936395,0.010382098565119268,-0.081385,-34.091888
11.185,2.0,1.0,1.0,33.5,34.0,34.0,2.0,3.0,2.5575,0.7436775917612872,-0.017150733106512057,0.6543234021320128,0.010405236211221027,-0.082445,-33.953241
11.185,2.0,1.0,1.0,33.5,34.0,34.0,2.0,3.0,2.56,0.7384738861259129,-0.017516915237051144,0.6600052000874216,0.010425844056896824,-0.083529,-33.813866
11.185,2.0,1.0,1.0,33.5,34.0,34.0,2.0,3.0,2.5625,0.733193908590531,-0.017891150247241222,0.6656776407745298,0.01044378995290666,-0.084638,-33.673747
11.185,2.0,1.0,1.0,33.5,34.0,34.0,2.0,3.0,2.565,0.7278366606172588,-0.018273652326628243,0.6713401159193464,0.010458935275324304,-0.085773,-33.532869
11.185,2.0,1.0,1.0,33.5,34.0,34.0,2.0,3.0,2.5675,0.7224011240231725,-0.018664642690308188,0.676991995218784,0.010471134576589077,-0.086935,-33.391217
11.185,2.0,1.0,1.0,33.5,34.0,34.0,2.0,3.0,2.57,0.7168862605218083,-0.01906434985082074,0.6826326254620997,0.01048023521542311,-0.088124,-33.248775
11.185,2.0,1.0,1.0,33.5,34.0,34.0,2.0,3.0,2.5725,0.7112910112516302,-0.019473009902020378,0.6882613296121285,0.0104860769641727,-0.089341,-33.105527
11.185,2.0,1.0,1.0,33.5,34.0,34.0,2.0,3.0,2.575,0.7056142962910138,-0.019890866815500778,0.6938774058441092,0.010488491592021025,-0.090588,-32.961457
11.185,2.0,1.0,1.0,33.5,34.0,34.0,2.0,3.0,2.5775,0.6998550141592695,-0.0203181727501749,0.699480126539745,0.010487302422401243,-0.091865,-32.816547
11.185,2.0,1.0,1.0,33.5,34.0,34.0,2.0,3.0,2.58,0.694012041303217,-0.020755188375644336,0.7050687372339766,0.010482323862808379,-0.093173,-32.670782
11.185,2.0,1.0,1.0,33.5,34.0,34.0,2.0,3.0,2.5825,0.6880842315687957,-0.021202183210020292,0.7106424555117983,0.010473360905067633,-0.094513,-32.524143
11.185,2.0,1.0,1.0,33.5,34.0,34.0,2.0,3.0,2.585,0.6820704156571882,-0.021659435972890377,0.7162004698522279,0.01046020859396395,-0.095887,-32.376613
11.185,2.0,1.0,1.0,33.5,34.0,34.0,2.0,3.0,2.5875,0.6759694005649007,-0.02212723495415772,0.7217419384163813,0.010442651461970046,-0.097295,-32.228172
11.185,2.0,1.0,1.0,33.5,34.0,34.0,2.0,3.0,2.59,0.6697799690072448,-0.022605878399512235,0.727265987776359,0.010420462927629914,-0.098739,-32.078803
11.185,2.0,1.0,1.0,33.5,34.0,34.0,2.0,3.0,2.5925,0.6635008788246143,-0.023095674913328347,0.7327717115814258,0.010393404654956554,-0.10022,-31.928487
11.185,2.0,1.0,1.0,33.5,34.0,34.0,2.0,3.0,2.595,0.6571308623709772,-0.023596943879817728,0.738258169157723,0.010361225870987078,-0.101739,-31.777202
11.185,2.0,1.0,1.0,33.5,34.0,34.0,2.0,3.0,2.5975,0.6506686258839278,-0.02411001590330326,0.7437243840374623,0.010323662638405035,-0.103297,-31.624931
11.185,2.0,1.0,1.0,33.5,34.0,34.0,2.0,3.0,2.6,0.6441128488356724,-0.024635233268514526,0.7491693424132709,0.010280437079881305,-0.104896,-31.471651
11.185,2.0,1.0,1.0,33.5,34.0,34.0,2.0,3.0,2.6025,0.6374621832642844,-0.02517295042184277,0.754591991513011,0.010231256550507497,-0.106538,-31.317342
11.185,2.0,1.0,1.0,33.5,34.0,34.0,2.0,3.0,2.605,0.630715253084542,-0.025723534474530053,0.7599912378900765,0.010175812754388,-0.108224,-31.161981
11.185,2.0,1.0,1.0,33.5,34.0,34.0,2.0,3.0,2.6075,0.6238706533776601,-0.02628736572880258,0.7653659456237605,0.010113780801123693,-0.109956,-31.005548
11.185,2.0,1.0,1.0,33.5,34.0,34.0,2.0,3.0,2.61,0.616926949659212,-0.026864838227994525,0.7707149344238806,0.010044818197553752,-0.111734,-30.848018
11.185,2.0,1.0,1.0,33.5,34.0,34.0,2.0,3.0,2.6125,0.6098826771245167,-0.027456360331741415,0.7760369776334037,0.009968563769720716,-0.113562,-30.689369
11.185,2.0,1.0,1.0,33.5,34.0,34.0,2.0,3.0,2.615,0.6027363398707656,-0.028062355317356846,0.7813308001223064,0.009884636509585437,-0.115441,-30.529577
11.185,2.0,1.0,1.0,33.5,34.0,34.0,2.0,3.0,2.6175,0.5954864100951742,-0.028683262008531704,0.786595076065372,0.009792634340535974,-0.117373,-30.368616
11.185,2.0,1.0,1.0,33.5,34.0,34.0,2.0,3.0,2.62,0.5881313272684212,-0.029319535432525155,0.7918284265960261,0.009692132795204181,-0.119359,-30.206462
11.185,2.0,1.0,1.0,33.5,34.0,34.0,2.0,3.0,2.6225,0.5806694972826584,-0.02997164750703579,0.7970294173276866,0.00958268359852549,-0.121403,-30.043089
11.185,2.0,1.0,1.0,33.5,34.0,34.0,2.0,3.0,2.625,0.573099291573413,-0.030640087757955,0.802196555733366,0.00946381314833412,-0.123507,-29.878469
11.185,2.0,1.0,1.0,33.5,34.0,34.0,2.0,3.0,2.6275,0.565419046214678,-0.03132536406921593,0.8073282883735183,0.009335020885085534,-0.125672,-29.712576
11.185,2.0,1.0,1.0,33.5,34.0,34.0,2.0,3.0,2.63,0.5576270609865853,-0.0320280034659466,0.8124229979612558,0.009195777541522215,-0.127901,-29.54538
11.185,2.0,1.0,1.0,33.5,34.0,34.0,2.0,3.0,2.6325,0.549721598415057,-0.0327485529321226,0.8174790002531176,0.009045523262244413,-0.130198,-29.376854
11.185,2.0,1.0,1.0,33.5,34.0,34.0,2.0,3.0,2.635,0.5417008827829339,-0.033487580263888754,0.8224945407525744,0.008883665582206775,-0.132564,-29.206966
11.185,2.0,1.0,1.0,33.5,34.0,34.0,2.0,3.0,2.6375,0.5335630991121604,-0.03424567495967049,0.8274677912122819,0.00870957725212087,-0.135003,-29.035687
11.185,2.0,1.0,1.0,33.5,34.0,34.0,2.0,3.0,2.64,0.5253063921166868,-0.035023449148133934,0.8323968459198906,0.008522593897595238,-0.137518,-28.862984
11.185,2.0,1.0,1.0,33.5,34.0,34.0,2.0,3.0,2.6425,0.5169288651259514,-0.035821538554955686,0.8372797177508203,0.008322011497572793,-0.140112,-28.688825
11.185,2.0,1.0,1.0,33.5,34.0,34.0,2.0,3.0,2.645,0.5084285789789184,-0.03664060350924557,0.8421143339698941,0.008107083666219978,-0.142789,-28.513176
11.185,2.0,1.0,1.0,33.5,34.0,34.0,2.0,3.0,2.6475,0.49980355088891204,-0.03748132999030094,0.8468985317620709,0.0078770187208628,-0.145552,-28.336002
11.185,2.0,1.0,1.0,33.5,34.0,34.0,2.0,3.0,2.65,0.4910517532797047,-0.038344430715169596,0.8516300534706455,0.007630976516836468,-0.148406,-28.157268
11.185,2.0,1.0,1.0,33.5,34.0,34.0,2.0,3.0,2.6525,0.48217111259369916,-0.039230646267235374,0.8563065415192332,0.007368065028199128,-0.151353,-27.976937
11.185,2.0,1.0,1.0,33.5,34.0,34.0,2.0,3.0,2.655,0.4731595080733652,-0.040140746265723,0.8609255329916216,0.007087336651126952,-0.1544,-27.794971
11.185,2.0,1.0,1.0,33.5,34.0,34.0,2.0,3.0,2.6575,0.4640147705176196,-0.041075530575614576,0.8654844538409951,0.00678778420444205,-0.157549,-27.61133
11.185,2.0,1.0,1.0,33.5,34.0,34.0,2.0,3.0,2.66,0.45473468101536524,-0.04203583055698332,0.8699806126973031,0.00646833659908572,-0.160807,-27.425973
11.185,2.0,1.0,1.0,33.5,34.0,34.0,2.0,3.0,2.6625,0.4453169696591268,-0.04302251035214634,0.8744111942383861,0.006127854145416151,-0.164178,-27.23886
11.185,2.0,1.0,1.0,33.5,34.0,34.0,2.0,3.0,2.665,0.4357593142424813,-0.04403646820831391,0.8787732520870513,0.0057651234639319905,-0.167669,-27.049946
11.185,2.0,1.0,1.0,33.5,34.0,34.0,2.0,3.0,2.6675,0.42605933894602455,-0.045078637832521085,0.8830637011924197,0.005378851961374564,-0.171284,-26.859187
11.185,2.0,1.0,1.0,33.5,34.0,34.0,2.0,3.0,2.67,0.4162146130177377,-0.046149989774563555,0.8872793096495807,0.004967661830076008,-0.17503,-26.666537
11.185,2.0,1.0,1.0,33.5,34.0,34.0,2.0,3.0,2.6725,0.40622264945502445,-0.04725153283236752,0.8914166899068098,0.004530083523862893,-0.178914,-26.471947
11.185,2.0,1.0,1.0,33.5,34.0,34.0,2.0,3.0,2.675,0.39608090369737986,-0.048384315472667125,0.8954722893042353,0.004064548658715365,-0.182943,-26.275368
11.185,2.0,1.0,1.0,33.5,34.0,34.0,2.0,3.0,2.6775,0.3857867723406212,-0.049549427258002064,0.8994423798818785,0.003569382280668574,-0.187125,-26.076749
11.185,2.0,1.0,1.0,33.5,34.0,34.0,2.0,3.0,2.68,0.3753375918859819,-0.050748000268803925,0.9033230473882875,0.003042794437029381,-0.191467,-25.876036
11.185,2.0,1.0,1.0,33.5,34.0,34.0,2.0,3.0,2.6825,0.36473063754022966,-0.05198121050665086,0.9071101794134825,0.0024828709797909345,-0.195978,-25.673175
11.185,2.0,1.0,1.0,33.5,34.0,34.0,2.0,3.0,2.685,0.35396312208631325,-0.053250279261554276,0.9107994525615235,0.0018875635220510598,-0.200669,-25.468109
11.185,2.0,1.0,1.0,33.5,34.0,34.0,2.0,3.0,2.6875,0.343032194848091,-0.054556474422278,0.914386318568576,0.00125467845916106,-0.205548,-25.260778
11.185,2.0,1.0,1.0,33.5,34.0,34.0,2.0,3.0,2.69,0.33193494077750546,-0.05590111170406768,0.9178659892617296,0.0005818649561214216,-0.210626,-25.051121
11.185,2.0,1.0,1.0,33.5,34.0,34.0,2.0,3.0,2.6925,0.32066837969827383,-0.057285555762638475,0.9212334202419202,-0.00013339820875781606,-0.215916,-24.839074
11.185,2.0,1.0,1.0,33.5,34.0,34.0,2.0,3.0,2.695,0.3092294657470707,-0.058711221156625436,0.9244832931608621,-0.000893817066861888,-0.221428,-24.624571
11.185,2.0,1.0,1.0,33.5,34.0,34.0,2.0,3.0,2.6975,0.2976150870612907,-0.060179573112767434,0.9276099964468247,-0.0017022982864796689,-0.227177,-24.407544
11.185,2.0,1.0,1.0,33.5,34.0,34.0,2.0,3.0,2.7,0.28582206577234825,-0.06169212803855804,0.9306076043170032,-0.002561966558219271,-0.233178,-24.187922
11.185,2.0,1.0,1.0,33.5,34.0,34.0,2.0,3.0,2.7025,0.27384715837511975,-0.06325045371567863,0.9334698538950829,-0.003476183711237248,-0.239444,-23.965629
11.185,2.0,1.0,1.0,33.5,34.0,34.0,2.0,3.0,2.705,0.2616870565582165,-0.06485616909381144,0.9361901202308874,-0.004448569753880701,-0.245994,-23.74059
11.185,2.0,1.0,1.0,33.5,34.0,34.0,2.0,3.0,2.7075,0.24933838859655832,-0.0665109435879637,0.9387613889945662,-0.005483026056070922,-0.252845,-23.512723
11.185,2.0,1.0,1.0,33.5,34.0,34.0,2.0,3.0,2.71,0.2367977214279688,-0.06821649576262945,0.9411762265901289,-0.006583760917566637,-0.260017,-23.281946
11.185,2.0,1.0,1.0,33.5,34.0,34.0,2.0,3.0,2.7125,0.22406156355970774,-0.06997459126229745,0.9434267474019774,-0.007755317796548085,-0.267531,-23.048171
11.185,2.0,1.0,1.0,33.5,34.0,34.0,2.0,3.0,2.715,0.21112636898013126,-0.07178703981910818,0.9455045778528116,-0.009002606507208313,-0.275411,-22.811309
11.185,2.0,1.0,1.0,33.5,34.0,34.0,2.0,3.0,2.7175,0.1979885422857631,-0.07365569113386261,0.947400816911527,-0.010330937733734582,-0.283681,-22.571265
11.185,2.0,1.0,1.0,33.5,34.0,34.0,2.0,3.0,2.72,0.18464444527654922,-0.07558242938479791,0.9491059926448135,-0.011746061251752869,-0.292368,-22.327941
11.185,2.0,1.0,1.0,33.5,34.0,34.0,2.0,3.0,2.7225,0.17109040532321246,-0.07756916606804305,0.9506100143555161,-0.013254208297619145,-0.301503,-22.081235
11.185,2.0,1.0,1.0,33.5,34.0,34.0,2.0,3.0,2.725,0.15732272587270604,-0.07961783081252145,0.951902119793768,-0.014862138581488086,-0.311119,-21.83104
11.185,2.0,1.0,1.0,33.5,34.0,34.0,2.0,3.0,2.7275,0.1433376995326855,-0.08173035973796958,0.9529708168627453,-0.016577192502612022,-0.32125,-21.577244
11.185,2.0,1.0,1.0,33.5,34.0,34.0,2.0,3.0,2.73,0.129131624267098,-0.08390868083478051,0.9538038191688863,-0.018407349195464193,-0.331936,-21.319732
11.185,2.0,1.0,1.0,33.5,34.0,34.0,2.0,3.0,2.7325,0.11470082334551736,-0.0861546957350404,0.9543879746858396,-0.020361291113799716,-0.343221,-21.058383
11.185,2.0,1.0,1.0,33.5,34.0,34.0,2.0,3.0,2.735,0.10004166982352593,-0.08847025711100084,0.9547091867116119,-0.022448475947251984,-0.35515,-20.79307
11.185,2.0,1.0,1.0,33.5,34.0,34.0,2.0,3.0,2.7375,0.08515061649545336,-0.09085714077493667,0.95475232619883,-0.024679216762060033,-0.367778,-20.523661
11.185,2.0,1.0,1.0,33.5,34.0,34.0,2.0,3.0,2.74,0.07002423246106092,-0.09331701135614992,0.9545011344283444,-0.027064771364294544,-0.38116,-20.250019
11.185,2.0,1.0,1.0,33.5,34.0,34.0,2.0,3.0,2.7425,0.054659247692524775,-0.09585138018854508,0.9539381148767623,-0.029617442000400496,-0.395361,-19.972
11.185,2.0,1.0,1.0,33.5,34.0,34.0,2.0,3.0,2.745,0.03905260728780921,-0.09846155374539718,0.9530444129994575,-0.032350686635284155,-0.410451,-19.689454
11.185,2.0,1.0,1.0,33.5,34.0,34.0,2.0,3.0,2.7475,0.023201537463995857,-0.10114857059395797,0.951799682513877,-0.03527924318089504,-0.426509,-19.402224
11.185,2.0,1.0,1.0,33.5,34.0,34.0,2.0,3.0,2.75,0.00710362579530327,-0.103913124395564,0.950181936626443,-0.0384192681852468,-0.443622,-19.110147
11.185,2.0,1.0,1.0,33.5,34.0,34.0,2.0,3.0,2.7525,-0.009243081244767372,-0.10675546992732786,0.9481673825052356,-0.04178849162798563,-0.461887,-18.813052
11.185,2.0,1.0,1.0,33.5,34.0,34.0,2.0,3.0,2.755,-0.025839959695084437,-0.10967530842503267,0.9457302371677979,-0.04540638959586884,-0.481414,-18.510763
11.185,2.0,1.0,1.0,33.5,34.0,34.0,2.0,3.0,2.7575,-0.04268766388938867,-0.11267164771346806,0.9428425228413833,-0.049294376717466885,-0.502323,-18.203093
11.185,2.0,1.0,1.0,33.5,34.0,34.0,2.0,3.0,2.76,-0.05978595098999051,-0.11574263156305409,0.939473839780229,-0.05347602030245656,-0.524754,-17.889852
11.185,2.0,1.0,1.0,33.5,34.0,34.0,2.0,3.0,2.7625,-0.07713346737482472,-0.11888533144466741,0.9355911145184106,-0.057977278129684826,-0.548859,-17.570839
11.185,2.0,1.0,1.0,33.5,34.0,34.0,2.0,3.0,2.765,-0.09472748840374771,-0.1220954922923527,0.9311583216375299,-0.0628267617198375,-0.574815,-17.245847
11.185,2.0,1.0,1.0,33.5,34.0,34.0,2.0,3.0,2.7675,-0.11256360114759033,-0.12536722195847722,0.926136177393562,-0.06805602665551745,-0.602817,-16.914663
11.185,2.0,1.0,1.0,33.5,34.0,34.0,2.0,3.0,2.77,-0.1306353172729166,-0.1286926116767189,0.9204818040594552,-0.07369989099136577,-0.633092,-16.577064
11.185,2.0,1.0,1.0,33.5,34.0,34.0,2.0,3.0,2.7725,-0.14893360033971034,-0.13206127193912082,0.9141483647174196,-0.07979678191208216,-0.665894,-16.232825
11.185,2.0,1.0,1.0,33.5,34.0,34.0,2.0,3.0,2.775,-0.16744628817633228,-0.13545976463352763,0.9070846696445127,-0.08638910938045646,-0.701517,-15.881712
11.185,2.0,1.0,1.0,33.5,34.0,34.0,2.0,3.0,2.7775,-0.18615738662083267,-0.138870907953368,0.8992347576129152,-0.0935236633361165,-0.740294,-15.523489
11.185,2.0,1.0,1.0,33.5,34.0,34.0,2.0,3.0,2.78,-0.20504620562788456,-0.1422729253526639,0.890537458703348,-0.10125202772941688,-0.78261,-15.157919
11.185,2.0,1.0,1.0,33.5,34.0,34.0,2.0,3.0,2.7825,-0.22408630241037775,-0.14563840355160773,0.880925950068804,-0.10963099984399559,-0.828911,-14.784762
11.185,2.0,1.0,1.0,33.5,34.0,34.0,2.0,3.0,2.785,-0.24324418882042698,-0.14893301721072974,0.8703273231278216,-0.11872299633843453,-0.879707,-14.403783
11.185,2.0,1.0,1.0,33.5,34.0,34.0,2.0,3.0,2.7875,-0.26247775156036357,-0.15211396937146046,0.8586621907959632,-0.12859641734395297,-0.935597,-14.014754
11.185,2.0,1.0,1.0,33.5,34.0,34.0,2.0,3.0,2.79,-0.28173432419296623,-0.15512808725253882,0.8458443777863826,-0.13932592559420634,-0.997274,-13.617461
11.185,2.0,1.0,1.0,33.5,34.0,34.0,2.0,3.0,2.7925,-0.3009483397246723,-0.15790950292980388,0.831780757348348,-0.15099257732407542,-1.06555,-13.211706
11.185,2.0,1.0,1.0,33.5,34.0,34.0,2.0,3.0,2.795,-0.3200384827067946,-0.16037683875143824,0.8163713262113951,-0.16368371342868637,-1.141376,-12.797324
11.185,2.0,1.0,1.0,33.5,34.0,34.0,2.0,3.0,2.7975,-0.33890425212898934,-0.1624298098382273,0.7995096487251164,-0.17749248038220264,-1.225873,-12.374188
11.185,2.0,1.0,1.0,33.5,34.0,34.0,2.0,3.0,2.8,-0.3574218440412351,-0.16394515385062347,0.781083854651239,-0.19251679728871146,-1.320364,-11.942224
11.185,2.0,1.0,1.0,33.5,34.0,34.0,2.0,3.0,2.8025,-0.37543927119123055,-0.16477180670145591,0.7609784467507871,-0.20885751424011673,-1.426417,-11.501434
11.185,2.0,1.0,1.0,33.5,34.0,34.0,2.0,3.0,2.805,-0.39277066469687166,-0.16472527069960835,0.7390772683216638,-0.22661541383133804,-1.545894,-11.051914
11.185,2.0,1.0,1.0,33.5,34.0,34.0,2.0,3.0,2.8075,-0.4091897634969668,-0.16358118224991705,0.7152681003727299,-0.2458865890956124,-1.681016,-10.593888
11.185,2.0,1.0,1.0,33.5,34.0,34.0,2.0,3.0,2.81,-0.4244227115328037,-0.16106820006364136,0.689449503253648,-0.2667555872404376,-1.834437,-10.12774
11.185,2.0,1.0,1.0,33.5,34.0,34.0,2.0,3.0,2.8125,-0.438140479754874,-0.156860531078512,0.661540681123194,-0.289285546585105,-2.009331,-9.654062
11.185,2.0,1.0,1.0,33.5,34.0,34.0,2.0,3.0,2.815,-0.44995154976720686,-0.15057072926515355,0.6314953079566866,-0.3135043956511778,-2.209502,-9.173706
11.185,2.0,1.0,1.0,33.5,34.0,34.0,2.0,3.0,2.8175,-0.4593959863847943,-0.14174388992357717,0.5993203630275932,-0.33938607606892757,-2.439503,-8.687849
11.185,2.0,1.0,1.0,33.5,34.0,34.0,2.0,3.0,2.82,-0.4659427354892841,-0.12985506629045257,0.5651009910661171,-0.36682578521448855,-2.704774,-8.198067
11.185,2.0,1.0,1.0,33.5,34.0,34.0,2.0,3.0,2.8225,-0.4689929357926622,-0.11431268019053802,0.5290320730747919,-0.39560856380436576,-3.011783,-7.70642
11.185,2.0,1.0,1.0,33.5,34.0,34.0,2.0,3.0,2.825,-0.4678931814684325,-0.09447183680932887,0.49145633325677895,-0.4253714111142387,-3.368144,-7.215533
11.185,2.0,1.0,1.0,33.5,34.0,34.0,2.0,3.0,2.8275,-0.4619638152179888,-0.06966258418116872,0.4529071082056071,-0.455560800893881,-3.782678,-6.72869
11.185,2.0,1.0,1.0,33.5,34.0,34.0,2.0,3.0,2.83,-0.45054799341566326,-0.039238808387566125,0.4141510586642727,-0.48539029881952106,-4.265313,-6.249889
