1,w,sub_t,h,l1,l2,l3,g1,g2,Freq,S11_re,S21_re,S11_img,S21_img,S11_dB,S21_dB
11.185,2.0,1.0,1.0,34.0,33.8,33.8,4.3,4.1,2.5,0.788446126685052,-0.00588965946515435,0.604103661018134,0.00248528577840488,-0.058639,-43.886513
11.185,2.0,1.0,1.0,34.0,33.8,33.8,4.3,4.1,2.5025,0.7840175644073473,-0.00598838354375538,0.6097390447887551,0.0024682259069593784,-0.059182,-43.772383
11.185,2.0,1.0,1.0,34.0,33.8,33.8,4.3,4.1,2.505,0.7795277846569297,-0.006088469952360903,0.6153669056509538,0.00245003260524119,-0.059734,-43.658037
11.185,2.0,1.0,1.0,34.0,33.8,33.8,4.3,4.1,2.5075,0.7749762057533901,-0.00618993719414721,0.620986814324144,0.0024306729758080074,-0.060294,-43.54347
11.185,2.0,1.0,1.0,34.0,33.8,33.8,4.3,4.1,2.51,0.7703622388661403,-0.0062928040209616395,0.6265983295769398,0.002410113143884517,-0.060863,-43.428674
11.185,2.0,1.0,1.0,34.0,33.8,33.8,4.3,4.1,2.5125,0.7656852879793059,-0.006397089434581261,0.6322009978848548,0.0023883182249576874,-0.061442,-43.313642
11.185,2.0,1.0,1.0,34.0,33.8,33.8,4.3,4.1,2.515,0.7609447498596892,-0.006502812687827548,0.6377943530784627,0.0023652522911688564,-0.06203,-43.198369
11.185,2.0,1.0,1.0,34.0,33.8,33.8,4.3,4.1,2.5175,0.7561400140280228,-0.0066099932855254,0.6433779159817394,0.0023408783364514615,-0.062628,-43.082846
11.185,2.0,1.0,1.0,34.0,33.8,33.8,4.3,4.1,2.52,0.7512704627337334,-0.006718650985294704,0.6489511940403487,0.0023151582403611597,-0.063236,-42.967067
11.185,2.0,1.0,1.0,34.0,33.8,33.8,4.3,4.1,2.5225,0.7463354709334665,-0.006828805798161353,0.6545136809395666,0.0022880527305424348,-0.063853,-42.851024
11.185,2.0,1.0,1.0,34.0,33.8,33.8,4.3,4.1,2.525,0.7413344062736076,-0.006940477988974292,0.6600648562115938,0.0022595213437725755,-0.064481,-42.734711
11.185,2.0,1.0,1.0,34.0,33.8,33.8,4.3,4.1,2.5275,0.7362666290770673,-0.0070536880766143535,0.6656041848319638,0.002229522385521358,-0.06512,-42.61812
11.185,2.0,1.0,1.0,34.0,33.8,33.8,4.3,4.1,2.53,0.7311314923346105,-0.007168456833979135,0.6711311168047459,0.0021980128879615793,-0.065769,-42.501243
11.185,2.0,1.0,1.0,34.0,33.8,33.8,4.3,4.1,2.5325,0.7259283417010106,-0.007284805287728311,0.6766450867362584,0.0021649485663620543,-0.066429,-42.384075
11.185,2.0,1.0,1.0,34.0,33.8,33.8,4.3,4.1,2.535,0.7206565154963319,-0.007402754717771854,0.6821455133969813,0.002130283773791269,-0.0671,-42.266606
11.185,2.0,1.0,1.0,34.0,33.8,33.8,4.3,4.1,2.5375,0.7153153447126677,-0.007522326656483079,0.6876317992713519,0.002093971454056535,-0.067783,-42.14883
11.185,2.0,1.0,1.0,34.0,33.8,33.8,4.3,4.1,2.54,0.7099041530266518,-0.007643542887617382,0.6931033300951337,0.0020559630927985332,-0.068477,-42.030738
11.185,2.0,1.0,1.0,34.0,33.8,33.8,4.3,4.1,2.5425,0.7044222568181039,-0.007766425444915931,0.6985594743800265,0.0020162086666582093,-0.069184,-41.912324
11.185,2.0,1.0,1.0,34.0,33.8,33.8,4.3,4.1,2.545,0.6988689651951666,-0.007890996610373105,0.703999582925187,0.001974656590427402,-0.069902,-41.793579
11.185,2.0,1.0,1.0,34.0,33.8,33.8,4.3,4.1,2.5475,0.6932435800263268,-0.008017278912144184,0.7094229883153129,0.0019312536620905946,-0.070633,-41.674496
11.185,2.0,1.0,1.0,34.0,33.8,33.8,4.3,4.1,2.55,0.6875453959797061,-0.008145295122069305,0.7148290044049574,0.0018859450056595197,-0.071377,-41.555065
11.185,2.0,1.0,1.0,34.0,33.8,33.8,4.3,4.1,2.5525,0.6817737005700649,-0.00827506825278769,0.7202169257886969,0.0018386740116976346,-0.072134,-41.43528
11.185,2.0,1.0,1.0,34.0,33.8,33.8,4.3,4.1,2.555,0.6759277742139357,-0.008406621554414642,0.7255860272568059,0.0017893822754250297,-0.072904,-41.315132
11.185,2.0,1.0,1.0,34.0,33.8,33.8,4.3,4.1,2.5575,0.6700068902933594,-0.008539978510752387,0.7309355632360642,0.00173800953228863,-0.073687,-41.194613
11.185,2.0,1.0,1.0,34.0,33.8,33.8,4.3,4.1,2.56,0.6640103152287066,-0.008675162835003603,0.7362647672153121,0.0016844935908763416,-0.074485,-41.073714
11.185,2.0,1.0,1.0,34.0,33.8,33.8,4.3,4.1,2.5625,0.657937308561085,-0.00881219846495506,0.741572851155371,0.00162877026304584,-0.075296,-40.952426
11.185,2.0,1.0,1.0,34.0,33.8,33.8,4.3,4.1,2.565,0.6517871230448601,-0.00895110955759632,0.7468590048829389,0.0015707732911325694,-0.076123,-40.830742
11.185,2.0,1.0,1.0,34.0,33.8,33.8,4.3,4.1,2.5675,0.6455590047508473,-0.009091920483136654,0.7521223954680474,0.0015104342720925364,-0.076964,-40.708651
11.185,2.0,1.0,1.0,34.0,33.8,33.8,4.3,4.1,2.57,0.6392521931807473,-0.00923465581838048,0.7573621665846797,0.0014476825784274401,-0.07782,-40.586145
11.185,2.0,1.0,1.0,34.0,33.8,33.8,4.3,4.1,2.5725,0.6328659213934312,-0.009379340339419938,0.762577437854127,0.0013824452757309911,-0.078692,-40.463216
11.185,2.0,1.0,1.0,34.0,33.8,33.8,4.3,4.1,2.575,0.6263994161437032,-0.009525999013599714,0.7677673041706561,0.001314647036684623,-0.07958,-40.339853
11.185,2.0,1.0,1.0,34.0,33.8,33.8,4.3,4.1,2.5775,0.6198518980342077,-0.009674656990706751,0.7729308350090527,0.001244210051321424,-0.080484,-40.216047
11.185,2.0,1.0,1.0,34.0,33.8,33.8,4.3,4.1,2.58,0.6132225816811668,-0.009825339593334797,0.7780670737135928,0.0011710539333655064,-0.081405,-40.091789
11.185,2.0,1.0,1.0,34.0,33.8,33.8,4.3,4.1,2.5825,0.6065106758946646,-0.009978072306369407,0.7831750367679982,0.0010950956224418762,-0.082343,-39.967068
11.185,2.0,1.0,1.0,34.0,33.8,33.8,4.3,4.1,2.585,0.5997153838742407,-0.010132880765537007,0.7882537130459026,0.0010162492819398164,-0.083299,-39.841876
11.185,2.0,1.0,1.0,34.0,33.8,33.8,4.3,4.1,2.5875,0.592835903420566,-0.010289790744956152,0.7933020630413719,0.0009344261922980506,-0.084273,-39.716201
11.185,2.0,1.0,1.0,34.0,33.8,33.8,4.3,4.1,2.59,0.585871427164037,-0.010448828143626429,0.798319018078982,0.0008495346394662181,-0.085265,-39.590034
11.185,2.0,1.0,1.0,34.0,33.8,33.8,4.3,4.1,2.5925,0.5788211428111282,-0.010610018970785501,0.8033034795029831,0.000761479798280527,-0.086275,-39.463364
11.185,2.0,1.0,1.0,34.0,33.8,33.8,4.3,4.1,2.595,0.5716842334094188,-0.010773389330059495,0.8082543178450343,0.0006701636104748498,-0.087305,-39.33618
11.185,2.0,1.0,1.0,34.0,33.8,33.8,4.3,4.1,2.5975,0.5644598776322043,-0.010938965402328136,0.8131703719700146,0.0005754846570297324,-0.088355,-39.208472
11.185,2.0,1.0,1.0,34.0,33.8,33.8,4.3,4.1,2.6,0.55714725008368,-0.01110677342721936,0.8180504481993839,0.0004773380245426252,-0.089425,-39.080228
11.185,2.0,1.0,1.0,34.0,33.8,33.8,4.3,4.1,2.6025,0.549745521625716,-0.011276839683142493,0.8228933194115642,0.00037561516528030115,-0.090516,-38.951436
11.185,2.0,1.0,1.0,34.0,33.8,33.8,4.3,4.1,2.605,0.5422538597272696,-0.011449190465763178,0.8276977241188074,0.0002702037505526204,-0.091628,-38.822086
11.185,2.0,1.0,1.0,34.0,33.8,33.8,4.3,4.1,2.6075,0.5346714288375534,-0.01162385206481497,0.832462365519989,0.00016098751702055638,-0.092763,-38.692166
11.185,2.0,1.0,1.0,34.0,33.8,33.8,4.3,4.1,2.61,0.5269973907841068,-0.011800850739136483,0.8371859105287718,4.7846105525779835e-05,-0.093919,-38.561662
11.185,2.0,1.0,1.0,34.0,33.8,33.8,4.3,4.1,2.6125,0.519230905196972,-0.011980212689813344,0.8418669887765587,-6.934510800073357e-05,-0.095099,-38.430564
11.185,2.0,1.0,1.0,34.0,33.8,33.8,4.3,4.1,2.615,0.5113711299602228,-0.012161964031296098,0.8465041915896487,-0.0001907151900250897,-0.096302,-38.298858
11.185,2.0,1.0,1.0,34.0,33.8,33.8,4.3,4.1,2.6175,0.5034172216921607,-0.01234613076035485,0.8510960709399864,-0.00031639783579932173,-0.097529,-38.166531
11.185,2.0,1.0,1.0,34.0,33.8,33.8,4.3,4.1,2.62,0.4953683362555309,-0.012532738722721076,0.8556411383688911,-0.00044653156519770104,-0.098781,-38.033571
11.185,2.0,1.0,1.0,34.0,33.8,33.8,4.3,4.1,2.6225,0.4872236292991712,-0.012721813577255306,0.8601378638831297,-0.0005812599285851501,-0.100059,-37.899963
11.185,2.0,1.0,1.0,34.0,33.8,33.8,4.3,4.1,2.625,0.478982256832587,-0.0129133807574665,0.864584674822669,-0.000720731723346042,-0.101363,-37.765693
11.185,2.0,1.0,1.0,34.0,33.8,33.8,4.3,4.1,2.6275,0.4706433758349663,-0.013107465430194816,0.8689799546994502,-0.0008651012217488897,-0.102693,-37.630748
11.185,2.0,1.0,1.0,34.0,33.8,33.8,4.3,4.1,2.63,0.4622061449002529,-0.01330409245125475,0.8733220420064783,-0.0010145284108731365,-0.104052,-37.495113
11.185,2.0,1.0,1.0,34.0,33.8,33.8,4.3,4.1,2.6325,0.45366972491993546,-0.013503286317818103,0.877609228996513,-0.001169179245381164,-0.105439,-37.358773
11.185,2.0,1.0,1.0,34.0,33.8,33.8,4.3,4.1,2.635,0.4450332798052934,-0.013705071117298023,0.881839760429614,-0.0013292259139780244,-0.106855,-37.221713
11.185,2.0,1.0,1.0,34.0,33.8,33.8,4.3,4.1,2.6375,0.4362959772509143,-0.013909470472474844,0.8860118322887701,-0.0014948471204685168,-0.108301,-37.083916
11.185,2.0,1.0,1.0,34.0,33.8,33.8,4.3,4.1,2.64,0.42745698954134215,-0.014116507482582563,0.890123590462806,-0.0016662283803930654,-0.109778,-36.945366
11.185,2.0,1.0,1.0,34.0,33.8,33.8,4.3,4.1,2.6425,0.41851549440284513,-0.01432620466004913,0.8941731293957241,-0.001843562334302361,-0.111287,-36.806048
11.185,2.0,1.0,1.0,34.0,33.8,33.8,4.3,4.1,2.645,0.40947067590232306,-0.01453858386255673,0.8981584907016035,-0.002027049078817025,-0.112828,-36.665943
11.185,2.0,1.0,1.0,34.0,33.8,33.8,4.3,4.1,2.6475,0.40032172539549676,-0.014753666220058291,0.9020776617441245,-0.002216896516711967,-0.114403,-36.525035
11.185,2.0,1.0,1.0,34.0,33.8,33.8,4.3,4.1,2.65,0.39106784252656784,-0.014971472056352263,0.9059285741797536,-0.0024133207273688306,-0.116013,-36.383305
11.185,2.0,1.0,1.0,34.0,33.8,33.8,4.3,4.1,2.6525,0.38170823628169553,-0.015192020804780304,0.9097091024635388,-0.0026165463590510423,-0.117658,-36.240735
11.185,2.0,1.0,1.0,34.0,33.8,33.8,4.3,4.1,2.655,0.37224212609865087,-0.01541533091757183,0.9134170623164343,-0.0028268070445804337,-0.119341,-36.097305
11.185,2.0,1.0,1.0,34.0,33.8,33.8,4.3,4.1,2.6575,0.36266874303518176,-0.015641419768312338,0.9170502091529777,-0.0030443458421291537,-0.121061,-35.952996
11.185,2.0,1.0,1.0,34.0,33.8,33.8,4.3,4.1,2.66,0.3529873309986841,-0.01587030354696144,0.920606236468067,-0.003269415702988858,-0.12282,-35.807787
11.185,2.0,1.0,1.0,34.0,33.8,33.8,4.3,4.1,2.6625,0.34319714803991996,-0.016101997146789105,0.9240827741814958,-0.0035022799683416825,-0.124619,-35.661657
11.185,2.0,1.0,1.0,34.0,33.8,33.8,4.3,4.1,2.665,0.33329746771359786,-0.016336514042534292,0.9274773869387999,-0.0037432128972381897,-0.126459,-35.514586
11.185,2.0,1.0,1.0,34.0,33.8,33.8,4.3,4.1,2.6675,0.3232875805088143,-0.01657386615901802,0.9307875723668426,-0.00399250022818276,-0.128343,-35.366549
11.185,2.0,1.0,1.0,34.0,33.8,33.8,4.3,4.1,2.67,0.31316679535243563,-0.016814063729363525,0.9340107592824379,-0.0042504397769451705,-0.13027,-35.217525
11.185,2.0,1.0,1.0,34.0,33.8,33.8,4.3,4.1,2.6725,0.30293444118866664,-0.017057115141884495,0.937144305852161,-0.004517342073456869,-0.132244,-35.06749
11.185,2.0,1.0,1.0,34.0,33.8,33.8,4.3,4.1,2.675,0.292589868638208,-0.017303026774601816,0.9401854977013083,-0.004793531040913236,-0.134264,-34.916418
11.185,2.0,1.0,1.0,34.0,33.8,33.8,4.3,4.1,2.6775,0.28213245174055446,-0.017551802816234325,0.9431315459697868,-0.005079344720496478,-0.136333,-34.764284
11.185,2.0,1.0,1.0,34.0,33.8,33.8,4.3,4.1,2.68,0.27156158978316236,-0.01780344507238166,0.9459795853124818,-0.005375136045455412,-0.138452,-34.611063
11.185,2.0,1.0,1.0,34.0,33.8,33.8,4.3,4.1,2.6825,0.26087670922141476,-0.01805795275546958,0.948726671841398,-0.0056812736686356,-0.140623,-34.456726
11.185,2.0,1.0,1.0,34.0,33.8,33.8,4.3,4.1,2.685,0.2500772656935036,-0.01831532225686741,0.9513697810065812,-0.0059981428479492045,-0.142848,-34.301245
11.185,2.0,1.0,1.0,34.0,33.8,33.8,4.3,4.1,2.6875,0.239162746134573,-0.0185755468993984,0.953905805412503,-0.00632614639471171,-0.145129,-34.144591
11.185,2.0,1.0,1.0,34.0,33.8,33.8,4.3,4.1,2.69,0.22813267099473356,-0.01883861666825495,0.9563315525662122,-0.00666570569025947,-0.147467,-33.986734
11.185,2.0,1.0,1.0,34.0,33.8,33.8,4.3,4.1,2.6925,0.21698659656577865,-0.019104517918092114,0.9586437425531417,-0.007017261776803718,-0.149865,-33.827641
11.185,2.0,1.0,1.0,34.0,33.8,33.8,4.3,4.1,2.695,0.20572411742179852,-0.0193732330537999,0.9608390056359698,-0.00738127652907603,-0.152324,-33.667281
11.185,2.0,1.0,1.0,34.0,33.8,33.8,4.3,4.1,2.6975,0.19434486897913067,-0.019644740182147378,0.9629138797713989,-0.007758233913992302,-0.154848,-33.505619
11.185,2.0,1.0,1.0,34.0,33.8,33.8,4.3,4.1,2.7,0.18284853018154293,-0.019919012731139513,0.9648648080390847,-0.008148641346306449,-0.157438,-33.34262
11.185,2.0,1.0,1.0,34.0,33.8,33.8,4.3,4.1,2.7025,0.1712348263168694,-0.020196019033524314,0.9666881359762494,-0.008553031149059401,-0.160098,-33.178247
11.185,2.0,1.0,1.0,34.0,33.8,33.8,4.3,4.1,2.705,0.15950353197184433,-0.0204757218704307,0.9683801088107032,-0.008971962128558395,-0.162829,-33.012461
11.185,2.0,1.0,1.0,34.0,33.8,33.8,4.3,4.1,2.7075,0.14765447413235558,-0.020758077970589504,0.969936868584098,-0.009406021274662144,-0.165634,-32.845223
11.185,2.0,1.0,1.0,34.0,33.8,33.8,4.3,4.1,2.71,0.13568753543695553,-0.02104303745998901,0.9713544511561826,-0.009855825598312733,-0.168518,-32.676491
11.185,2.0,1.0,1.0,34.0,33.8,33.8,4.3,4.1,2.7125,0.12360265759210484,-0.02133054325612185,0.9726287830796597,-0.010322024119560623,-0.171481,-32.506222
11.185,2.0,1.0,1.0,34.0,33.8,33.8,4.3,4.1,2.715,0.11139984495841884,-0.02162053040018506,0.9737556783338972,-0.01080530002079509,-0.174529,-32.334371
11.185,2.0,1.0,1.0,34.0,33.8,33.8,4.3,4.1,2.7175,0.0990791683180326,-0.021912925319676646,0.9747308349042085,-0.011306372981538873,-0.177664,-32.16089
11.185,2.0,1.0,1.0,34.0,33.8,33.8,4.3,4.1,2.72,0.0866407688342339,-0.022207645012772375,0.9755498311916834,-0.011826001713019525,-0.18089,-31.985731
11.185,2.0,1.0,1.0,34.0,33.8,33.8,4.3,4.1,2.7225,0.0740848622156249,-0.022504596144643237,0.976208122236549,-0.012364986712817487,-0.184211,-31.808842
11.185,2.0,1.0,1.0,34.0,33.8,33.8,4.3,4.1,2.725,0.061411743098482734,-0.022803674044453822,0.9767010357357824,-0.012924173262244688,-0.187631,-31.630168
11.185,2.0,1.0,1.0,34.0,33.8,33.8,4.3,4.1,2.7275,0.0486217896624555,-0.02310476159013992,0.9770237678331054,-0.013504454691769793,-0.191155,-31.449655
11.185,2.0,1.0,1.0,34.0,33.8,33.8,4.3,4.1,2.73,0.03571546849663129,-0.0234077279661488,0.9771713786565345,-0.014106775942811269,-0.194787,-31.267243
11.185,2.0,1.0,1.0,34.0,33.8,33.8,4.3,4.1,2.7325,0.02269333973503549,-0.023712427277101263,0.9771387875752914,-0.014732137457629864,-0.198533,-31.082869
11.185,2.0,1.0,1.0,34.0,33.8,33.8,4.3,4.1,2.735,0.009556062483162696,-0.024018696997737506,0.97692076814401,-0.015381599432914518,-0.202398,-30.89647
11.185,2.0,1.0,1.0,34.0,33.8,33.8,4.3,4.1,2.7375,-0.003695599440032676,-0.02432635623647366,0.9765119426977743,-0.01605628647704475,-0.206387,-30.707978
11.185,2.0,1.0,1.0,34.0,33.8,33.8,4.3,4.1,2.74,-0.017060771416802813,-0.024635203786338718,0.9759067765564508,-0.01675739271600526,-0.210506,-30.517321
11.185,2.0,1.0,1.0,34.0,33.8,33.8,4.3,4.1,2.7425,-0.03053846157009777,-0.024945015932893243,0.9750995717910005,-0.017486187398613757,-0.214763,-30.324424
11.185,2.0,1.0,1.0,34.0,33.8,33.8,4.3,4.1,2.745,-0.04412755389127763,-0.02525554398381877,0.9740844604978002,-0.018244021058208167,-0.219164,-30.129209
11.185,2.0,1.0,1.0,34.0,33.8,33.8,4.3,4.1,2.7475,-0.057826800913872455,-0.02556651147908662,0.9728553975193814,-0.01903233229534955,-0.223717,-29.931592
11.185,2.0,1.0,1.0,34.0,33.8,33.8,4.3,4.1,2.75,-0.0716348158845787,-0.0258776110337781,0.971406152541214,-0.0198526552545732,-0.22843,-29.731487
11.185,2.0,1.0,1.0,34.0,33.8,33.8,4.3,4.1,2.7525,-0.08555006437478657,-0.026188500757536613,0.9697303014840992,-0.02070662787793353,-0.233311,-29.528802
11.185,2.0,1.0,1.0,34.0,33.8,33.8,4.3,4.1,2.755,-0.09957085526651768,-0.026498800185027073,0.9678212171000876,-0.021596001029232176,-0.23837,-29.323439
11.185,2.0,1.0,1.0,34.0,33.8,33.8,4.3,4.1,2.7575,-0.11369533103547652,-0.026808085640347656,0.9656720586664758,-0.022522648595632536,-0.243618,-29.115297
11.185,2.0,1.0,1.0,34.0,33.8,33.8,4.3,4.1,2.76,-0.1279214572403865,-0.027115884944703645,0.9632757606569586,-0.02348857868810133,-0.249065,-28.904267
11.185,2.0,1.0,1.0,34.0,33.8,33.8,4.3,4.1,2.7625,-0.14224701111173446,-0.02742167136034287,0.9606250202511588,-0.024495946079118525,-0.254724,-28.690235
11.185,2.0,1.0,1.0,34.0,33.8,33.8,4.3,4.1,2.765,-0.15666956911355037,-0.027724856644192716,0.9577122835230976,-0.025547066035709987,-0.260606,-28.473081
11.185,2.0,1.0,1.0,34.0,33.8,33.8,4.3,4.1,2.7675,-0.17118649332846236,-0.028024783061110153,0.954529730125239,-0.026644429728540392,-0.266727,-28.252676
11.185,2.0,1.0,1.0,34.0,33.8,33.8,4.3,4.1,2.77,-0.1857949164879174,-0.02832071417827865,0.9510692562569919,-0.02779072142405532,-0.273101,-28.028885
11.185,2.0,1.0,1.0,34.0,33.8,33.8,4.3,4.1,2.7725,-0.2004917254350567,-0.028611824227953418,0.9473224556743742,-0.02898883769709217,-0.279746,-27.801564
11.185,2.0,1.0,1.0,34.0,33.8,33.8,4.3,4.1,2.775,-0.21527354276592772,-0.0288971857840872,0.9432805984601039,-0.030241908936695143,-0.28668,-27.570562
11.185,2.0,1.0,1.0,34.0,33.8,33.8,4.3,4.1,2.7775,-0.23013670634365863,-0.029175755447645595,0.938934607229913,-0.03155332345889422,-0.293923,-27.335715
11.185,2.0,1.0,1.0,34.0,33.8,33.8,4.3,4.1,2.78,-0.24507724631778557,-0.029446357173454403,0.9342750304002213,-0.03292675458791874,-0.301497,-27.096851
11.185,2.0,1.0,1.0,34.0,33.8,33.8,4.3,4.1,2.7825,-0.2600908592041514,-0.02970766279547935,0.9292920120833701,-0.034366191122824394,-0.309426,-26.853786
11.185,2.0,1.0,1.0,34.0,33.8,33.8,4.3,4.1,2.785,-0.27517287848640626,-0.0299581692140257,0.9239752581078983,-0.035875971671150454,-0.317738,-26.606326
11.185,2.0,1.0,1.0,34.0,33.8,33.8,4.3,4.1,2.7875,-0.29031824108319115,-0.03019617159303361,0.9183139975813392,-0.03746082340646139,-0.326462,-26.354261
11.185,2.0,1.0,1.0,34.0,33.8,33.8,4.3,4.1,2.79,-0.3055214488802497,-0.030419731772758755,0.9122969393197597,-0.03912590589421985,-0.33563,-26.097369
11.185,2.0,1.0,1.0,34.0,33.8,33.8,4.3,4.1,2.7925,-0.3207765243461078,-0.03062664092538985,0.9059122223597789,-0.040876860732275935,-0.345281,-25.835411
11.185,2.0,1.0,1.0,34.0,33.8,33.8,4.3,4.1,2.795,-0.33607695902438606,-0.03081437525917272,0.8991473596426957,-0.0427198678705064,-0.355453,-25.568133
11.185,2.0,1.0,1.0,34.0,33.8,33.8,4.3,4.1,2.7975,-0.3514156534124139,-0.030980043298227067,0.8919891738141872,-0.044661709611025356,-0.366194,-25.295261
11.185,2.0,1.0,1.0,34.0,33.8,33.8,4.3,4.1,2.8,-0.36678484637890246,-0.031120322914641157,0.8844237239141542,-0.04670984344827563,-0.377555,-25.016503
11.185,2.0,1.0,1.0,34.0,33.8,33.8,4.3,4.1,2.8025,-0.38217603182136184,-0.031231385845930194,0.8764362215373329,-0.04887248508928403,-0.389593,-24.731544
11.185,2.0,1.0,1.0,34.0,33.8,33.8,4.3,4.1,2.805,-0.3975798596892954,-0.03130880686741012,0.868010934824166,-0.05115870320006934,-0.402373,-24.440047
11.185,2.0,1.0,1.0,34.0,33.8,33.8,4.3,4.1,2.8075,-0.4129860177651945,-0.031347454069664785,0.8591310783922451,-0.05357852765508897,-0.415968,-24.141648
11.185,2.0,1.0,1.0,34.0,33.8,33.8,4.3,4.1,2.81,-0.4283830896533727,-0.031341355768615416,0.8497786870425401,-0.05614307332100411,-0.430464,-23.835954
11.185,2.0,1.0,1.0,34.0,33.8,33.8,4.3,4.1,2.8125,-0.443758383212011,-0.0312835383865767,0.83993447077649,-0.0588646816784514,-0.445954,-23.522542
11.185,2.0,1.0,1.0,34.0,33.8,33.8,4.3,4.1,2.815,-0.459097722089999,-0.031165828102601704,0.8295776483510354,-0.061757082863961574,-0.462549,-23.200957
11.185,2.0,1.0,1.0,34.0,33.8,33.8,4.3,4.1,2.8175,-0.47438519098060644,-0.030978607065891516,0.8186857563008724,-0.06483558097588461,-0.480374,-22.870704
11.185,2.0,1.0,1.0,34.0,33.8,33.8,4.3,4.1,2.82,-0.48960282252193527,-0.03071051234397738,0.8072344301101967,-0.06811726569270297,-0.499574,-22.531248
11.185,2.0,1.0,1.0,34.0,33.8,33.8,4.3,4.1,2.8225,-0.5047302102465437,-0.030348062330498898,0.795197154088551,-0.07162125333012806,-0.520318,-22.182009
11.185,2.0,1.0,1.0,34.0,33.8,33.8,4.3,4.1,2.825,-0.51974402732051,-0.029875190784198456,0.7825449766125874,-0.07536896029887594,-0.542801,-21.822359
11.185,2.0,1.0,1.0,34.0,33.8,33.8,4.3,4.1,2.8275,-0.5346174246216463,-0.029272662628005763,0.7692461879292654,-0.07938441132647729,-0.567254,-21.451614
