1,w,sub_t,h,l1,l2,l3,g1,g2,Freq,S11_re,S21_re,S11_img,S21_img,S11_dB,S21_dB
11.185,2.0,1.0,1.0,33.3,33.0,33.0,3.4,3.3,2.5,0.870781142446573,-0.00521032479099683,0.479965317952025,0.00424304700391226,-0.049678,-43.453333
11.185,2.0,1.0,1.0,33.3,33.0,33.0,3.4,3.3,2.5025,0.8676733683529929,-0.0053113179201845105,0.48546537642058507,0.004258797434921246,-0.050085,-43.339741
11.185,2.0,1.0,1.0,33.3,33.0,33.0,3.4,3.3,2.505,0.864518395532944,-0.005413914713425501,0.4909657705324161,0.004273980584867942,-0.050499,-43.225995
11.185,2.0,1.0,1.0,33.3,33.0,33.0,3.4,3.3,2.5075,0.861315793438007,-0.0055181417202825895,0.4964663080861134,0.004288575386721185,-0.05092,-43.112086
11.185,2.0,1.0,1.0,33.3,33.0,33.0,3.4,3.3,2.51,0.8580651249871545,-0.00562402602156895,0.5019667912925455,0.0043025600962386485,-0.051348,-42.99801
11.185,2.0,1.0,1.0,33.3,33.0,33.0,3.4,3.3,2.5125,0.8547659464723659,-0.005731595241084015,0.5074670165983175,0.004315912268147136,-0.051782,-42.883759
11.185,2.0,1.0,1.0,33.3,33.0,33.0,3.4,3.3,2.515,0.8514178074634149,-0.005840877557616542,0.5129667745038154,0.004328608731408299,-0.052223,-42.769328
11.185,2.0,1.0,1.0,33.3,33.0,33.0,3.4,3.3,2.5175,0.848020250711872,-0.005951901717204178,0.5184658493756419,0.004340625563534773,-0.052672,-42.654709
11.185,2.0,1.0,1.0,33.3,33.0,33.0,3.4,3.3,2.52,0.8445728120543323,-0.0060646970456700085,0.5239640192532785,0.00435193806391348,-0.053127,-42.539896
11.185,2.0,1.0,1.0,33.3,33.0,33.0,3.4,3.3,2.5225,0.8410750203149253,-0.006179293461429383,0.5294610556497674,0.004362520726096583,-0.05359,-42.424882
11.185,2.0,1.0,1.0,33.3,33.0,33.0,3.4,3.3,2.525,0.837526397207124,-0.006295721488577221,0.5349567233462426,0.004372347209012032,-0.054061,-42.30966
11.185,2.0,1.0,1.0,33.3,33.0,33.0,3.4,3.3,2.5275,0.8339264572349017,-0.006414012270264888,0.5404507801800978,0.004381390307054319,-0.054539,-42.194225
11.185,2.0,1.0,1.0,33.3,33.0,33.0,3.4,3.3,2.53,0.830274707593281,-0.006534197582357648,0.5459429768265889,0.00438962191899471,-0.055026,-42.078569
11.185,2.0,1.0,1.0,33.3,33.0,33.0,3.4,3.3,2.5325,0.8265706480683176,-0.0066563098473952885,0.5514330565736579,0.00439701301567792,-0.05552,-41.962686
11.185,2.0,1.0,1.0,33.3,33.0,33.0,3.4,3.3,2.535,0.8228137709365686,-0.006780382148850023,0.5569207550897627,0.004403533606440369,-0.056022,-41.846568
11.185,2.0,1.0,1.0,33.3,33.0,33.0,3.4,3.3,2.5375,0.8190035608641103,-0.0069064482456847286,0.5624058001844774,0.004409152704190351,-0.056533,-41.730209
11.185,2.0,1.0,1.0,33.3,33.0,33.0,3.4,3.3,2.54,0.8151394948051504,-0.007034542587223906,0.5678879115616342,0.00441383828910219,-0.057053,-41.613602
11.185,2.0,1.0,1.0,33.3,33.0,33.0,3.4,3.3,2.5425,0.811221041900307,-0.007164700328338175,0.5733668005647655,0.004417557270860822,-0.057581,-41.49674
11.185,2.0,1.0,1.0,33.3,33.0,33.0,3.4,3.3,2.545,0.8072476633746218,-0.007296957344945714,0.5788421699145915,0.004420275449389023,-0.058118,-41.379616
11.185,2.0,1.0,1.0,33.3,33.0,33.0,3.4,3.3,2.5475,0.8032188124353807,-0.0074313502498308485,0.5843137134382891,0.004421957473986485,-0.058664,-41.262222
11.185,2.0,1.0,1.0,33.3,33.0,33.0,3.4,3.3,2.55,0.7991339341698165,-0.007567916408801576,0.5897811157902908,0.004422566800825406,-0.059219,-41.144553
11.185,2.0,1.0,1.0,33.3,33.0,33.0,3.4,3.3,2.5525,0.7949924654427883,-0.007706693957161425,0.59524405216431,0.0044220656487045,-0.059784,-41.0266
11.185,2.0,1.0,1.0,33.3,33.0,33.0,3.4,3.3,2.555,0.7907938347945189,-0.007847721816530111,0.6007021879963271,0.0044204149530103,-0.060359,-40.908356
11.185,2.0,1.0,1.0,33.3,33.0,33.0,3.4,3.3,2.5575,0.7865374623384893,-0.007991039711990182,0.6061551786582356,0.004417574317783025,-0.060943,-40.789815
11.185,2.0,1.0,1.0,33.3,33.0,33.0,3.4,3.3,2.56,0.7822227596595993,-0.008136688189580209,0.6116026691418289,0.00441350196580266,-0.061538,-40.670967
11.185,2.0,1.0,1.0,33.3,33.0,33.0,3.4,3.3,2.5625,0.7778491297126997,-0.008284708634128791,0.6170442937328225,0.004408154686624053,-0.062143,-40.551808
11.185,2.0,1.0,1.0,33.3,33.0,33.0,3.4,3.3,2.565,0.7734159667216141,-0.008435143287437169,0.6224796756745821,0.004401487782445065,-0.062759,-40.432327
11.185,2.0,1.0,1.0,33.3,33.0,33.0,3.4,3.3,2.5675,0.7689226560787841,-0.008588035266803904,0.6279084268212062,0.00439345501171041,-0.063385,-40.312519
11.185,2.0,1.0,1.0,33.3,33.0,33.0,3.4,3.3,2.57,0.7643685742456637,-0.008743428583906084,0.6333301472796252,0.004384008530357252,-0.064023,-40.192375
11.185,2.0,1.0,1.0,33.3,33.0,33.0,3.4,3.3,2.5725,0.7597530886540118,-0.008901368164024695,0.6387444250403462,0.004373098830585544,-0.064671,-40.071888
11.185,2.0,1.0,1.0,33.3,33.0,33.0,3.4,3.3,2.575,0.7550755576082329,-0.00906189986562545,0.6441508355964666,0.004360674677032654,-0.065332,-39.951049
11.185,2.0,1.0,1.0,33.3,33.0,33.0,3.4,3.3,2.5775,0.7503353301889305,-0.009225070500285586,0.6495489415505689,0.004346683040233126,-0.066004,-39.829851
11.185,2.0,1.0,1.0,33.3,33.0,33.0,3.4,3.3,2.58,0.7455317461578482,-0.00939092785297651,0.6549382922090891,0.004331069027243799,-0.066688,-39.708286
11.185,2.0,1.0,1.0,33.3,33.0,33.0,3.4,3.3,2.5825,0.7406641358643768,-0.009559520702687138,0.6603184231637483,0.004313775809271558,-0.067385,-39.586346
11.185,2.0,1.0,1.0,33.3,33.0,33.0,3.4,3.3,2.585,0.7357318201538308,-0.009730898843399843,0.6656888558596069,0.004294744546199867,-0.068094,-39.464022
11.185,2.0,1.0,1.0,33.3,33.0,33.0,3.4,3.3,2.5875,0.7307341102776919,-0.009905113105404083,0.6710490971493026,0.004273914307825799,-0.068817,-39.341306
11.185,2.0,1.0,1.0,33.3,33.0,33.0,3.4,3.3,2.59,0.7256703078060525,-0.01008221537694671,0.6763986388329997,0.0042512219916662165,-0.069552,-39.218189
11.185,2.0,1.0,1.0,33.3,33.0,33.0,3.4,3.3,2.5925,0.7205397045424802,-0.010262258626222088,0.6817369571835811,0.004226602237175874,-0.070302,-39.094664
11.185,2.0,1.0,1.0,33.3,33.0,33.0,3.4,3.3,2.595,0.7153415824415683,-0.01044529692367364,0.6870635124565714,0.004199987336162023,-0.071065,-38.970722
11.185,2.0,1.0,1.0,33.3,33.0,33.0,3.4,3.3,2.5975,0.7100752135294162,-0.01063138546462812,0.6923777483842927,0.00417130713926332,-0.071842,-38.846353
11.185,2.0,1.0,1.0,33.3,33.0,33.0,3.4,3.3,2.6,0.7047398598273349,-0.01082058059221942,0.6976790916537121,0.0041404889582401915,-0.072634,-38.721549
11.185,2.0,1.0,1.0,33.3,33.0,33.0,3.4,3.3,2.6025,0.699334773279069,-0.011012939820622805,0.7029669513674252,0.004107457463910049,-0.073441,-38.596301
11.185,2.0,1.0,1.0,33.3,33.0,33.0,3.4,3.3,2.605,0.6938591956818435,-0.01120852185855766,0.7082407184872133,0.004072134579481642,-0.074264,-38.4706
11.185,2.0,1.0,1.0,33.3,33.0,33.0,3.4,3.3,2.6075,0.6883123586215784,-0.011407386633071035,0.7134997652595764,0.004034439369071094,-0.075102,-38.344436
11.185,2.0,1.0,1.0,33.3,33.0,33.0,3.4,3.3,2.61,0.6826934834126156,-0.011609595313550979,0.718743444622624,0.003994287921135985,-0.075956,-38.2178
11.185,2.0,1.0,1.0,33.3,33.0,33.0,3.4,3.3,2.6125,0.6770017810423351,-0.011815210335987173,0.7239710895936948,0.003951593226591825,-0.076827,-38.090683
11.185,2.0,1.0,1.0,33.3,33.0,33.0,3.4,3.3,2.615,0.6712364521210498,-0.012024295427420194,0.7291820126370434,0.003906265051304832,-0.077714,-37.963075
11.185,2.0,1.0,1.0,33.3,33.0,33.0,3.4,3.3,2.6175,0.6653966868376052,-0.012236915630584114,0.7343755050109034,0.0038582098026961826,-0.078619,-37.834966
11.185,2.0,1.0,1.0,33.3,33.0,33.0,3.4,3.3,2.62,0.6594816649211223,-0.012453137328691806,0.7395508360932243,0.0038073303901275633,-0.079542,-37.706346
11.185,2.0,1.0,1.0,33.3,33.0,33.0,3.4,3.3,2.6225,0.6534905556093434,-0.012673028270335927,0.7447072526853451,0.0037535260787556514,-0.080483,-37.577205
11.185,2.0,1.0,1.0,33.3,33.0,33.0,3.4,3.3,2.625,0.647422517624097,-0.0128966575944809,0.749843978292831,0.00369669233649753,-0.081443,-37.447533
11.185,2.0,1.0,1.0,33.3,33.0,33.0,3.4,3.3,2.6275,0.641276699154379,-0.013124095855487338,0.7549602123826958,0.0036367206737434954,-0.082421,-37.317319
11.185,2.0,1.0,1.0,33.3,33.0,33.0,3.4,3.3,2.63,0.6350522378476234,-0.013355415048134507,0.7600551296161724,0.0035734984754256433,-0.08342,-37.186552
11.185,2.0,1.0,1.0,33.3,33.0,33.0,3.4,3.3,2.6325,0.6287482608097389,-0.013590688632591693,0.7651278790561832,0.0035069088250245023,-0.084439,-37.055223
11.185,2.0,1.0,1.0,33.3,33.0,33.0,3.4,3.3,2.635,0.6223638846145291,-0.013829991559269075,0.7701775833486227,0.003436830320073919,-0.085478,-36.923318
11.185,2.0,1.0,1.0,33.3,33.0,33.0,3.4,3.3,2.6375,0.6158982153231629,-0.014073400293507001,0.7752033378765212,0.0033631368787000833,-0.086539,-36.790829
11.185,2.0,1.0,1.0,33.3,33.0,33.0,3.4,3.3,2.64,0.6093503485143618,-0.014320992840016356,0.7802042098861414,0.003285697536693429,-0.087622,-36.657742
11.185,2.0,1.0,1.0,33.3,33.0,33.0,3.4,3.3,2.6425,0.6027193693260626,-0.014572848767001625,0.785179237584001,0.0032043762345795807,-0.088727,-36.524047
11.185,2.0,1.0,1.0,33.3,33.0,33.0,3.4,3.3,2.645,0.5960043525093068,-0.014829049229882077,0.7901274292037864,0.0031190315941309827,-0.089856,-36.389732
11.185,2.0,1.0,1.0,33.3,33.0,33.0,3.4,3.3,2.6475,0.5892043624951858,-0.015089676994520905,0.7950477620420736,0.00302951668372989,-0.091008,-36.254783
11.185,2.0,1.0,1.0,33.3,33.0,33.0,3.4,3.3,2.65,0.582318453475688,-0.015354816459845615,0.7999391814617425,0.002935678771912818,-0.092184,-36.119191
11.185,2.0,1.0,1.0,33.3,33.0,33.0,3.4,3.3,2.6525,0.5753456694993849,-0.015624553679768173,0.8048005998618911,0.0028373590684532073,-0.093386,-35.98294
11.185,2.0,1.0,1.0,33.3,33.0,33.0,3.4,3.3,2.655,0.5682850445828916,-0.015898976384259977,0.8096308956130513,0.002734392452236501,-0.094613,-35.84602
11.185,2.0,1.0,1.0,33.3,33.0,33.0,3.4,3.3,2.6575,0.561135602839133,-0.016178173999456907,0.8144289119564149,0.002626607185151183,-0.095867,-35.708416
11.185,2.0,1.0,1.0,33.3,33.0,33.0,3.4,3.3,2.66,0.5538963586234908,-0.016462237666623157,0.8191934558657533,0.0025138246111729686,-0.097148,-35.570116
11.185,2.0,1.0,1.0,33.3,33.0,33.0,3.4,3.3,2.6625,0.5465663166989658,-0.016751260259834918,0.8239232968706284,0.002395858839772022,-0.098458,-35.431106
11.185,2.0,1.0,1.0,33.3,33.0,33.0,3.4,3.3,2.665,0.5391444724215495,-0.017045336402171853,0.8286171658394632,0.0022725164126850862,-0.099796,-35.291372
11.185,2.0,1.0,1.0,33.3,33.0,33.0,3.4,3.3,2.6675,0.5316298119470871,-0.017344562480218866,0.8332737537209376,0.002143595953041308,-0.101164,-35.150899
11.185,2.0,1.0,1.0,33.3,33.0,33.0,3.4,3.3,2.67,0.524021312460965,-0.017649036656671807,0.8378917102421353,0.0020088877957888554,-0.102562,-35.009674
11.185,2.0,1.0,1.0,33.3,33.0,33.0,3.4,3.3,2.6725,0.5163179424320368,-0.017958858880758436,0.842469642561782,0.0018681735982280308,-0.103992,-34.867682
11.185,2.0,1.0,1.0,33.3,33.0,33.0,3.4,3.3,2.675,0.5085186618922996,-0.018274130896249286,0.8470061138768261,0.0017212259294566699,-0.105455,-34.724906
11.185,2.0,1.0,1.0,33.3,33.0,33.0,3.4,3.3,2.6775,0.5006224227438973,-0.018594956246719273,0.851499641980544,0.0015678078373721612,-0.106951,-34.581333
11.185,2.0,1.0,1.0,33.3,33.0,33.0,3.4,3.3,2.68,0.49262816909513085,-0.018921440277742473,0.8559486977702575,0.0014076723918219263,-0.108481,-34.436946
11.185,2.0,1.0,1.0,33.3,33.0,33.0,3.4,3.3,2.6825,0.4845348376272542,-0.019253690135649006,0.8603517037026424,0.0012405622023691307,-0.110047,-34.291728
11.185,2.0,1.0,1.0,33.3,33.0,33.0,3.4,3.3,2.685,0.47634135799392924,-0.019591814762445148,0.8647070321945189,0.0010662089090523,-0.11165,-34.145663
11.185,2.0,1.0,1.0,33.3,33.0,33.0,3.4,3.3,2.6875,0.4680466532553287,-0.019935924886444637,0.8690130039668986,0.000884332644362005,-0.11329,-33.998735
11.185,2.0,1.0,1.0,33.3,33.0,33.0,3.4,3.3,2.69,0.45964964034900674,-0.0202861330081062,0.8732678863299296,0.0006946414645400451,-0.11497,-33.850925
11.185,2.0,1.0,1.0,33.3,33.0,33.0,3.4,3.3,2.6925,0.45114923059974116,-0.020642553380561365,0.877469891406276,0.0004968307481902072,-0.116689,-33.702217
11.185,2.0,1.0,1.0,33.3,33.0,33.0,3.4,3.3,2.695,0.4425443302707494,-0.021005301984191906,0.8816171742903044,0.00029058255998456496,-0.118451,-33.55259
11.185,2.0,1.0,1.0,33.3,33.0,33.0,3.4,3.3,2.6975,0.43383384115875095,-0.02137449649462407,0.8857078311403211,7.55649770986342e-05,-0.120255,-33.402028
11.185,2.0,1.0,1.0,33.3,33.0,33.0,3.4,3.3,2.7,0.4250166612355663,-0.021750256243375215,0.8897398972009166,-0.00014856862413895587,-0.122103,-33.25051
11.185,2.0,1.0,1.0,33.3,33.0,33.0,3.4,3.3,2.7025,0.41609168533905555,-0.022132702170361576,0.8937113447523267,-0.0003821803241638273,-0.123998,-33.098016
11.185,2.0,1.0,1.0,33.3,33.0,33.0,3.4,3.3,2.705,0.4070578059164154,-0.02252195676733509,0.8976200809834959,-0.0006256484616145104,-0.125939,-32.944527
11.185,2.0,1.0,1.0,33.3,33.0,33.0,3.4,3.3,2.7075,0.39791391382301017,-0.02291814401127076,0.901463945785349,-0.000879368483500026,-0.12793,-32.790022
11.185,2.0,1.0,1.0,33.3,33.0,33.0,3.4,3.3,2.71,0.38865889918014496,-0.02332138928659117,0.9052407094605279,-0.001143753847559539,-0.129971,-32.634478
11.185,2.0,1.0,1.0,33.3,33.0,33.0,3.4,3.3,2.7125,0.3792916522953777,-0.02373181929496595,0.9089480703456154,-0.001419236980582446,-0.132064,-32.477875
11.185,2.0,1.0,1.0,33.3,33.0,33.0,3.4,3.3,2.715,0.3698110646492303,-0.024149561951365115,0.9125836523415944,-0.0017062702967390272,-0.134212,-32.320189
11.185,2.0,1.0,1.0,33.3,33.0,33.0,3.4,3.3,2.7175,0.36021602995239926,-0.0245747462647983,0.9161450023479932,-0.002005327280338531,-0.136416,-32.161396
11.185,2.0,1.0,1.0,33.3,33.0,33.0,3.4,3.3,2.72,0.3505054452778573,-0.025007502202071458,0.9196295875958409,-0.0023169036377949726,-0.138678,-32.001474
11.185,2.0,1.0,1.0,33.3,33.0,33.0,3.4,3.3,2.7225,0.34067821227250816,-0.02544796053267538,0.9230347928742128,-0.0026415185239900972,-0.141,-31.840397
11.185,2.0,1.0,1.0,33.3,33.0,33.0,3.4,3.3,2.725,0.33073323845344343,-0.025896252652687992,0.9263579176447375,-0.002979715848681719,-0.143385,-31.67814
11.185,2.0,1.0,1.0,33.3,33.0,33.0,3.4,3.3,2.7275,0.3206694385941277,-0.02635251038536867,0.9295961730380267,-0.0033320656690810782,-0.145834,-31.514676
11.185,2.0,1.0,1.0,33.3,33.0,33.0,3.4,3.3,2.73,0.3104857362063164,-0.026816865755823455,0.9327466787254941,-0.003699165675301409,-0.148351,-31.349979
11.185,2.0,1.0,1.0,33.3,33.0,33.0,3.4,3.3,2.7325,0.30018106512385717,-0.027289450736799194,0.9358064596595331,-0.00408164277592118,-0.150937,-31.18402
11.185,2.0,1.0,1.0,33.3,33.0,33.0,3.4,3.3,2.735,0.2897543711950673,-0.02777039696237975,0.9387724426744181,-0.0044801547916349166,-0.153596,-31.016771
11.185,2.0,1.0,1.0,33.3,33.0,33.0,3.4,3.3,2.7375,0.27920461409084263,-0.02825983540588168,0.9416414529396787,-0.004895392265624991,-0.15633,-30.848202
11.185,2.0,1.0,1.0,33.3,33.0,33.0,3.4,3.3,2.74,0.2685307692362618,-0.028757896017877708,0.9444102102569795,-0.005328080400130486,-0.159142,-30.678282
11.185,2.0,1.0,1.0,33.3,33.0,33.0,3.4,3.3,2.7425,0.2577318298740568,-0.029264707319738695,0.9470753251907522,-0.00577898112952815,-0.162036,-30.50698
11.185,2.0,1.0,1.0,33.3,33.0,33.0,3.4,3.3,2.745,0.24680680926904297,-0.029780395947533126,0.9496332950219727,-0.006248895341297077,-0.165014,-30.334262
11.185,2.0,1.0,1.0,33.3,33.0,33.0,3.4,3.3,2.7475,0.23575474306336502,-0.03030508614045459,0.9520804995134828,-0.006738665257205128,-0.16808,-30.160095
11.185,2.0,1.0,1.0,33.3,33.0,33.0,3.4,3.3,2.75,0.22457469179329,-0.0308388991672712,0.954413196474216,-0.00724917698835911,-0.171237,-29.984444
11.185,2.0,1.0,1.0,33.3,33.0,33.0,3.4,3.3,2.7525,0.2132657435792572,-0.03138195268338987,0.95662751710846,-0.0077813632789972016,-0.174491,-29.807272
11.185,2.0,1.0,1.0,33.3,33.0,33.0,3.4,3.3,2.755,0.20182701700198075,-0.03193436001023685,0.958719461134973,-0.008336206455450731,-0.177843,-29.628542
11.185,2.0,1.0,1.0,33.3,33.0,33.0,3.4,3.3,2.7575,0.19025766417860165,-0.03249622932756741,0.9606848916592764,-0.008914741598255477,-0.1813,-29.448215
11.185,2.0,1.0,1.0,33.3,33.0,33.0,3.4,3.3,2.76,0.17855687405431464,-0.03306766276803102,0.9625195297807845,-0.009518059957257467,-0.184865,-29.266249
11.185,2.0,1.0,1.0,33.3,33.0,33.0,3.4,3.3,2.7625,0.1667238759263911,-0.033648755401987536,0.9642189489145709,-0.010147312631580857,-0.188544,-29.082604
11.185,2.0,1.0,1.0,33.3,33.0,33.0,3.4,3.3,2.765,0.15475794321933836,-0.03423959409890319,0.9657785688054966,-0.010803714538499029,-0.192341,-28.897235
11.185,2.0,1.0,1.0,33.3,33.0,33.0,3.4,3.3,2.7675,0.14265839753190326,-0.03484025624978418,0.9671936492100828,-0.01148854869785487,-0.196262,-28.710097
11.185,2.0,1.0,1.0,33.3,33.0,33.0,3.4,3.3,2.77,0.13042461297891322,-0.035450808333015685,0.9684592832189143,-0.012203170861377457,-0.200312,-28.521144
11.185,2.0,1.0,1.0,33.3,33.0,33.0,3.4,3.3,2.7725,0.11805602085355926,-0.03607130430349146,0.9695703901894077,-0.012949014519414317,-0.204498,-28.330326
11.185,2.0,1.0,1.0,33.3,33.0,33.0,3.4,3.3,2.775,0.10555211463869503,-0.03670178378208858,0.9705217082555018,-0.013727596321055231,-0.208827,-28.137593
11.185,2.0,1.0,1.0,33.3,33.0,33.0,3.4,3.3,2.7775,0.09291245539913652,-0.037342270019276924,0.9713077863771128,-0.014540521947512808,-0.213304,-27.942891
11.185,2.0,1.0,1.0,33.3,33.0,33.0,3.4,3.3,2.78,0.08013667759086875,-0.037992767602871715,0.9719229758880343,-0.015389492483036586,-0.217938,-27.746166
11.185,2.0,1.0,1.0,33.3,33.0,33.0,3.4,3.3,2.7825,0.06722449532761945,-0.03865325987554424,0.9723614214962822,-0.016276311332437274,-0.222737,-27.547359
11.185,2.0,1.0,1.0,33.3,33.0,33.0,3.4,3.3,2.785,0.05417570915042415,-0.039323706022630196,0.972617051685583,-0.01720289173988358,-0.227709,-27.346412
11.185,2.0,1.0,1.0,33.3,33.0,33.0,3.4,3.3,2.7875,0.04099021335193367,-0.04000403778486846,0.9726835684607682,-0.018171264969673567,-0.232863,-27.143262
11.185,2.0,1.0,1.0,33.3,33.0,33.0,3.4,3.3,2.79,0.027668003914178195,-0.040694155743780755,0.9725544363731107,-0.019183589216706487,-0.238208,-26.937843
11.185,2.0,1.0,1.0,33.3,33.0,33.0,3.4,3.3,2.7925,0.014209187126740696,-0.041393925119399586,0.9722228707540516,-0.02024215932206632,-0.243756,-26.730087
11.185,2.0,1.0,1.0,33.3,33.0,33.0,3.4,3.3,2.795,0.0006139889617584792,-0.042103171010629624,0.9716818250772234,-0.021349417377882162,-0.249517,-26.519923
11.185,2.0,1.0,1.0,33.3,33.0,33.0,3.4,3.3,2.7975,-0.013117234706580015,-0.042821672997533575,0.9709239773589873,-0.022507964315505165,-0.255503,-26.307277
11.185,2.0,1.0,1.0,33.3,33.0,33.0,3.4,3.3,2.8,-0.026983986937399868,-0.04354915901187287,0.9699417154967829,-0.023720572582067626,-0.261727,-26.092071
11.185,2.0,1.0,1.0,33.3,33.0,33.0,3.4,3.3,2.8025,-0.040985617497306844,-0.04428529836709106,0.9687271214322457,-0.02499020002294322,-0.268204,-25.874222
11.185,2.0,1.0,1.0,33.3,33.0,33.0,3.4,3.3,2.805,-0.05512130943922033,-0.04502969382093379,0.9672719540120805,-0.026320005101777545,-0.274947,-25.653647
11.185,2.0,1.0,1.0,33.3,33.0,33.0,3.4,3.3,2.8075,-0.06939006433041744,-0.0457818725228095,0.9655676304039112,-0.02771336360544179,-0.281975,-25.430254
11.185,2.0,1.0,1.0,33.3,33.0,33.0,3.4,3.3,2.81,-0.08379068594907223,-0.04654127567289135,0.9636052059064996,-0.02917388699923124,-0.289303,-25.20395
11.185,2.0,1.0,1.0,33.3,33.0,33.0,3.4,3.3,2.8125,-0.0983217622386083,-0.0473072466902808,0.961375351973615,-0.0307054426175952,-0.296951,-24.974637
11.185,2.0,1.0,1.0,33.3,33.0,33.0,3.4,3.3,2.815,-0.11298164527362009,-0.0480790176522046,0.9588683322481092,-0.03231217589838415,-0.30494,-24.742209
11.185,2.0,1.0,1.0,33.3,33.0,33.0,3.4,3.3,2.8175,-0.12776842894867144,-0.048855693724091195,0.9560739763771774,-0.03399853489394915,-0.313293,-24.506559
11.185,2.0,1.0,1.0,33.3,33.0,33.0,3.4,3.3,2.82,-0.1426799240506028,-0.0496362352501447,0.9529816513509805,-0.03576929732090272,-0.322033,-24.267571
11.185,2.0,1.0,1.0,33.3,33.0,33.0,3.4,3.3,2.8225,-0.15771363031427457,-0.050419437113712856,0.949580230074482,-0.03762960044242165,-0.331189,-24.025125
11.185,2.0,1.0,1.0,33.3,33.0,33.0,3.4,3.3,2.825,-0.17286670498880632,-0.05120390490452067,0.9458580568461562,-0.039584974112525886,-0.340788,-23.779093
11.185,2.0,1.0,1.0,33.3,33.0,33.0,3.4,3.3,2.8275,-0.18813592735364698,-0.05198802734282428,0.9418029093768554,-0.04164137735150186,-0.350864,-23.529341
