1,w,sub_t,h,l1,l2,l3,g1,g2,Freq,S11_re,S21_re,S11_img,S21_img,S11_dB,S21_dB
11.185,2.0,1.0,1.0,34.9,34.1,34.1,3.6,1.8,2.5,-0.828767812753993,0.00561772795581997,0.492597042049862,-0.0797476294009889,-0.317469,-21.944147
11.185,2.0,1.0,1.0,34.9,34.1,34.1,3.6,1.8,2.5025,-0.8382010132014718,0.007311875435667963,0.4754062811825728,-0.08038186900279169,-0.32175,-21.86105
11.185,2.0,1.0,1.0,34.9,34.1,34.1,3.6,1.8,2.505,-0.8472912343649208,0.009037447222691276,0.45798589236539644,-0.08099576057629482,-0.326142,-21.777019
11.185,2.0,1.0,1.0,34.9,34.1,34.1,3.6,1.8,2.5075,-0.8560312382246964,0.010794859525522416,0.44034244253019283,-0.081589318868413,-0.330651,-21.691967
11.185,2.0,1.0,1.0,34.9,34.1,34.1,3.6,1.8,2.51,-0.8644138875424842,0.012584617319998975,0.42248263550708787,-0.08216259622421182,-0.335284,-21.605807
11.185,2.0,1.0,1.0,34.9,34.1,34.1,3.6,1.8,2.5125,-0.872432141725106,0.014407324027708621,0.40441330047823876,-0.08271568196774269,-0.340048,-21.518445
11.185,2.0,1.0,1.0,34.9,34.1,34.1,3.6,1.8,2.515,-0.8800790510174755,0.01626369204665565,0.3861413798966503,-0.08324870157334374,-0.344952,-21.42978
11.185,2.0,1.0,1.0,34.9,34.1,34.1,3.6,1.8,2.5175,-0.8873477488404399,0.018154554242029525,0.36767391688408707,-0.08376181560315916,-0.350006,-21.33971
11.185,2.0,1.0,1.0,34.9,34.1,34.1,3.6,1.8,2.52,-0.8942314420658661,0.020080876521976133,0.34901804212441984,-0.08425521838121257,-0.355219,-21.248123
11.185,2.0,1.0,1.0,34.9,34.1,34.1,3.6,1.8,2.5225,-0.9007233989935447,0.02204377164296879,0.33018096027157673,-0.08472913636765202,-0.360601,-21.154904
11.185,2.0,1.0,1.0,34.9,34.1,34.1,3.6,1.8,2.525,-0.9068169347618366,0.024044514412427435,0.3111699358947819,-0.08518382618848187,-0.366166,-21.05993
11.185,2.0,1.0,1.0,34.9,34.1,34.1,3.6,1.8,2.5275,-0.9125053938851322,0.02608455848321378,0.29199227898828517,-0.0856195722658164,-0.371925,-20.96307
11.185,2.0,1.0,1.0,34.9,34.1,34.1,3.6,1.8,2.53,-0.9177821295651849,0.028165554966338956,0.2726553300785623,-0.08603668398095894,-0.377894,-20.864187
11.185,2.0,1.0,1.0,34.9,34.1,34.1,3.6,1.8,2.5325,-0.9226404793684873,0.030289373125570264,0.2531664449695141,-0.08643549228681621,-0.384087,-20.763136
11.185,2.0,1.0,1.0,34.9,34.1,34.1,3.6,1.8,2.535,-0.9270737367963691,0.032458123461743565,0.23353297917607538,-0.08681634566652856,-0.390522,-20.659761
11.185,2.0,1.0,1.0,34.9,34.1,34.1,3.6,1.8,2.5375,-0.9310751181960538,0.03467418354685128,0.2137622721097256,-0.08717960531073994,-0.397218,-20.553899
11.185,2.0,1.0,1.0,34.9,34.1,34.1,3.6,1.8,2.54,-0.934637724366787,0.036940227030092476,0.19386163109661553,-0.08752563935538708,-0.404196,-20.445375
11.185,2.0,1.0,1.0,34.9,34.1,34.1,3.6,1.8,2.5425,-0.9377544961018469,0.03925925631208592,0.17383831533178204,-0.08785481598360972,-0.41148,-20.334004
11.185,2.0,1.0,1.0,34.9,34.1,34.1,3.6,1.8,2.545,-0.9404181627703636,0.04163463947194321,0.1536995199032561,-0.08816749514727439,-0.419094,-20.219588
11.185,2.0,1.0,1.0,34.9,34.1,34.1,3.6,1.8,2.5475,-0.9426211828772557,0.04407015213802083,0.13345236005993993,-0.088464018602905,-0.427068,-20.101916
11.185,2.0,1.0,1.0,34.9,34.1,34.1,3.6,1.8,2.55,-0.9443556753382307,0.04657002512085253,0.11310385595044335,-0.08874469787994839,-0.435434,-19.980765
11.185,2.0,1.0,1.0,34.9,34.1,34.1,3.6,1.8,2.5525,-0.9456133399614282,0.04913899878083995,0.09266091813117038,-0.08900979970156091,-0.444226,-19.855893
11.185,2.0,1.0,1.0,34.9,34.1,34.1,3.6,1.8,2.555,-0.9463853653271921,0.051782385289876345,0.07213033423637616,-0.08925952825328293,-0.453485,-19.727043
11.185,2.0,1.0,1.0,34.9,34.1,34.1,3.6,1.8,2.5575,-0.9466623218889867,0.05450614017271074,0.05151875732952654,-0.0894940035348405,-0.463255,-19.593939
11.185,2.0,1.0,1.0,34.9,34.1,34.1,3.6,1.8,2.56,-0.9464340376646281,0.057316944790069504,0.030832696624463352,-0.0897132348239052,-0.473586,-19.456284
11.185,2.0,1.0,1.0,34.9,34.1,34.1,3.6,1.8,2.5625,-0.945689453325654,0.0602223017632428,0.0100785114923332,-0.0899170880132428,-0.484536,-19.31376
11.185,2.0,1.0,1.0,34.9,34.1,34.1,3.6,1.8,2.565,-0.9444164527957126,0.06323064575398664,-0.010737590023401264,-0.09010524523443261,-0.496168,-19.166024
11.185,2.0,1.0,1.0,34.9,34.1,34.1,3.6,1.8,2.5675,-0.9426016646002061,0.06635147252303364,-0.031609546546942736,-0.09027715472528705,-0.508555,-19.012704
11.185,2.0,1.0,1.0,34.9,34.1,34.1,3.6,1.8,2.57,-0.9402302281222613,0.0695954898189956,-0.0525314303653487,-0.09043196829741344,-0.52178,-18.853399
11.185,2.0,1.0,1.0,34.9,34.1,34.1,3.6,1.8,2.5725,-0.9372855175540393,0.0729747944267688,-0.0734974231107364,-0.09056846296435347,-0.535939,-18.687675
11.185,2.0,1.0,1.0,34.9,34.1,34.1,3.6,1.8,2.575,-0.9337488146090154,0.07650308066816405,-0.09450177610748689,-0.0906849422292002,-0.551141,-18.515059
11.185,2.0,1.0,1.0,34.9,34.1,34.1,3.6,1.8,2.5775,-0.9295989188780707,0.08019588684405964,-0.11553874990904964,-0.09077911110552454,-0.567512,-18.33504
11.185,2.0,1.0,1.0,34.9,34.1,34.1,3.6,1.8,2.58,-0.9248116819372618,0.08407088759470487,-0.13660252553220026,-0.09084791701904167,-0.585199,-18.147056
11.185,2.0,1.0,1.0,34.9,34.1,34.1,3.6,1.8,2.5825,-0.9193594477750603,0.08814824200343045,-0.15768707708036084,-0.0908873461143972,-0.604373,-17.950496
11.185,2.0,1.0,1.0,34.9,34.1,34.1,3.6,1.8,2.585,-0.9132103775771909,0.09245100956303588,-0.1787859914874567,-0.09089216089270852,-0.625234,-17.744691
11.185,2.0,1.0,1.0,34.9,34.1,34.1,3.6,1.8,2.5875,-0.9063276310979065,0.09700564896002911,-0.19989221550392008,-0.09085556012905432,-0.648019,-17.528906
11.185,2.0,1.0,1.0,34.9,34.1,34.1,3.6,1.8,2.59,-0.8986683693865244,0.10184261811247089,-0.2209977020373113,-0.09076873508089871,-0.673006,-17.30233
11.185,2.0,1.0,1.0,34.9,34.1,34.1,3.6,1.8,2.5925,-0.8901825340610354,0.10699709811595841,-0.24209291643023959,-0.09062028624257257,-0.700531,-17.064073
11.185,2.0,1.0,1.0,34.9,34.1,34.1,3.6,1.8,2.595,-0.8808113460578744,0.11250986875788205,-0.26316614651467296,-0.09039545106229806,-0.730996,-16.813147
11.185,2.0,1.0,1.0,34.9,34.1,34.1,3.6,1.8,2.5975,-0.8704854511836282,0.11842836898246353,-0.284202535744019,-0.09007507323086608,-0.764886,-16.54846
11.185,2.0,1.0,1.0,34.9,34.1,34.1,3.6,1.8,2.6,-0.8591226201808632,0.12480798178986677,-0.3051827224001652,-0.08963421554032514,-0.802797,-16.268796
11.185,2.0,1.0,1.0,34.9,34.1,34.1,3.6,1.8,2.6025,-0.8466248869080787,0.13171358863013125,-0.32608091363208763,-0.08904027660415488,-0.845461,-15.972807
11.185,2.0,1.0,1.0,34.9,34.1,34.1,3.6,1.8,2.605,-0.8328749797848157,0.139221441362028,-0.3468621412329272,-0.0882504103847913,-0.893788,-15.658985
11.185,2.0,1.0,1.0,34.9,34.1,34.1,3.6,1.8,2.6075,-0.817731870724564,0.14742139596685327,-0.36747832131900393,-0.08720795647430075,-0.948921,-15.325651
11.185,2.0,1.0,1.0,34.9,34.1,34.1,3.6,1.8,2.61,-0.8010252381863594,0.15641953261870148,-0.3878625481316856,-0.08583745306960601,-1.012316,-14.970933
11.185,2.0,1.0,1.0,34.9,34.1,34.1,3.6,1.8,2.6125,-0.7825486313178822,0.16634113372968412,-0.40792075425902363,-0.08403760015606676,-1.085843,-14.592741
11.185,2.0,1.0,1.0,34.9,34.1,34.1,3.6,1.8,2.615,-0.7620511640221306,0.17733387001993395,-0.42751940389685367,-0.0816712323481774,-1.171939,-14.188757
11.185,2.0,1.0,1.0,34.9,34.1,34.1,3.6,1.8,2.6175,-0.739227735277699,0.18957078466589405,-0.44646715502126033,-0.07855089794106393,-1.273831,-13.756423
11.185,2.0,1.0,1.0,34.9,34.1,34.1,3.6,1.8,2.62,-0.7137082252983334,0.20325212858465336,-0.46448728152312246,-0.07441795403680561,-1.395854,-13.292954
11.185,2.0,1.0,1.0,34.9,34.1,34.1,3.6,1.8,2.6225,-0.6850471978145796,0.21860401126446652,-0.48117587400277645,-0.06891210098858039,-1.543936,-12.795381
11.185,2.0,1.0,1.0,34.9,34.1,34.1,3.6,1.8,2.625,-0.652718068827662,0.235869649999167,-0.495938180364732,-0.0615269633208137,-1.726336,-12.260669
11.185,2.0,1.0,1.0,34.9,34.1,34.1,3.6,1.8,2.6275,-0.61612098521108,0.25528467743666816,-0.5078917570019872,-0.05154588129572931,-1.954795,-11.685958
11.185,2.0,1.0,1.0,34.9,34.1,34.1,3.6,1.8,2.63,-0.5746248348402869,0.2770195562294876,-0.5157209405305142,-0.03795150080552569,-2.246359,-11.069035
11.185,2.0,1.0,1.0,34.9,34.1,34.1,3.6,1.8,2.6325,-0.527686654836354,0.301056391315004,-0.5174657237593553,-0.01930637072208943,-2.626292,-10.409219
11.185,2.0,1.0,1.0,34.9,34.1,34.1,3.6,1.8,2.635,-0.4751355354837378,0.3269403206287303,-0.5102408125204536,0.0063808492928866135,-3.132749,-9.708976
11.185,2.0,1.0,1.0,34.9,34.1,34.1,3.6,1.8,2.6375,-0.41778113030220126,0.35330838420358884,-0.48994074816022204,0.041733666268030635,-3.823885,-8.976743
11.185,2.0,1.0,1.0,34.9,34.1,34.1,3.6,1.8,2.64,-0.35858549187584604,0.37708336770726514,-0.4511745740458846,0.08981816297666326,-4.786761,-8.23159
11.185,2.0,1.0,1.0,34.9,34.1,34.1,3.6,1.8,2.6425,-0.3045535804432667,0.3923652622743964,-0.38811685742124424,0.15319097687641417,-6.137016,-7.510024
11.185,2.0,1.0,1.0,34.9,34.1,34.1,3.6,1.8,2.645,-0.2687085407641044,0.38971292434256494,-0.29760423289555654,0.23141576430901392,-7.937881,-6.873374
11.185,2.0,1.0,1.0,34.9,34.1,34.1,3.6,1.8,2.6475,-0.2692674658246454,0.35794962163976474,-0.18544700986062848,0.3169695082609172,-9.710403,-6.409283
11.185,2.0,1.0,1.0,34.9,34.1,34.1,3.6,1.8,2.65,-0.32115357374914905,0.29106899438613393,-0.07245612216179002,0.39285289555550956,-9.650128,-6.21503
11.185,2.0,1.0,1.0,34.9,34.1,34.1,3.6,1.8,2.6525,-0.42140401618860296,0.1971026309299134,0.010463658668850793,0.43874880309713354,-7.50335,-6.357306
11.185,2.0,1.0,1.0,34.9,34.1,34.1,3.6,1.8,2.655,-0.5449916935835293,0.0971815868675695,0.04164515807796538,0.44485339131881463,-5.246917,-6.833194
11.185,2.0,1.0,1.0,34.9,34.1,34.1,3.6,1.8,2.6575,-0.6612306386401356,0.011810708208493706,0.022506569291990318,0.41804849195707483,-3.587912,-7.572002
11.185,2.0,1.0,1.0,34.9,34.1,34.1,3.6,1.8,2.66,-0.7518964765794256,-0.049976976706177886,-0.02967568116266857,0.3735547450563194,-2.470079,-8.475868
11.185,2.0,1.0,1.0,34.9,34.1,34.1,3.6,1.8,2.6625,-0.8136683923466037,-0.08945045446363509,-0.09656879686479987,0.3244594672523098,-1.730304,-9.458647
11.185,2.0,1.0,1.0,34.9,34.1,34.1,3.6,1.8,2.665,-0.8511344365343874,-0.11207149686327939,-0.16599948288015878,0.2781586552019897,-1.237904,-10.460845
11.185,2.0,1.0,1.0,34.9,34.1,34.1,3.6,1.8,2.6675,-0.8706838201085908,-0.12336505344626615,-0.23187605915814363,0.23757018247947068,-0.905206,-11.447321
11.185,2.0,1.0,1.0,34.9,34.1,34.1,3.6,1.8,2.67,-0.877820591749135,-0.12752464451034842,-0.2919222240516088,0.20318492130261487,-0.67634,-12.3998
11.185,2.0,1.0,1.0,34.9,34.1,34.1,3.6,1.8,2.6725,-0.8765802623822884,-0.12737666401287712,-0.3457820575667674,0.17446746100936836,-0.516075,-13.310207
11.185,2.0,1.0,1.0,34.9,34.1,34.1,3.6,1.8,2.675,-0.8697229318081372,-0.12472354940280177,-0.39391336842987124,0.15057302520058985,-0.402025,-14.176162
11.185,2.0,1.0,1.0,34.9,34.1,34.1,3.6,1.8,2.6775,-0.8590788833288628,-0.12068464581936884,-0.437039381554082,0.13065505503750235,-0.31975,-14.998249
11.185,2.0,1.0,1.0,34.9,34.1,34.1,3.6,1.8,2.68,-0.8458456468717146,-0.11594569314937268,-0.47590643563322665,0.11397344909580617,-0.259759,-15.778478
11.185,2.0,1.0,1.0,34.9,34.1,34.1,3.6,1.8,2.6825,-0.8308014648880258,-0.1109228946313578,-0.5111907320280378,0.09991712635595125,-0.215697,-16.519421
11.185,2.0,1.0,1.0,34.9,34.1,34.1,3.6,1.8,2.685,-0.814448290335223,-0.10586615929231022,-0.5434722711644661,0.08799424484086729,-0.183227,-17.223763
11.185,2.0,1.0,1.0,34.9,34.1,34.1,3.6,1.8,2.6875,-0.797104703595602,-0.100922980106052,-0.573236683724069,0.077812986609075,-0.159337,-17.894057
11.185,2.0,1.0,1.0,34.9,34.1,34.1,3.6,1.8,2.69,-0.7789654230329569,-0.0961778105728308,-0.6008870783202155,0.06906191049278496,-0.141909,-18.532607
11.185,2.0,1.0,1.0,34.9,34.1,34.1,3.6,1.8,2.6925,-0.760139000065529,-0.09167641120874528,-0.6267581989371324,0.061492897303168495,-0.129431,-19.141409
11.185,2.0,1.0,1.0,34.9,34.1,34.1,3.6,1.8,2.695,-0.7406712266742365,-0.08744100377204624,-0.651129846866607,0.05490730023419916,-0.120818,-19.722126
11.185,2.0,1.0,1.0,34.9,34.1,34.1,3.6,1.8,2.6975,-0.7205589540955994,-0.08347979206970056,-0.6742385864172923,0.0491450343795991,-0.115289,-20.276069
11.185,2.0,1.0,1.0,34.9,34.1,34.1,3.6,1.8,2.7,-0.699757126036917,-0.07979302109485718,-0.6962876227333893,0.0440760904271022,-0.112286,-20.804184
11.185,2.0,1.0,1.0,34.9,34.1,34.1,3.6,1.8,2.7025,-0.6781805331725074,-0.07637691239508632,-0.7174550693643638,0.039593948840239354,-0.111421,-21.307029
11.185,2.0,1.0,1.0,34.9,34.1,34.1,3.6,1.8,2.705,-0.6557008256679455,-0.07322631587630689,-0.7379009121941758,0.03561043862809186,-0.112443,-21.784736
11.185,2.0,1.0,1.0,34.9,34.1,34.1,3.6,1.8,2.7075,-0.6321384539181146,-0.07033662554900104,-0.757772953362648,0.032051662780446216,-0.115218,-22.236948
11.185,2.0,1.0,1.0,34.9,34.1,34.1,3.6,1.8,2.71,-0.6072482234901889,-0.06770534323019405,-0.7772119225805386,0.028854673947621062,-0.119725,-22.662728
11.185,2.0,1.0,1.0,34.9,34.1,34.1,3.6,1.8,2.7125,-0.5806957568668842,-0.06533359983783904,-0.796355746134127,0.025964615539440888,-0.126064,-23.06041
11.185,2.0,1.0,1.0,34.9,34.1,34.1,3.6,1.8,2.715,-0.5520198635324074,-0.06322794427946625,-0.8153425459150726,0.023332030131042854,-0.13448,-23.427379
11.185,2.0,1.0,1.0,34.9,34.1,34.1,3.6,1.8,2.7175,-0.5205716872632157,-0.06140279513844058,-0.8343109792769545,0.02090994780786353,-0.145422,-23.759729
11.185,2.0,1.0,1.0,34.9,34.1,34.1,3.6,1.8,2.72,-0.48541353886815286,-0.05988416449464456,-0.8533941720345082,0.018650127133090673,-0.159645,-24.051722
11.185,2.0,1.0,1.0,34.9,34.1,34.1,3.6,1.8,2.7225,-0.4451440753052276,-0.05871571246578965,-0.872697372673109,0.016497241996949543,-0.178401,-24.294928
11.185,2.0,1.0,1.0,34.9,34.1,34.1,3.6,1.8,2.725,-0.39758131535691027,-0.05796910799145513,-0.8922325126771383,0.014378381603801501,-0.203835,-24.47678
11.185,2.0,1.0,1.0,34.9,34.1,34.1,3.6,1.8,2.7275,-0.33915392133582856,-0.0577625370094787,-0.9117321801915116,0.0121814797880807,-0.239799,-24.578098
11.185,2.0,1.0,1.0,34.9,34.1,34.1,3.6,1.8,2.73,-0.26365207446505534,-0.05829480657734889,-0.9300982222499297,0.009705444648539499,-0.293765,-24.568661
11.185,2.0,1.0,1.0,34.9,34.1,34.1,3.6,1.8,2.7325,-0.159476836062437,-0.0599072684288679,-0.9436143437229181,0.006529495415636204,-0.3818,-24.399121
11.185,2.0,1.0,1.0,34.9,34.1,34.1,3.6,1.8,2.735,-0.0032893810425183756,-0.06316893824899569,-0.9393155853169023,0.0016181013869875935,-0.543716,-23.98708
11.185,2.0,1.0,1.0,34.9,34.1,34.1,3.6,1.8,2.7375,0.25236834612723086,-0.06866356387083786,-0.8657062480786997,-0.008061387246989064,-0.898362,-23.20602
11.185,2.0,1.0,1.0,34.9,34.1,34.1,3.6,1.8,2.74,0.6413077127757263,-0.07229890552119214,-0.49121876625906935,-0.03195085767658889,-1.853719,-22.042597
11.185,2.0,1.0,1.0,34.9,34.1,34.1,3.6,1.8,2.7425,0.389028939864667,-0.036211001465776244,0.5765130995407731,-0.06676559430532077,-3.154142,-22.389084
11.185,2.0,1.0,1.0,34.9,34.1,34.1,3.6,1.8,2.745,-0.7559868623767712,0.005207546185778772,0.4330336205778359,-0.03613361869998194,-1.197386,-28.75249
11.185,2.0,1.0,1.0,34.9,34.1,34.1,3.6,1.8,2.7475,-0.9500722095992692,0.0017902790301698778,-0.1268747104370923,-0.011549411206403437,-0.3681,-38.645684
11.185,2.0,1.0,1.0,34.9,34.1,34.1,3.6,1.8,2.75,-0.894802724364897,-0.00468639227300181,-0.407636033731999,-0.00293210398810077,-0.146458,-45.148537
11.185,2.0,1.0,1.0,34.9,34.1,34.1,3.6,1.8,2.7525,-0.8218665191951804,-0.008872619036698495,-0.5547922290533766,0.0003594648617779366,-0.073321,-41.031841
11.185,2.0,1.0,1.0,34.9,34.1,34.1,3.6,1.8,2.755,-0.7591120567919135,-0.011408292498053762,-0.6428781650516849,0.001732939430799171,-0.045651,-38.756516
11.185,2.0,1.0,1.0,34.9,34.1,34.1,3.6,1.8,2.7575,-0.7070568873647688,-0.012940016099633234,-0.7014748063040104,0.002301501103137537,-0.034899,-37.626048
11.185,2.0,1.0,1.0,34.9,34.1,34.1,3.6,1.8,2.76,-0.6632155351068106,-0.01385291823309086,-0.7436129364415265,0.0024921519597758115,-0.031317,-37.030845
11.185,2.0,1.0,1.0,34.9,34.1,34.1,3.6,1.8,2.7625,-0.6254109086355543,-0.014371397177037885,-0.7757196736924679,0.0024922076352101247,-0.031033,-36.721342
11.185,2.0,1.0,1.0,34.9,34.1,34.1,3.6,1.8,2.765,-0.5920655450810093,-0.014630854041937891,-0.8012739036520335,0.002392571722327849,-0.032338,-36.579994
11.185,2.0,1.0,1.0,34.9,34.1,34.1,3.6,1.8,2.7675,-0.562070829368947,-0.014716465303739878,-0.8223037634415417,0.002240775108942754,-0.034414,-36.544392
11.185,2.0,1.0,1.0,34.9,34.1,34.1,3.6,1.8,2.77,-0.5346429203369739,-0.01468391483087507,-0.8400643597557473,0.0020630462666973975,-0.036849,-36.578271
11.185,2.0,1.0,1.0,34.9,34.1,34.1,3.6,1.8,2.7725,-0.5092183441984407,-0.01457085010267104,-0.8553712197826522,0.0018743983131969352,-0.039425,-36.659022
11.185,2.0,1.0,1.0,34.9,34.1,34.1,3.6,1.8,2.775,-0.4853841584727794,-0.014403475778941272,-0.8687761293373848,0.0016836023450839258,-0.042026,-36.771718
11.185,2.0,1.0,1.0,34.9,34.1,34.1,3.6,1.8,2.7775,-0.4628318366690422,-0.014200502268172353,-0.8806653748865207,0.0014957961138964302,-0.044592,-36.906005
11.185,2.0,1.0,1.0,34.9,34.1,34.1,3.6,1.8,2.78,-0.4413265650770012,-0.013975598159238923,-0.8913173711646527,0.001313923906330497,-0.04709,-37.054374
11.185,2.0,1.0,1.0,34.9,34.1,34.1,3.6,1.8,2.7825,-0.4206864767135007,-0.013738964598038942,-0.9009378959886467,0.0011395654020858403,-0.049503,-37.211144
11.185,2.0,1.0,1.0,34.9,34.1,34.1,3.6,1.8,2.785,-0.4007683466275907,-0.01349837694552499,-0.9096824156071526,0.0009734294439060755,-0.051827,-37.371842
11.185,2.0,1.0,1.0,34.9,34.1,34.1,3.6,1.8,2.7875,-0.3814575488303672,-0.013259893678708175,-0.9176706746386467,0.0008156562444893244,-0.05406,-37.532797
11.185,2.0,1.0,1.0,34.9,34.1,34.1,3.6,1.8,2.79,-0.36266086883496607,-0.013028352237905617,-0.924996491693344,0.0006660059483762847,-0.056206,-37.690876
11.185,2.0,1.0,1.0,34.9,34.1,34.1,3.6,1.8,2.7925,-0.3443012590973885,-0.012807725765783016,-0.931734493570588,0.0005239774112115113,-0.05827,-37.843297
11.185,2.0,1.0,1.0,34.9,34.1,34.1,3.6,1.8,2.795,-0.3263139339682745,-0.012601387848085923,-0.9379448417973895,0.00038888262946719317,-0.060256,-37.987498
11.185,2.0,1.0,1.0,34.9,34.1,34.1,3.6,1.8,2.7975,-0.3086433970577133,-0.01241231626082759,-0.9436766103813629,0.00025989188683420134,-0.062172,-38.12104
11.185,2.0,1.0,1.0,34.9,34.1,34.1,3.6,1.8,2.8,-0.29124111988715684,-0.012243256917454839,-0.9489702369204644,0.00013605862033116902,-0.064025,-38.241524
11.185,2.0,1.0,1.0,34.9,34.1,34.1,3.6,1.8,2.8025,-0.27406367207866705,-0.012096863231332411,-0.9538593232661204,1.632930100549315e-05,-0.065821,-38.346537
11.185,2.0,1.0,1.0,34.9,34.1,34.1,3.6,1.8,2.805,-0.25707115565058064,-0.011975822581984845,-0.958371969528687,-0.00010045878525628913,-0.067567,-38.433587
11.185,2.0,1.0,1.0,34.9,34.1,34.1,3.6,1.8,2.8075,-0.240225828587097,-0.011882979733599374,-0.9625317650877478,-0.0002155906873611996,-0.069273,-38.500064
11.185,2.0,1.0,1.0,34.9,34.1,34.1,3.6,1.8,2.81,-0.22349082114576935,-0.011821466517250264,-0.9663585198949884,-0.0003304981021226179,-0.070945,-38.54318
11.185,2.0,1.0,1.0,34.9,34.1,34.1,3.6,1.8,2.8125,-0.206828855111921,-0.0117948477370457,-0.969868791059643,-0.000446796451074673,-0.072594,-38.559926
11.185,2.0,1.0,1.0,34.9,34.1,34.1,3.6,1.8,2.815,-0.19020087205840833,-0.011807295210379145,-0.9730762385068151,-0.0005663379112311867,-0.074227,-38.547011
11.185,2.0,1.0,1.0,34.9,34.1,34.1,3.6,1.8,2.8175,-0.1735644602271153,-0.011863805482796646,-0.9759918258180499,-0.0006912857122076016,-0.075858,-38.500799
11.185,2.0,1.0,1.0,34.9,34.1,34.1,3.6,1.8,2.82,-0.15687193695080215,-0.011970482819948057,-0.9786238651178214,-0.0008242181157850104,-0.077499,-38.417226
11.185,2.0,1.0,1.0,34.9,34.1,34.1,3.6,1.8,2.8225,-0.14006788673359935,-0.012134918925344072,-0.9809778846355894,-0.0009682753106381584,-0.079165,-38.291699
11.185,2.0,1.0,1.0,34.9,34.1,34.1,3.6,1.8,2.825,-0.12308585977270525,-0.012366716865141241,-0.9830562694866501,-0.001127370257550166,-0.080877,-38.118969
11.185,2.0,1.0,1.0,34.9,34.1,34.1,3.6,1.8,2.8275,-0.10584377542838849,-0.012678233226828494,-0.9848575820732773,-0.0013064976308458606,-0.082658,-37.892949
