1,w,sub_t,h,l1,l2,l3,g1,g2,Freq,S11_re,S21_re,S11_img,S21_img,S11_dB,S21_dB
11.185,2.0,1.0,1.0,34.2,33.7,33.7,3.0,4.2,2.5,0.753782879581061,-0.00849736512114378,0.645568031898218,0.00385120125598474,-0.065873,-40.602963
11.185,2.0,1.0,1.0,34.2,33.7,33.7,3.0,4.2,2.5025,0.7487907089213037,-0.008644137250533129,0.6512380934200304,0.0038288817005335423,-0.066526,-40.487526
11.185,2.0,1.0,1.0,34.2,33.7,33.7,3.0,4.2,2.505,0.7437302382110947,-0.008793071354079881,0.6568967315645637,0.003804857526124998,-0.06719,-40.371808
11.185,2.0,1.0,1.0,34.2,33.7,33.7,3.0,4.2,2.5075,0.7386007942789523,-0.008944198244852753,0.6625433852992471,0.0037790748016741124,-0.067865,-40.2558
11.185,2.0,1.0,1.0,34.2,33.7,33.7,3.0,4.2,2.51,0.7334016960893475,-0.00909754910667782,0.6681774776807937,0.003751477898852482,-0.068552,-40.139498
11.185,2.0,1.0,1.0,34.2,33.7,33.7,3.0,4.2,2.5125,0.7281322547347504,-0.009253155491307233,0.673798415395464,0.003722009434336634,-0.069251,-40.022894
11.185,2.0,1.0,1.0,34.2,33.7,33.7,3.0,4.2,2.515,0.7227917734331533,-0.009411049314984215,0.6794055882863731,0.0036906102099286244,-0.069961,-39.905982
11.185,2.0,1.0,1.0,34.2,33.7,33.7,3.0,4.2,2.5175,0.7173795475314316,-0.009571262854361285,0.6849983688674673,0.00365721915046345,-0.070684,-39.788755
11.185,2.0,1.0,1.0,34.2,33.7,33.7,3.0,4.2,2.52,0.7118948645148973,-0.009733828741726652,0.6905761118238404,0.003621773239414072,-0.071419,-39.671208
11.185,2.0,1.0,1.0,34.2,33.7,33.7,3.0,4.2,2.5225,0.7063370040234572,-0.009898779959489812,0.6961381534979924,0.0035842074521008622,-0.072167,-39.553333
11.185,2.0,1.0,1.0,34.2,33.7,33.7,3.0,4.2,2.525,0.7007052378747617,-0.01006614983387574,0.7016838113616828,0.0035444546864080626,-0.072928,-39.435124
11.185,2.0,1.0,1.0,34.2,33.7,33.7,3.0,4.2,2.5275,0.6949988300947805,-0.010235972027772875,0.7072123834729861,0.0035024456909052487,-0.073702,-39.316573
11.185,2.0,1.0,1.0,34.2,33.7,33.7,3.0,4.2,2.53,0.6892170369562622,-0.010408280532677082,0.712723147918157,0.003458108990267691,-0.07449,-39.197675
11.185,2.0,1.0,1.0,34.2,33.7,33.7,3.0,4.2,2.5325,0.6833591070255418,-0.010583109659670223,0.718215362237911,0.003411370807884315,-0.075291,-39.078422
11.185,2.0,1.0,1.0,34.2,33.7,33.7,3.0,4.2,2.535,0.6774242812181885,-0.010760494029368321,0.723688262837715,0.0033621549855366154,-0.076107,-38.958807
11.185,2.0,1.0,1.0,34.2,33.7,33.7,3.0,4.2,2.5375,0.6714117928640295,-0.010940468560769648,0.7291410643816685,0.0033103829000269425,-0.076937,-38.838823
11.185,2.0,1.0,1.0,34.2,33.7,33.7,3.0,4.2,2.54,0.6653208677820788,-0.011123068458929625,0.7345729591695541,0.003255973376629046,-0.077783,-38.718463
11.185,2.0,1.0,1.0,34.2,33.7,33.7,3.0,4.2,2.5425,0.6591507243659503,-0.011308329201384235,0.7399831164966311,0.0031988425992269653,-0.078643,-38.59772
11.185,2.0,1.0,1.0,34.2,33.7,33.7,3.0,4.2,2.545,0.6529005736803545,-0.011496286523239056,0.7453706819957262,0.00313890401700303,-0.079519,-38.476587
11.185,2.0,1.0,1.0,34.2,33.7,33.7,3.0,4.2,2.5475,0.6465696195693134,-0.0116869764008356,0.7507347769611746,0.0030760682475286256,-0.080411,-38.355055
11.185,2.0,1.0,1.0,34.2,33.7,33.7,3.0,4.2,2.55,0.6401570587767368,-0.011880435033901779,0.7560744976541638,0.0030102429761044176,-0.08132,-38.233119
11.185,2.0,1.0,1.0,34.2,33.7,33.7,3.0,4.2,2.5525,0.6336620810800788,-0.012076698826086436,0.7613889145890013,0.002941332851189515,-0.082244,-38.110769
11.185,2.0,1.0,1.0,34.2,33.7,33.7,3.0,4.2,2.555,0.6270838694377726,-0.012275804363772753,0.7666770717998491,0.002869239375751148,-0.083186,-37.987998
11.185,2.0,1.0,1.0,34.2,33.7,33.7,3.0,4.2,2.5575,0.6204216001512147,-0.012477788393058081,0.7719379860874426,0.002793860794358319,-0.084146,-37.8648
11.185,2.0,1.0,1.0,34.2,33.7,33.7,3.0,4.2,2.56,0.6136744430420995,-0.012682687794780708,0.7771706462452995,0.0027150919758340782,-0.085123,-37.741164
11.185,2.0,1.0,1.0,34.2,33.7,33.7,3.0,4.2,2.5625,0.6068415616459276,-0.012890539557466631,0.7823740122649311,0.0026328242912721954,-0.086119,-37.617085
11.185,2.0,1.0,1.0,34.2,33.7,33.7,3.0,4.2,2.565,0.5999221134225645,-0.01310138074806178,0.7875470145195552,0.0025469454872137265,-0.087133,-37.492554
11.185,2.0,1.0,1.0,34.2,33.7,33.7,3.0,4.2,2.5675,0.5929152499847709,-0.01331524848030562,0.7926885529257963,0.0024573395537694337,-0.088166,-37.367561
11.185,2.0,1.0,1.0,34.2,33.7,33.7,3.0,4.2,2.57,0.5858201173456522,-0.013532179880594027,0.7977974960828583,0.002363886587462659,-0.089219,-37.2421
11.185,2.0,1.0,1.0,34.2,33.7,33.7,3.0,4.2,2.5725,0.5786358561860349,-0.01375221205116892,0.8028726803886549,0.0022664626485556167,-0.090293,-37.116162
11.185,2.0,1.0,1.0,34.2,33.7,33.7,3.0,4.2,2.575,0.571361602142817,-0.01397538203046181,0.8079129091323595,0.0021649396126103837,-0.091386,-36.989738
11.185,2.0,1.0,1.0,34.2,33.7,33.7,3.0,4.2,2.5775,0.563996486119393,-0.014201726750407638,0.8129169515628433,0.0020591850160223933,-0.092501,-36.862819
11.185,2.0,1.0,1.0,34.2,33.7,33.7,3.0,4.2,2.58,0.5565396346193062,-0.014431282990532845,0.8178835419324618,0.001949061895250829,-0.093638,-36.735397
11.185,2.0,1.0,1.0,34.2,33.7,33.7,3.0,4.2,2.5825,0.5489901701043199,-0.01466408732860968,0.8228113785156449,0.0018344286194553413,-0.094797,-36.607462
11.185,2.0,1.0,1.0,34.2,33.7,33.7,3.0,4.2,2.585,0.5413472113781802,-0.014900176087654295,0.8276991226017321,0.0017151387162335503,-0.095978,-36.479006
11.185,2.0,1.0,1.0,34.2,33.7,33.7,3.0,4.2,2.5875,0.5336098739973731,-0.015139585279032678,0.8325453974615119,0.001591040690136343,-0.097183,-36.350019
11.185,2.0,1.0,1.0,34.2,33.7,33.7,3.0,4.2,2.59,0.5257772707102664,-0.015382350541421747,0.8373487872868879,0.0014619778336217122,-0.098411,-36.220492
11.185,2.0,1.0,1.0,34.2,33.7,33.7,3.0,4.2,2.5925,0.5178485119260609,-0.015628507075357404,0.8421078361031231,0.001327788030087878,-0.099665,-36.090415
11.185,2.0,1.0,1.0,34.2,33.7,33.7,3.0,4.2,2.595,0.5098227062150785,-0.015878089573082423,0.8468210466530812,0.0011883035486072704,-0.100943,-35.959778
11.185,2.0,1.0,1.0,34.2,33.7,33.7,3.0,4.2,2.5975,0.5016989608419374,-0.0161311321433889,0.8514868792529114,0.0010433508299615827,-0.102247,-35.828573
11.185,2.0,1.0,1.0,34.2,33.7,33.7,3.0,4.2,2.6,0.4934763823332747,-0.016387668231128805,0.8561037506185912,0.0008927502635550063,-0.103577,-35.696787
11.185,2.0,1.0,1.0,34.2,33.7,33.7,3.0,4.2,2.6025,0.4851540770817419,-0.016647730531043813,0.860670032662757,0.0007363159547593734,-0.104935,-35.564412
11.185,2.0,1.0,1.0,34.2,33.7,33.7,3.0,4.2,2.605,0.4767311519880548,-0.01691135089554296,0.8651840512612516,0.0005738554822179444,-0.106321,-35.431436
11.185,2.0,1.0,1.0,34.2,33.7,33.7,3.0,4.2,2.6075,0.4682067151429957,-0.017178560236029896,0.8696440849888092,0.00040516964460808483,-0.107735,-35.297849
11.185,2.0,1.0,1.0,34.2,33.7,33.7,3.0,4.2,2.61,0.4595798765513234,-0.017449388417354775,0.874048363823297,0.0002300521963324234,-0.109178,-35.163641
11.185,2.0,1.0,1.0,34.2,33.7,33.7,3.0,4.2,2.6125,0.45084974889964735,-0.01772386414493611,0.8783950678179459,4.828957157736635e-05,-0.110651,-35.0288
11.185,2.0,1.0,1.0,34.2,33.7,33.7,3.0,4.2,2.615,0.44201544837040607,-0.018002014844066123,0.8826823257409914,-0.00014033940385707881,-0.112156,-34.893314
11.185,2.0,1.0,1.0,34.2,33.7,33.7,3.0,4.2,2.6175,0.4330760955042018,-0.018283866530878216,0.8869082136821473,-0.0003360638135878229,-0.113692,-34.757172
11.185,2.0,1.0,1.0,34.2,33.7,33.7,3.0,4.2,2.62,0.42403081611282784,-0.018569443674419036,0.8910707536253436,-0.0005391209652106182,-0.115261,-34.620363
11.185,2.0,1.0,1.0,34.2,33.7,33.7,3.0,4.2,2.6225,0.4148787422454278,-0.018858769049226613,0.8951679119871576,-0.0007497567191067614,-0.116864,-34.482874
11.185,2.0,1.0,1.0,34.2,33.7,33.7,3.0,4.2,2.625,0.405619013210369,-0.019151863577773,0.899197598120365,-0.000968225832251836,-0.118501,-34.344694
11.185,2.0,1.0,1.0,34.2,33.7,33.7,3.0,4.2,2.6275,0.3962507766554701,-0.01944874616208366,0.9031576627820527,-0.0011947923178341764,-0.120173,-34.205808
11.185,2.0,1.0,1.0,34.2,33.7,33.7,3.0,4.2,2.63,0.38677318970939606,-0.019749433503793754,0.9070458965657221,-0.0014297298215408196,-0.121882,-34.066206
11.185,2.0,1.0,1.0,34.2,33.7,33.7,3.0,4.2,2.6325,0.3771854201871285,-0.020053939911847667,0.9108600282968297,-0.0016733220154265308,-0.123629,-33.925873
11.185,2.0,1.0,1.0,34.2,33.7,33.7,3.0,4.2,2.635,0.36748664786255814,-0.02036227709698774,0.9145977233911984,-0.0019258630103411725,-0.125414,-33.784797
11.185,2.0,1.0,1.0,34.2,33.7,33.7,3.0,4.2,2.6375,0.3576760658113974,-0.020674453952113144,0.9182565821757452,-0.00218765778795615,-0.127238,-33.642963
11.185,2.0,1.0,1.0,34.2,33.7,33.7,3.0,4.2,2.64,0.3477528818277133,-0.020990476317520587,0.921834138170976,-0.0024590226535018515,-0.129104,-33.500357
11.185,2.0,1.0,1.0,34.2,33.7,33.7,3.0,4.2,2.6425,0.33771631991759105,-0.021310346729959937,0.9253278563346822,-0.0027402857104032266,-0.131012,-33.356965
11.185,2.0,1.0,1.0,34.2,33.7,33.7,3.0,4.2,2.645,0.32756562187354504,-0.02163406415435614,0.9287351312662918,-0.0030317873580836333,-0.132962,-33.212773
11.185,2.0,1.0,1.0,34.2,33.7,33.7,3.0,4.2,2.6475,0.3173000489334934,-0.021961623696956263,0.9320532853713099,-0.0033338808142957784,-0.134958,-33.067765
11.185,2.0,1.0,1.0,34.2,33.7,33.7,3.0,4.2,2.65,0.30691888352825303,-0.022293016298562885,0.9352795669852928,-0.003646932663436361,-0.136999,-32.921926
11.185,2.0,1.0,1.0,34.2,33.7,33.7,3.0,4.2,2.6525,0.29642143112175706,-0.02262822840640376,0.9384111484567821,-0.003971323432402721,-0.139088,-32.775239
11.185,2.0,1.0,1.0,34.2,33.7,33.7,3.0,4.2,2.655,0.2858070221483075,-0.0229672416230722,0.9414451241886184,-0.004307448195666591,-0.141226,-32.627689
11.185,2.0,1.0,1.0,34.2,33.7,33.7,3.0,4.2,2.6575,0.27507501405145357,-0.023310032330839805,0.944378508637049,-0.004655717211360579,-0.143414,-32.479259
11.185,2.0,1.0,1.0,34.2,33.7,33.7,3.0,4.2,2.66,0.26422479342926153,-0.023656571289502215,0.9472082342680135,-0.005016556590307248,-0.145654,-32.329932
11.185,2.0,1.0,1.0,34.2,33.7,33.7,3.0,4.2,2.6625,0.2532557782909982,-0.0240068232057615,0.9499311494699735,-0.00539040900006591,-0.147947,-32.17969
11.185,2.0,1.0,1.0,34.2,33.7,33.7,3.0,4.2,2.665,0.24216742043045658,-0.024360746271977277,0.952544016422635,-0.005777734406230179,-0.150295,-32.028515
11.185,2.0,1.0,1.0,34.2,33.7,33.7,3.0,4.2,2.6675,0.23095920792146707,-0.02471829167192915,0.955043508920846,-0.0061790108533798845,-0.152701,-31.876388
11.185,2.0,1.0,1.0,34.2,33.7,33.7,3.0,4.2,2.67,0.2196306677413631,-0.02507940305102544,0.9574262101529449,-0.006594735288279256,-0.155165,-31.72329
11.185,2.0,1.0,1.0,34.2,33.7,33.7,3.0,4.2,2.6725,0.20818136852848612,-0.025444015948163493,0.9596886104327511,-0.007025424428115935,-0.15769,-31.569202
11.185,2.0,1.0,1.0,34.2,33.7,33.7,3.0,4.2,2.675,0.19661092348015108,-0.025812057186193282,0.9618271048843365,-0.007471615676797742,-0.160278,-31.414103
11.185,2.0,1.0,1.0,34.2,33.7,33.7,3.0,4.2,2.6775,0.18491899339779597,-0.02618344421765636,0.9638379910786307,-0.007933868092565905,-0.162931,-31.257972
11.185,2.0,1.0,1.0,34.2,33.7,33.7,3.0,4.2,2.68,0.1731052898864353,-0.02655808442216225,0.9657174666208319,-0.008412763410448729,-0.165651,-31.100787
11.185,2.0,1.0,1.0,34.2,33.7,33.7,3.0,4.2,2.6825,0.161169578715929,-0.026935874351421203,0.9674616266874583,-0.00890890712336721,-0.168441,-30.942527
11.185,2.0,1.0,1.0,34.2,33.7,33.7,3.0,4.2,2.685,0.1491116833519902,-0.02731669891757133,0.9690664615117702,-0.009422929626021054,-0.171302,-30.783168
11.185,2.0,1.0,1.0,34.2,33.7,33.7,3.0,4.2,2.6875,0.136931488665339,-0.0277004305200159,0.97052785381612,-0.00995548742602815,-0.174237,-30.622687
11.185,2.0,1.0,1.0,34.2,33.7,33.7,3.0,4.2,2.69,0.12462894482792294,-0.02808692810551464,0.9718415761896102,-0.010507264427168032,-0.17725,-30.46106
11.185,2.0,1.0,1.0,34.2,33.7,33.7,3.0,4.2,2.6925,0.11220407140563711,-0.028476036155751627,0.9730032884092359,-0.011078973289994878,-0.180342,-30.29826
11.185,2.0,1.0,1.0,34.2,33.7,33.7,3.0,4.2,2.695,0.09965696165766612,-0.028867583596015736,0.9740085347024259,-0.011671356875536568,-0.183516,-30.134262
11.185,2.0,1.0,1.0,34.2,33.7,33.7,3.0,4.2,2.6975,0.08698778705312696,-0.02926138261797998,0.9748527409486444,-0.01228518977829626,-0.186777,-29.969039
11.185,2.0,1.0,1.0,34.2,33.7,33.7,3.0,4.2,2.7,0.074196802016548,-0.02965722740883557,0.9755312118173496,-0.012921279955314155,-0.190126,-29.802564
11.185,2.0,1.0,1.0,34.2,33.7,33.7,3.0,4.2,2.7025,0.06128434891443383,-0.030054892778221758,0.9760391278392659,-0.013580470458648046,-0.193567,-29.634806
11.185,2.0,1.0,1.0,34.2,33.7,33.7,3.0,4.2,2.705,0.0482508632961444,-0.03045413267347738,0.9763715424074738,-0.014263641279285168,-0.197104,-29.465736
11.185,2.0,1.0,1.0,34.2,33.7,33.7,3.0,4.2,2.7075,0.03509687940326989,-0.030854678572714105,0.976523378704343,-0.014971711311219832,-0.200741,-29.295324
11.185,2.0,1.0,1.0,34.2,33.7,33.7,3.0,4.2,2.71,0.021823035962848833,-0.03125623774405691,0.9764894265497598,-0.015705640445221474,-0.204481,-29.123536
11.185,2.0,1.0,1.0,34.2,33.7,33.7,3.0,4.2,2.7125,0.00843008228099895,-0.03165849135809998,0.9762643391654653,-0.01646643180268936,-0.208328,-28.95034
11.185,2.0,1.0,1.0,34.2,33.7,33.7,3.0,4.2,2.715,-0.005081115345037091,-0.03206109243916156,0.9758426298495986,-0.01725513412094444,-0.212287,-28.7757
11.185,2.0,1.0,1.0,34.2,33.7,33.7,3.0,4.2,2.7175,-0.018709566876849326,-0.03246366363927069,0.9752186685546963,-0.01807284430236233,-0.216362,-28.599582
11.185,2.0,1.0,1.0,34.2,33.7,33.7,3.0,4.2,2.72,-0.03245415142544076,-0.03286579481695019,0.9743866783614727,-0.01892071014090474,-0.220558,-28.421947
11.185,2.0,1.0,1.0,34.2,33.7,33.7,3.0,4.2,2.7225,-0.04631360975906111,-0.03326704040074973,0.9733407318396423,-0.01979993324088269,-0.22488,-28.242756
11.185,2.0,1.0,1.0,34.2,33.7,33.7,3.0,4.2,2.725,-0.06028653640255805,-0.033666916515084064,0.9720747472858441,-0.02071177214417817,-0.229335,-28.06197
11.185,2.0,1.0,1.0,34.2,33.7,33.7,3.0,4.2,2.7275,-0.07437137130000523,-0.034064897843216334,0.9705824848273734,-0.021657545683695982,-0.233926,-27.879546
11.185,2.0,1.0,1.0,34.2,33.7,33.7,3.0,4.2,2.73,-0.08856639100929296,-0.03446041419913133,0.9688575423789157,-0.022638636582503764,-0.238661,-27.695439
11.185,2.0,1.0,1.0,34.2,33.7,33.7,3.0,4.2,2.7325,-0.10286969939408165,-0.03485284677652704,0.9668933514377523,-0.02365649531998402,-0.243546,-27.509605
11.185,2.0,1.0,1.0,34.2,33.7,33.7,3.0,4.2,2.735,-0.11727921777456629,-0.035241524039136767,0.9646831727009932,-0.02471264428836335,-0.248587,-27.321996
11.185,2.0,1.0,1.0,34.2,33.7,33.7,3.0,4.2,2.7375,-0.1317926744941392,-0.03562571721201237,0.9622200914862558,-0.025808682265234903,-0.253793,-27.132562
11.185,2.0,1.0,1.0,34.2,33.7,33.7,3.0,4.2,2.74,-0.14640759385389918,-0.0360046353281533,0.959497012934773,-0.026946289230153336,-0.25917,-26.941252
11.185,2.0,1.0,1.0,34.2,33.7,33.7,3.0,4.2,2.7425,-0.16112128436115514,-0.036377419778861185,0.9565066569732699,-0.02812723155609095,-0.264727,-26.74801
11.185,2.0,1.0,1.0,34.2,33.7,33.7,3.0,4.2,2.745,-0.1759308262313075,-0.03674313830930322,0.9532415530079352,-0.029353367609506482,-0.270472,-26.55278
11.185,2.0,1.0,1.0,34.2,33.7,33.7,3.0,4.2,2.7475,-0.19083305807475126,-0.03710077839284511,0.9496940343205043,-0.030626653796022318,-0.276416,-26.355504
11.185,2.0,1.0,1.0,34.2,33.7,33.7,3.0,4.2,2.75,-0.205824562691446,-0.0374492399085882,0.945856232132792,-0.0319491510922477,-0.282568,-26.156118
11.185,2.0,1.0,1.0,34.2,33.7,33.7,3.0,4.2,2.7525,-0.22090165188543365,-0.037787327036024033,0.9417200693019678,-0.03332303210814579,-0.288939,-25.954559
11.185,2.0,1.0,1.0,34.2,33.7,33.7,3.0,4.2,2.755,-0.2360603501995036,-0.038113739268559585,0.9372772536043643,-0.03475058872853308,-0.29554,-25.750758
11.185,2.0,1.0,1.0,34.2,33.7,33.7,3.0,4.2,2.7575,-0.2512963774562583,-0.038427061433596255,0.9325192705607231,-0.036234240386844356,-0.302384,-25.544644
11.185,2.0,1.0,1.0,34.2,33.7,33.7,3.0,4.2,2.76,-0.26660512997549307,-0.0387257525905291,0.9274373757504332,-0.03777654302918274,-0.309485,-25.336142
11.185,2.0,1.0,1.0,34.2,33.7,33.7,3.0,4.2,2.7625,-0.28198166031887073,-0.03900813365908189,0.9220225865564587,-0.03938019883192652,-0.316855,-25.125174
11.185,2.0,1.0,1.0,34.2,33.7,33.7,3.0,4.2,2.765,-0.29742065539070134,-0.03927237360833836,0.9162656732764229,-0.0410480667417414,-0.324512,-24.911656
11.185,2.0,1.0,1.0,34.2,33.7,33.7,3.0,4.2,2.7675,-0.3129164126977061,-0.039516474011116104,0.91015714952855,-0.04278317391273622,-0.332471,-24.695503
11.185,2.0,1.0,1.0,34.2,33.7,33.7,3.0,4.2,2.77,-0.3284628145403455,-0.03973825173829129,0.9036872618740709,-0.044588728121637305,-0.34075,-24.476624
11.185,2.0,1.0,1.0,34.2,33.7,33.7,3.0,4.2,2.7725,-0.3440532998726289,-0.03993531953252388,0.8968459785702368,-0.04646813124814353,-0.349369,-24.254922
11.185,2.0,1.0,1.0,34.2,33.7,33.7,3.0,4.2,2.775,-0.3596808335254755,-0.04010506415960059,0.8896229773604575,-0.04842499391393302,-0.35835,-24.030297
11.185,2.0,1.0,1.0,34.2,33.7,33.7,3.0,4.2,2.7775,-0.3753378724393942,-0.04024462178716035,0.8820076322003967,-0.05046315137991118,-0.367715,-23.802641
11.185,2.0,1.0,1.0,34.2,33.7,33.7,3.0,4.2,2.78,-0.3910163284940813,-0.04035085018351267,0.8739889988114625,-0.05258668080692864,-0.377488,-23.571844
11.185,2.0,1.0,1.0,34.2,33.7,33.7,3.0,4.2,2.7825,-0.40670752745373917,-0.04042029726194059,0.8655557989463979,-0.05479991998994293,-0.387698,-23.337787
11.185,2.0,1.0,1.0,34.2,33.7,33.7,3.0,4.2,2.785,-0.42240216346558845,-0.04044916541628139,0.856696403246062,-0.057107487678896555,-0.398374,-23.100344
11.185,2.0,1.0,1.0,34.2,33.7,33.7,3.0,4.2,2.7875,-0.4380902484523215,-0.040433270999268044,0.8473988125629666,-0.05951430560061692,-0.409549,-22.859384
11.185,2.0,1.0,1.0,34.2,33.7,33.7,3.0,4.2,2.79,-0.4537610556245315,-0.04036799818313378,0.8376506376264994,-0.06202562229378193,-0.421258,-22.614768
11.185,2.0,1.0,1.0,34.2,33.7,33.7,3.0,4.2,2.7925,-0.4694030562022875,-0.0402482463087452,0.8274390769287046,-0.06464703886192898,-0.43354,-22.366348
11.185,2.0,1.0,1.0,34.2,33.7,33.7,3.0,4.2,2.795,-0.4850038482719159,-0.04006836967066904,0.8167508927197786,-0.06738453673567231,-0.446439,-22.113968
11.185,2.0,1.0,1.0,34.2,33.7,33.7,3.0,4.2,2.7975,-0.5005500765088133,-0.03982210849577523,0.8055723850219708,-0.0702445075119887,-0.460002,-21.857463
11.185,2.0,1.0,1.0,34.2,33.7,33.7,3.0,4.2,2.8,-0.5160273412635074,-0.03950250964574819,0.793889363602759,-0.07323378490205228,-0.474281,-21.596658
11.185,2.0,1.0,1.0,34.2,33.7,33.7,3.0,4.2,2.8025,-0.531420095227615,-0.03910183530130467,0.7816871178981987,-0.07635967876464893,-0.489336,-21.331367
11.185,2.0,1.0,1.0,34.2,33.7,33.7,3.0,4.2,2.805,-0.546711525559155,-0.03861145755833876,0.7689503849517707,-0.0796300111230513,-0.505231,-21.061393
11.185,2.0,1.0,1.0,34.2,33.7,33.7,3.0,4.2,2.8075,-0.5618834189406366,-0.0380217364718349,0.7556633155420243,-0.0830531539503485,-0.522037,-20.786528
11.185,2.0,1.0,1.0,34.2,33.7,33.7,3.0,4.2,2.81,-0.5769160065535736,-0.03732187860782451,0.7418094388261721,-0.08663806834935715,-0.539836,-20.50655
11.185,2.0,1.0,1.0,34.2,33.7,33.7,3.0,4.2,2.8125,-0.591787785361627,-0.0364997725893963,0.727371626043395,-0.0903943445318055,-0.558717,-20.221223
11.185,2.0,1.0,1.0,34.2,33.7,33.7,3.0,4.2,2.815,-0.6064753113795086,-0.03554179742852995,0.71233205412358,-0.09433224169495726,-0.578782,-19.930297
11.185,2.0,1.0,1.0,34.2,33.7,33.7,3.0,4.2,2.8175,-0.6209529597395788,-0.034432598595601445,0.6966721704658352,-0.09846272647151726,-0.600144,-19.633507
11.185,2.0,1.0,1.0,34.2,33.7,33.7,3.0,4.2,2.82,-0.6351926453209863,-0.03315482576192,0.68037266072868,-0.10279750804872728,-0.622933,-19.330568
11.185,2.0,1.0,1.0,34.2,33.7,33.7,3.0,4.2,2.8225,-0.6491634964392284,-0.031688824920867074,0.6634134222683341,-0.1073490672578368,-0.647293,-19.021181
11.185,2.0,1.0,1.0,34.2,33.7,33.7,3.0,4.2,2.825,-0.6628314725628393,-0.030012276107030972,0.6457735469525171,-0.11213067584731802,-0.67339,-18.705026
11.185,2.0,1.0,1.0,34.2,33.7,33.7,3.0,4.2,2.8275,-0.6761589151773163,-0.028099766140702698,0.6274313185737739,-0.1171564006648425,-0.701414,-18.381764
