1,w,sub_t,h,l1,l2,l3,g1,g2,Freq,S11_re,S21_re,S11_img,S21_img,S11_dB,S21_dB
11.185,2.0,1.0,1.0,33.1,33.7,33.7,2.2,4.3,2.5,0.887561065539772,-0.00560429411206929,0.44685598480524,0.00515268074217236,-0.054871,-42.368849
11.185,2.0,1.0,1.0,33.1,33.7,33.7,2.2,4.3,2.5025,0.8846609003969365,-0.005723078280208987,0.4524459663428978,0.005182307534296477,-0.055367,-42.246813
11.185,2.0,1.0,1.0,33.1,33.7,33.7,2.2,4.3,2.505,0.8817131413533905,-0.005844021171082197,0.4580389084016201,0.005211512927115377,-0.055871,-42.124513
11.185,2.0,1.0,1.0,33.1,33.7,33.7,2.2,4.3,2.5075,0.8787173116091472,-0.005967166453297324,0.46363465365162937,0.005240275028929965,-0.056383,-42.00194
11.185,2.0,1.0,1.0,33.1,33.7,33.7,2.2,4.3,2.51,0.8756729260609358,-0.006092558903800797,0.46923303958145945,0.005268571097935277,-0.056905,-41.879085
11.185,2.0,1.0,1.0,33.1,33.7,33.7,2.2,4.3,2.5125,0.8725794911389876,-0.0062202444413220126,0.47483389831376127,0.0052963775067045105,-0.057435,-41.755939
11.185,2.0,1.0,1.0,33.1,33.7,33.7,2.2,4.3,2.515,0.8694365046402777,-0.006350270160979392,0.48043705641453827,0.005323669705038864,-0.057974,-41.632495
11.185,2.0,1.0,1.0,33.1,33.7,33.7,2.2,4.3,2.5175,0.8662434555581527,-0.0064826843700931565,0.48604233469554736,0.005350422181099263,-0.058523,-41.508742
11.185,2.0,1.0,1.0,33.1,33.7,33.7,2.2,4.3,2.52,0.862999823908242,-0.006617536625252327,0.4916495480096046,0.0053766084207318935,-0.059082,-41.384673
11.185,2.0,1.0,1.0,33.1,33.7,33.7,2.2,4.3,2.5225,0.8597050805505831,-0.006754877770685128,0.4972585050385015,0.005402200864893682,-0.059651,-41.260279
11.185,2.0,1.0,1.0,33.1,33.7,33.7,2.2,4.3,2.525,0.85635868700785,-0.0068947599779848,0.5028690080732443,0.005427170865079209,-0.060229,-41.13555
11.185,2.0,1.0,1.0,33.1,33.7,33.7,2.2,4.3,2.5275,0.8529600952796076,-0.0070372367872447,0.5084808527863209,0.00545148863664391,-0.060818,-41.010477
11.185,2.0,1.0,1.0,33.1,33.7,33.7,2.2,4.3,2.53,0.8495087476524886,-0.007182363149658589,0.5140938279956464,0.005475123209913531,-0.061418,-40.885051
11.185,2.0,1.0,1.0,33.1,33.7,33.7,2.2,4.3,2.5325,0.8460040765061961,-0.00733019547164494,0.5197077154198768,0.005498042378961708,-0.062028,-40.759264
11.185,2.0,1.0,1.0,33.1,33.7,33.7,2.2,4.3,2.535,0.8424455041152323,-0.007480791660556637,0.5253222894247296,0.00552021264793214,-0.06265,-40.633104
11.185,2.0,1.0,1.0,33.1,33.7,33.7,2.2,4.3,2.5375,0.8388324424462512,-0.007634211172039461,0.530937316759938,0.0055415991747732474,-0.063283,-40.506563
11.185,2.0,1.0,1.0,33.1,33.7,33.7,2.2,4.3,2.54,0.8351642929509285,-0.0077905150591064355,0.5365525562864639,0.005562165712245678,-0.063927,-40.379632
11.185,2.0,1.0,1.0,33.1,33.7,33.7,2.2,4.3,2.5425,0.8314404463542409,-0.007949766022997419,0.5421677586935633,0.005581874546054867,-0.064584,-40.2523
11.185,2.0,1.0,1.0,33.1,33.7,33.7,2.2,4.3,2.545,0.8276602824380401,-0.008112028465896317,0.5477826662052789,0.0056006864299510415,-0.065252,-40.124558
11.185,2.0,1.0,1.0,33.1,33.7,33.7,2.2,4.3,2.5475,0.823823169819818,-0.008277368545582224,0.5533970122759202,0.005618560517630022,-0.065934,-39.996395
11.185,2.0,1.0,1.0,33.1,33.7,33.7,2.2,4.3,2.55,0.8199284657265287,-0.008445854232093162,0.5590105212740746,0.005635454291257218,-0.066628,-39.867801
11.185,2.0,1.0,1.0,33.1,33.7,33.7,2.2,4.3,2.5525,0.8159755157633704,-0.008617555366485447,0.5646229081546479,0.00565132348642647,-0.067335,-39.738766
11.185,2.0,1.0,1.0,33.1,33.7,33.7,2.2,4.3,2.555,0.811963653677383,-0.008792543721775174,0.5702338781184425,0.005666122013353009,-0.068056,-39.60928
11.185,2.0,1.0,1.0,33.1,33.7,33.7,2.2,4.3,2.5575,0.8078922011157482,-0.008970893066152378,0.5758431262587324,0.0056798018740870865,-0.068791,-39.479332
11.185,2.0,1.0,1.0,33.1,33.7,33.7,2.2,4.3,2.56,0.803760467378658,-0.009152679228562962,0.5814503371942726,0.005692313075521119,-0.06954,-39.348912
11.185,2.0,1.0,1.0,33.1,33.7,33.7,2.2,4.3,2.5625,0.799567749166622,-0.00933798016675762,0.587055184688155,0.00570360353794801,-0.070303,-39.218008
11.185,2.0,1.0,1.0,33.1,33.7,33.7,2.2,4.3,2.565,0.7953133303220744,-0.00952687603791331,0.5926573312519047,0.0057136189989126064,-0.071082,-39.086609
11.185,2.0,1.0,1.0,33.1,33.7,33.7,2.2,4.3,2.5675,0.7909964815651453,-0.009719449271936754,0.5982564277341471,0.005722302912081478,-0.071876,-38.954704
11.185,2.0,1.0,1.0,33.1,33.7,33.7,2.2,4.3,2.57,0.7866164602234524,-0.009915784647567693,0.6038521128931844,0.005729596340837436,-0.072685,-38.822282
11.185,2.0,1.0,1.0,33.1,33.7,33.7,2.2,4.3,2.5725,0.7821725099557649,-0.010115969371405218,0.6094440129527555,0.0057354378462868925,-0.073511,-38.689331
11.185,2.0,1.0,1.0,33.1,33.7,33.7,2.2,4.3,2.575,0.7776638604693895,-0.010320093159988886,0.6150317411402262,0.005739763369347321,-0.074354,-38.55584
11.185,2.0,1.0,1.0,33.1,33.7,33.7,2.2,4.3,2.5775,0.773089727231132,-0.010528248325074974,0.62061489720642,0.005742506106561828,-0.075213,-38.421795
11.185,2.0,1.0,1.0,33.1,33.7,33.7,2.2,4.3,2.58,0.7684493111716699,-0.010740529862257485,0.6261930669262502,0.005743596379265972,-0.076091,-38.287187
11.185,2.0,1.0,1.0,33.1,33.7,33.7,2.2,4.3,2.5825,0.7637417983831769,-0.010957035543093846,0.6317658215792806,0.005742961495710633,-0.076986,-38.152001
11.185,2.0,1.0,1.0,33.1,33.7,33.7,2.2,4.3,2.585,0.7589663598100381,-0.01117786601090469,0.6373327174092839,0.005740525605723127,-0.077899,-38.016225
11.185,2.0,1.0,1.0,33.1,33.7,33.7,2.2,4.3,2.5875,0.7541221509324791,-0.011403124880427325,0.6428932950618249,0.0057362095474677004,-0.078832,-37.879847
11.185,2.0,1.0,1.0,33.1,33.7,33.7,2.2,4.3,2.59,0.7492083114429502,-0.011632918841508959,0.6484470789988415,0.005729930685846003,-0.079784,-37.742853
11.185,2.0,1.0,1.0,33.1,33.7,33.7,2.2,4.3,2.5925,0.7442239649150716,-0.011867357767030969,0.6539935768891344,0.005721602742056468,-0.080757,-37.60523
11.185,2.0,1.0,1.0,33.1,33.7,33.7,2.2,4.3,2.595,0.739168218464979,-0.012106554825254029,0.6595322789736144,0.005711135613809811,-0.08175,-37.466966
11.185,2.0,1.0,1.0,33.1,33.7,33.7,2.2,4.3,2.5975,0.7340401624048686,-0.012350626596767188,0.6650626574041171,0.005698435185671307,-0.082764,-37.328045
11.185,2.0,1.0,1.0,33.1,33.7,33.7,2.2,4.3,2.6,0.7288388698885607,-0.012599693196210012,0.670584165554485,0.0056834031289661425,-0.0838,-37.188454
11.185,2.0,1.0,1.0,33.1,33.7,33.7,2.2,4.3,2.6025,0.7235633965488958,-0.012853878398916796,0.6760962373025763,0.005665936690639282,-0.084859,-37.048178
11.185,2.0,1.0,1.0,33.1,33.7,33.7,2.2,4.3,2.605,0.7182127801267534,-0.013113309772610786,0.6815982862817747,0.005645928470399455,-0.085941,-36.907204
11.185,2.0,1.0,1.0,33.1,33.7,33.7,2.2,4.3,2.6075,0.712786040091508,-0.013378118814256929,0.6870897051004758,0.005623266185396501,-0.087047,-36.765516
11.185,2.0,1.0,1.0,33.1,33.7,33.7,2.2,4.3,2.61,0.7072821772527158,-0.013648441092176316,0.6925698645279659,0.005597832421582347,-0.088178,-36.623098
11.185,2.0,1.0,1.0,33.1,33.7,33.7,2.2,4.3,2.6125,0.7017001733628225,-0.013924416393538263,0.6980381126449766,0.005569504370794484,-0.089333,-36.479936
11.185,2.0,1.0,1.0,33.1,33.7,33.7,2.2,4.3,2.615,0.6960389907106855,-0.014206188877383919,0.703493773957142,0.0055381535524835716,-0.090515,-36.336014
11.185,2.0,1.0,1.0,33.1,33.7,33.7,2.2,4.3,2.6175,0.6902975717057028,-0.01449390723339715,0.7089361484694227,0.005503645518900688,-0.091724,-36.191316
11.185,2.0,1.0,1.0,33.1,33.7,33.7,2.2,4.3,2.62,0.6844748384523305,-0.014787724846715665,0.7143645107195004,0.005465839542471129,-0.092961,-36.045824
11.185,2.0,1.0,1.0,33.1,33.7,33.7,2.2,4.3,2.6225,0.678569692314772,-0.01508779996915538,0.7197781087679758,0.0054245882840204766,-0.094226,-35.899522
11.185,2.0,1.0,1.0,33.1,33.7,33.7,2.2,4.3,2.625,0.672581013471632,-0.0153942958972829,0.72517616314309,0.00537973744048017,-0.095521,-35.752393
11.185,2.0,1.0,1.0,33.1,33.7,33.7,2.2,4.3,2.6275,0.6665076604603021,-0.01570738115780953,0.730557865737543,0.005331125370671624,-0.096846,-35.60442
11.185,2.0,1.0,1.0,33.1,33.7,33.7,2.2,4.3,2.63,0.660348469710873,-0.016027229700779064,0.7359223786548307,0.005278582697737271,-0.098202,-35.455583
11.185,2.0,1.0,1.0,33.1,33.7,33.7,2.2,4.3,2.6325,0.6541022550693515,-0.016354021100995736,0.7412688330023373,0.005221931886729426,-0.099591,-35.305866
11.185,2.0,1.0,1.0,33.1,33.7,33.7,2.2,4.3,2.635,0.6477678073099655,-0.01668794076809047,0.7465963276282643,0.005160986795780092,-0.101013,-35.155248
11.185,2.0,1.0,1.0,33.1,33.7,33.7,2.2,4.3,2.6375,0.6413438936363569,-0.017029180165572727,0.7519039277992603,0.005095552199144957,-0.10247,-35.003712
11.185,2.0,1.0,1.0,33.1,33.7,33.7,2.2,4.3,2.64,0.634829257171436,-0.017377937039173005,0.7571906638154319,0.0050254232802507,-0.103963,-34.851236
11.185,2.0,1.0,1.0,33.1,33.7,33.7,2.2,4.3,2.6425,0.628222616435718,-0.017734415654751798,0.7624555295591633,0.00495038509268231,-0.105493,-34.6978
11.185,2.0,1.0,1.0,33.1,33.7,33.7,2.2,4.3,2.645,0.621522664813935,-0.018098827046043292,0.7676974809739502,0.004870211986834773,-0.10706,-34.543385
11.185,2.0,1.0,1.0,33.1,33.7,33.7,2.2,4.3,2.6475,0.6147280700097564,-0.018471389272504794,0.772915434469177,0.004784666999728779,-0.108667,-34.387969
11.185,2.0,1.0,1.0,33.1,33.7,33.7,2.2,4.3,2.65,0.6078374734884259,-0.018852327687559987,0.7781082652464898,0.004693501205255685,-0.110315,-34.23153
11.185,2.0,1.0,1.0,33.1,33.7,33.7,2.2,4.3,2.6525,0.6008494899072031,-0.01924187521753921,0.7832748055431,0.004596453021874245,-0.112005,-34.074045
11.185,2.0,1.0,1.0,33.1,33.7,33.7,2.2,4.3,2.655,0.5937627065334402,-0.019640272651640485,0.788413842787034,0.0044932474745250145,-0.113739,-33.915493
11.185,2.0,1.0,1.0,33.1,33.7,33.7,2.2,4.3,2.6575,0.5865756826502144,-0.020047768943244615,0.7935241176589573,0.0043835954072588045,-0.115518,-33.755849
11.185,2.0,1.0,1.0,33.1,33.7,33.7,2.2,4.3,2.66,0.5792869489494255,-0.020464621522924477,0.7986043220548423,0.004267192642782383,-0.117344,-33.59509
11.185,2.0,1.0,1.0,33.1,33.7,33.7,2.2,4.3,2.6625,0.5718950069123337,-0.020891096623485414,0.8036530969432805,0.004143719084809127,-0.119219,-33.43319
11.185,2.0,1.0,1.0,33.1,33.7,33.7,2.2,4.3,2.665,0.564398328177518,-0.021327469617363634,0.8086690301108107,0.004012837758753998,-0.121144,-33.270124
11.185,2.0,1.0,1.0,33.1,33.7,33.7,2.2,4.3,2.6675,0.5567953538963312,-0.021774025366688123,0.813650653788107,0.003874193785933001,-0.123121,-33.105867
11.185,2.0,1.0,1.0,33.1,33.7,33.7,2.2,4.3,2.67,0.5490844940759478,-0.022231058586283922,0.8185964421493241,0.0037274132860070927,-0.125152,-32.940392
11.185,2.0,1.0,1.0,33.1,33.7,33.7,2.2,4.3,2.6725,0.5412641269101847,-0.02269887421985662,0.8235048086762988,0.0035721022019488276,-0.12724,-32.773671
11.185,2.0,1.0,1.0,33.1,33.7,33.7,2.2,4.3,2.675,0.5333325980983662,-0.02317778782954615,0.8283741033786483,0.0034078450413027126,-0.129385,-32.605675
11.185,2.0,1.0,1.0,33.1,33.7,33.7,2.2,4.3,2.6775,0.52528822015259,-0.02366812599897951,0.8332026098600779,0.003234203526948104,-0.131592,-32.436376
11.185,2.0,1.0,1.0,33.1,33.7,33.7,2.2,4.3,2.68,0.5171292716938559,-0.024170226749875044,0.8379885422204554,0.0030507151499571936,-0.133861,-32.265744
11.185,2.0,1.0,1.0,33.1,33.7,33.7,2.2,4.3,2.6825,0.5088539967376766,-0.02468443997215964,0.842730041782299,0.0028568916164591254,-0.136196,-32.093747
11.185,2.0,1.0,1.0,33.1,33.7,33.7,2.2,4.3,2.685,0.5004606039699113,-0.02521112786745102,0.8474251736294497,0.0026522171796700077,-0.138599,-31.920355
11.185,2.0,1.0,1.0,33.1,33.7,33.7,2.2,4.3,2.6875,0.491947266013767,-0.0257506654056234,0.852071922944606,0.00243614684742039,-0.141073,-31.745534
11.185,2.0,1.0,1.0,33.1,33.7,33.7,2.2,4.3,2.69,0.48331211868911766,-0.026303440794016735,0.8566681911313022,0.002208104454596289,-0.14362,-31.569251
11.185,2.0,1.0,1.0,33.1,33.7,33.7,2.2,4.3,2.6925,0.4745532602655138,-0.026869855958661735,0.8612117917046562,0.0019674805888977216,-0.146245,-31.391471
11.185,2.0,1.0,1.0,33.1,33.7,33.7,2.2,4.3,2.695,0.46566875071058905,-0.027450327036664217,0.8657004459338327,0.001713630357201841,-0.148949,-31.212158
11.185,2.0,1.0,1.0,33.1,33.7,33.7,2.2,4.3,2.6975,0.4566566109358361,-0.028045284878629922,0.870131778217675,0.0014458709785774503,-0.151737,-31.031275
11.185,2.0,1.0,1.0,33.1,33.7,33.7,2.2,4.3,2.7,0.44751482204217985,-0.028655175559687694,0.874503311173281,0.0011634791886283929,-0.154612,-30.848785
11.185,2.0,1.0,1.0,33.1,33.7,33.7,2.2,4.3,2.7025,0.4382413245681743,-0.029280460897299132,0.8788124604154739,0.0008656884383207155,-0.157577,-30.664647
11.185,2.0,1.0,1.0,33.1,33.7,33.7,2.2,4.3,2.705,0.4288340177442135,-0.029921618973593644,0.8830565290030781,0.0005516858687623791,-0.160638,-30.478822
11.185,2.0,1.0,1.0,33.1,33.7,33.7,2.2,4.3,2.7075,0.41929075875673655,-0.03057914465944752,0.887232701525687,0.00022060904152891312,-0.163798,-30.291267
11.185,2.0,1.0,1.0,33.1,33.7,33.7,2.2,4.3,2.71,0.40960936202714515,-0.03125355013690314,0.8913380378021077,-0.000128457597954585,-0.167061,-30.10194
11.185,2.0,1.0,1.0,33.1,33.7,33.7,2.2,4.3,2.7125,0.3997875985109716,-0.03194536541579751,0.8953694661589391,-0.0004964865487838905,-0.170432,-29.910794
11.185,2.0,1.0,1.0,33.1,33.7,33.7,2.2,4.3,2.715,0.389823195023823,-0.03265513883960609,0.89932377625467,-0.0008845114020890568,-0.173917,-29.717784
11.185,2.0,1.0,1.0,33.1,33.7,33.7,2.2,4.3,2.7175,0.37971383360177163,-0.03338343757449559,0.903197611411322,-0.0012936313379606503,-0.177521,-29.522862
11.185,2.0,1.0,1.0,33.1,33.7,33.7,2.2,4.3,2.72,0.3694571509052004,-0.03413084807438226,0.9069874604118804,-0.0017250160052685417,-0.181249,-29.325979
11.185,2.0,1.0,1.0,33.1,33.7,33.7,2.2,4.3,2.7225,0.35905073767665113,-0.034897976513387025,0.9106896487175822,-0.002179910821442085,-0.185107,-29.127082
11.185,2.0,1.0,1.0,33.1,33.7,33.7,2.2,4.3,2.725,0.3484921382651063,-0.03568544917541461,0.9143003290544661,-0.002659642733285776,-0.189103,-28.926119
11.185,2.0,1.0,1.0,33.1,33.7,33.7,2.2,4.3,2.7275,0.3377788502312119,-0.036493912788632676,0.9178154713133988,-0.0031656264843929016,-0.193242,-28.723035
11.185,2.0,1.0,1.0,33.1,33.7,33.7,2.2,4.3,2.73,0.32690832405053616,-0.037324034790314944,0.9212308517019859,-0.003699371439737301,-0.197532,-28.517772
11.185,2.0,1.0,1.0,33.1,33.7,33.7,2.2,4.3,2.7325,0.3158779629348521,-0.038176503504794804,0.9245420410803142,-0.0042624890236539125,-0.201982,-28.310272
11.185,2.0,1.0,1.0,33.1,33.7,33.7,2.2,4.3,2.735,0.3046851227949469,-0.03905202821405962,0.9277443924052143,-0.0048567008337277225,-0.206599,-28.100472
11.185,2.0,1.0,1.0,33.1,33.7,33.7,2.2,4.3,2.7375,0.29332711237251946,-0.03995133909672415,0.9308330271996527,-0.005483847500198328,-0.211392,-27.888308
11.185,2.0,1.0,1.0,33.1,33.7,33.7,2.2,4.3,2.74,0.281801193573554,-0.04087518700663254,0.9338028209547674,-0.0061458983684451705,-0.21637,-27.673715
11.185,2.0,1.0,1.0,33.1,33.7,33.7,2.2,4.3,2.7425,0.270104582041203,-0.04182434305703492,0.936648387361901,-0.0068449620910694805,-0.221545,-27.456624
11.185,2.0,1.0,1.0,33.1,33.7,33.7,2.2,4.3,2.745,0.2582344480129306,-0.04279959796999746,0.939364061260563,-0.007583298226156927,-0.226927,-27.236963
11.185,2.0,1.0,1.0,33.1,33.7,33.7,2.2,4.3,2.7475,0.24618791751455932,-0.043801761143258934,0.9419438801754352,-0.008363329949642579,-0.232527,-27.014658
11.185,2.0,1.0,1.0,33.1,33.7,33.7,2.2,4.3,2.75,0.233962073953217,-0.0448316593779086,0.944381564301126,-0.00918765800247206,-0.238359,-26.78963
11.185,2.0,1.0,1.0,33.1,33.7,33.7,2.2,4.3,2.7525,0.22155396018228546,-0.04589013519976286,0.9466704947771817,-0.010059076007649152,-0.244436,-26.561801
11.185,2.0,1.0,1.0,33.1,33.7,33.7,2.2,4.3,2.755,0.2089605811245955,-0.04697804469483382,0.9488036900776178,-0.010980587308496333,-0.250772,-26.331084
11.185,2.0,1.0,1.0,33.1,33.7,33.7,2.2,4.3,2.7575,0.1961789070557297,-0.04809625476441993,0.9507737803187358,-0.011955423497774849,-0.257385,-26.097395
11.185,2.0,1.0,1.0,33.1,33.7,33.7,2.2,4.3,2.76,0.18320587766794116,-0.04924563968762052,0.952572979265843,-0.012987064827976492,-0.26429,-25.86064
11.185,2.0,1.0,1.0,33.1,33.7,33.7,2.2,4.3,2.7625,0.17003840705730647,-0.050427076857918696,0.9541930537934674,-0.01407926271643273,-0.271506,-25.620726
11.185,2.0,1.0,1.0,33.1,33.7,33.7,2.2,4.3,2.765,0.15667338980324652,-0.05164144153517148,0.9556252905243284,-0.015236064585209312,-0.279054,-25.377554
11.185,2.0,1.0,1.0,33.1,33.7,33.7,2.2,4.3,2.7675,0.14310770834116524,-0.052889600424048014,0.9568604593392391,-0.016461841305455208,-0.286955,-25.131019
11.185,2.0,1.0,1.0,33.1,33.7,33.7,2.2,4.3,2.77,0.12933824186684084,-0.054172403853622285,0.9578887734129284,-0.017761317549368157,-0.295233,-24.881014
11.185,2.0,1.0,1.0,33.1,33.7,33.7,2.2,4.3,2.7725,0.11536187705667537,-0.055490676289175624,0.9586998453888521,-0.019139605390665972,-0.303913,-24.627427
11.185,2.0,1.0,1.0,33.1,33.7,33.7,2.2,4.3,2.775,0.10117552094253193,-0.05684520485475293,0.9592826392589712,-0.020602241536914045,-0.313024,-24.37014
11.185,2.0,1.0,1.0,33.1,33.7,33.7,2.2,4.3,2.7775,0.08677611634563732,-0.05823672548172369,0.959625417461584,-0.022155228624751496,-0.322597,-24.10903
11.185,2.0,1.0,1.0,33.1,33.7,33.7,2.2,4.3,2.78,0.07216066035332135,-0.05966590622219734,0.9597156826510475,-0.023805081062517216,-0.332665,-23.843969
11.185,2.0,1.0,1.0,33.1,33.7,33.7,2.2,4.3,2.7825,0.05732622641822487,-0.061133327173736624,0.9595401135269938,-0.025558875964500155,-0.343264,-23.574821
11.185,2.0,1.0,1.0,33.1,33.7,33.7,2.2,4.3,2.785,0.04226999077548888,-0.06263945634988086,0.9590844940368944,-0.027424309787521754,-0.354435,-23.301446
11.185,2.0,1.0,1.0,33.1,33.7,33.7,2.2,4.3,2.7875,0.026989264014160158,-0.0641846206951272,0.9583336351841029,-0.029409761354135474,-0.366222,-23.023697
11.185,2.0,1.0,1.0,33.1,33.7,33.7,2.2,4.3,2.79,0.011481528809815287,-0.0657689712778541,0.9572712885834165,-0.031524362027644755,-0.378675,-22.74142
11.185,2.0,1.0,1.0,33.1,33.7,33.7,2.2,4.3,2.7925,-0.004255514966592082,-0.06739244149348596,0.9558800508078825,-0.033778073892254554,-0.391846,-22.454453
11.185,2.0,1.0,1.0,33.1,33.7,33.7,2.2,4.3,2.795,-0.020223896295175965,-0.06905469686474489,0.9541412574642151,-0.036181776886483975,-0.405796,-22.162627
11.185,2.0,1.0,1.0,33.1,33.7,33.7,2.2,4.3,2.7975,-0.036425308430544506,-0.07075507472580549,0.9520348658211483,-0.0387473659381783,-0.42059,-21.865765
11.185,2.0,1.0,1.0,33.1,33.7,33.7,2.2,4.3,2.8,-0.05286103154502691,-0.07249251170986462,0.9495393246971957,-0.04148785925284659,-0.436302,-21.563682
11.185,2.0,1.0,1.0,33.1,33.7,33.7,2.2,4.3,2.8025,-0.0695318399699021,-0.07426545650919893,0.9466314301955376,-0.04441751900973884,-0.453014,-21.256183
11.185,2.0,1.0,1.0,33.1,33.7,33.7,2.2,4.3,2.805,-0.08643789084260571,-0.07607176482359915,0.9432861657597537,-0.04755198581606764,-0.470815,-20.943064
11.185,2.0,1.0,1.0,33.1,33.7,33.7,2.2,4.3,2.8075,-0.10357859026688285,-0.07790857273277338,0.9394765249241805,-0.05090842834980878,-0.48981,-20.624112
11.185,2.0,1.0,1.0,33.1,33.7,33.7,2.2,4.3,2.81,-0.12095243223002877,-0.07977214389071569,0.9351733150603696,-0.05450570967173071,-0.51011,-20.299105
11.185,2.0,1.0,1.0,33.1,33.7,33.7,2.2,4.3,2.8125,-0.138556804458304,-0.0816576849078191,0.930344940396986,-0.0583645716872662,-0.531845,-19.967808
11.185,2.0,1.0,1.0,33.1,33.7,33.7,2.2,4.3,2.815,-0.1563877540811709,-0.08355912201371585,0.9249571626441846,-0.06250783915881192,-0.555159,-19.629978
11.185,2.0,1.0,1.0,33.1,33.7,33.7,2.2,4.3,2.8175,-0.17443970435893708,-0.08546883052407163,0.9189728377284158,-0.06696064446594925,-0.580216,-19.28536
11.185,2.0,1.0,1.0,33.1,33.7,33.7,2.2,4.3,2.82,-0.19270511173630553,-0.08737730669928703,0.9123516275018879,-0.07175067392317541,-0.6072,-18.933688
11.185,2.0,1.0,1.0,33.1,33.7,33.7,2.2,4.3,2.8225,-0.21117405003099055,-0.08927276919969523,0.9050496859216782,-0.07690843580375452,-0.636323,-18.574687
11.185,2.0,1.0,1.0,33.1,33.7,33.7,2.2,4.3,2.825,-0.22983370555093685,-0.0911406744124851,0.8970193202237278,-0.08246754915871331,-0.667825,-18.208068
11.185,2.0,1.0,1.0,33.1,33.7,33.7,2.2,4.3,2.8275,-0.24866776323862824,-0.09296312633673162,0.8882086292267904,-0.08846505088394999,-0.701979,-17.833537
