1,w,sub_t,h,l1,l2,l3,g1,g2,Freq,S11_re,S21_re,S11_img,S21_img,S11_dB,S21_dB
11.185,2.0,1.0,1.0,33.5,34.5,34.5,3.5,2.5,2.5,0.847514536316359,-0.00784539069004564,0.518353324137315,0.00635684121091492,-0.056956,-39.915719
11.185,2.0,1.0,1.0,33.5,34.5,34.5,3.5,2.5,2.5025,0.8440138140361665,-0.008010894020730654,0.5239097602735396,0.00639190171154516,-0.057529,-39.786832
11.185,2.0,1.0,1.0,33.5,34.5,34.5,3.5,2.5,2.505,0.8404608241216751,-0.008179761971458682,0.5294653058308166,0.00642645844799764,-0.058114,-39.657411
11.185,2.0,1.0,1.0,33.5,34.5,34.5,3.5,2.5,2.5075,0.83685502789863,-0.008352079865393661,0.5350197247232426,0.006460482303037069,-0.05871,-39.527443
11.185,2.0,1.0,1.0,33.5,34.5,34.5,3.5,2.5,2.51,0.833195876905001,-0.008527935931962752,0.5405727735489054,0.006493942822587513,-0.059318,-39.396914
11.185,2.0,1.0,1.0,33.5,34.5,34.5,3.5,2.5,2.5125,0.8294828126649465,-0.008707421431852604,0.5461242013354183,0.006526808146229764,-0.059939,-39.265808
11.185,2.0,1.0,1.0,33.5,34.5,34.5,3.5,2.5,2.515,0.8257152664551889,-0.008890630788523118,0.5516737492757027,0.0065590449335229326,-0.060572,-39.13411
11.185,2.0,1.0,1.0,33.5,34.5,34.5,3.5,2.5,2.5175,0.821892659063422,-0.009077661726637608,0.5572211504535389,0.006590618285859037,-0.061218,-39.001806
11.185,2.0,1.0,1.0,33.5,34.5,34.5,3.5,2.5,2.52,0.8180144005383211,-0.009268615417838931,0.5627661295584084,0.0066214916635391535,-0.061877,-38.86888
11.185,2.0,1.0,1.0,33.5,34.5,34.5,3.5,2.5,2.5225,0.8140798899307379,-0.009463596634326889,0.5683084025890809,0.006651626797732233,-0.06255,-38.735316
11.185,2.0,1.0,1.0,33.5,34.5,34.5,3.5,2.5,2.525,0.8100885150255818,-0.00966271391073041,0.5738476765454048,0.006680983596951508,-0.063237,-38.601096
11.185,2.0,1.0,1.0,33.5,34.5,34.5,3.5,2.5,2.5275,0.8060396520638947,-0.009866079714799489,0.5793836491077012,0.00670952004765452,-0.063939,-38.466206
11.185,2.0,1.0,1.0,33.5,34.5,34.5,3.5,2.5,2.53,0.8019326654545734,-0.010073810627480997,0.5849160083031228,0.006737192108538537,-0.064656,-38.330627
11.185,2.0,1.0,1.0,33.5,34.5,34.5,3.5,2.5,2.5325,0.7977669074751548,-0.010286027532984965,0.5904444321583042,0.00676395359806878,-0.065388,-38.194342
11.185,2.0,1.0,1.0,33.5,34.5,34.5,3.5,2.5,2.535,0.7935417179610378,-0.01050285581949203,0.5959685883375873,0.006789756074738413,-0.066136,-38.057334
11.185,2.0,1.0,1.0,33.5,34.5,34.5,3.5,2.5,2.5375,0.7892564239824744,-0.010724425591200371,0.6014881337660352,0.006814548709516036,-0.0669,-37.919582
11.185,2.0,1.0,1.0,33.5,34.5,34.5,3.5,2.5,2.54,0.7849103395086015,-0.010950871892464886,0.6070027142364233,0.006838278149890331,-0.067682,-37.78107
11.185,2.0,1.0,1.0,33.5,34.5,34.5,3.5,2.5,2.5425,0.7805027650577401,-0.011182334944836492,0.6125119639993157,0.006860888374870859,-0.06848,-37.641777
11.185,2.0,1.0,1.0,33.5,34.5,34.5,3.5,2.5,2.545,0.7760329873331206,-0.011418960397873467,0.6180155053352788,0.006882320540247888,-0.069297,-37.501684
11.185,2.0,1.0,1.0,33.5,34.5,34.5,3.5,2.5,2.5475,0.7715002788431422,-0.01166089959466103,0.6235129481082082,0.006902512813352672,-0.070133,-37.36077
11.185,2.0,1.0,1.0,33.5,34.5,34.5,3.5,2.5,2.55,0.7669038975051758,-0.011908309853052313,0.629003889298688,0.006921400196493165,-0.070987,-37.219015
11.185,2.0,1.0,1.0,33.5,34.5,34.5,3.5,2.5,2.5525,0.7622430862318861,-0.012161354763719162,0.6344879125161825,0.006938914338164574,-0.071861,-37.076396
11.185,2.0,1.0,1.0,33.5,34.5,34.5,3.5,2.5,2.555,0.7575170724989159,-0.01242020450619095,0.6399645874888101,0.006954983331054598,-0.072756,-36.932892
11.185,2.0,1.0,1.0,33.5,34.5,34.5,3.5,2.5,2.5575,0.7527250678927212,-0.012685036184152523,0.6454334695293227,0.006969531495770626,-0.073672,-36.788481
11.185,2.0,1.0,1.0,33.5,34.5,34.5,3.5,2.5,2.56,0.7478662676372302,-0.012956034181374323,0.6508940989758084,0.006982479149120758,-0.07461,-36.643138
11.185,2.0,1.0,1.0,33.5,34.5,34.5,3.5,2.5,2.5625,0.742939850097888,-0.0132333905397612,0.65634600060552,0.00699374235566725,-0.075571,-36.49684
11.185,2.0,1.0,1.0,33.5,34.5,34.5,3.5,2.5,2.565,0.7379449762615387,-0.013517305361127413,0.6617886830201081,0.007003232661152739,-0.076555,-36.349562
11.185,2.0,1.0,1.0,33.5,34.5,34.5,3.5,2.5,2.5675,0.7328807891904584,-0.013807987234439658,0.6672216380003639,0.007010856806265049,-0.077563,-36.20128
11.185,2.0,1.0,1.0,33.5,34.5,34.5,3.5,2.5,2.57,0.727746413448712,-0.014105653690414943,0.6726443398284506,0.00701651641905785,-0.078597,-36.051965
11.185,2.0,1.0,1.0,33.5,34.5,34.5,3.5,2.5,2.5725,0.7225409544988484,-0.014410531685520882,0.6780562445754033,0.007020107684180814,-0.079656,-35.901593
11.185,2.0,1.0,1.0,33.5,34.5,34.5,3.5,2.5,2.575,0.7172634980667763,-0.014722858117599952,0.6834567893514915,0.007021520986890883,-0.080743,-35.750134
11.185,2.0,1.0,1.0,33.5,34.5,34.5,3.5,2.5,2.5775,0.7119131094724833,-0.015042880375530617,0.6888453915168153,0.0070206405296128534,-0.081857,-35.59756
11.185,2.0,1.0,1.0,33.5,34.5,34.5,3.5,2.5,2.58,0.706488832924038,-0.015370856925549166,0.6942214478492726,0.007017343918593577,-0.083001,-35.443842
11.185,2.0,1.0,1.0,33.5,34.5,34.5,3.5,2.5,2.5825,0.7009896907720937,-0.015707057937085718,0.6995843336667686,0.007011501717942869,-0.084174,-35.288949
11.185,2.0,1.0,1.0,33.5,34.5,34.5,3.5,2.5,2.585,0.6954146827218706,-0.016051765951221247,0.7049334019002391,0.007002976968074532,-0.085379,-35.13285
11.185,2.0,1.0,1.0,33.5,34.5,34.5,3.5,2.5,2.5875,0.6897627849992979,-0.016405276595150738,0.7102679821137428,0.006991624665249546,-0.086617,-34.975511
11.185,2.0,1.0,1.0,33.5,34.5,34.5,3.5,2.5,2.59,0.6840329494677144,-0.016767899346344435,0.7155873794674862,0.006977291198575051,-0.087888,-34.8169
11.185,2.0,1.0,1.0,33.5,34.5,34.5,3.5,2.5,2.5925,0.6782241026911707,-0.017139958350435035,0.7208908736192776,0.006959813740422056,-0.089195,-34.656982
11.185,2.0,1.0,1.0,33.5,34.5,34.5,3.5,2.5,2.595,0.6723351449400243,-0.01752179329723073,0.7261777175594009,0.006939019585789494,-0.090538,-34.49572
11.185,2.0,1.0,1.0,33.5,34.5,34.5,3.5,2.5,2.5975,0.6663649491340935,-0.01791376035966546,0.73144713637344,0.006914725435650431,-0.09192,-34.333077
11.185,2.0,1.0,1.0,33.5,34.5,34.5,3.5,2.5,2.6,0.6603123597181907,-0.018316233200947402,0.7366983259269811,0.00688673661876848,-0.093341,-34.169015
11.185,2.0,1.0,1.0,33.5,34.5,34.5,3.5,2.5,2.6025,0.6541761914643656,-0.018729604055669164,0.741930451465477,0.006854846245850713,-0.094803,-34.003494
11.185,2.0,1.0,1.0,33.5,34.5,34.5,3.5,2.5,2.605,0.6479552281946107,-0.019154284891195167,0.7471426461218711,0.006818834289208947,-0.096309,-33.836472
11.185,2.0,1.0,1.0,33.5,34.5,34.5,3.5,2.5,2.6075,0.6416482214171927,-0.019590708656254438,0.7523340093237268,0.006778466580313438,-0.09786,-33.667907
11.185,2.0,1.0,1.0,33.5,34.5,34.5,3.5,2.5,2.61,0.6352538888690774,-0.020039330624344057,0.7575036050907171,0.006733493716736185,-0.099458,-33.497754
11.185,2.0,1.0,1.0,33.5,34.5,34.5,3.5,2.5,2.6125,0.6287709129561664,-0.020500629840302455,0.7626504602122971,0.006683649868975518,-0.101105,-33.325966
11.185,2.0,1.0,1.0,33.5,34.5,34.5,3.5,2.5,2.615,0.6221979390822133,-0.020975110679245682,0.7677735622942075,0.00662865147651699,-0.102804,-33.152495
11.185,2.0,1.0,1.0,33.5,34.5,34.5,3.5,2.5,2.6175,0.6155335738563745,-0.02146330452798719,0.7728718576611324,0.006568195821193164,-0.104556,-32.977292
11.185,2.0,1.0,1.0,33.5,34.5,34.5,3.5,2.5,2.62,0.6087763831682869,-0.021965771600093047,0.7779442491013474,0.006501959464438703,-0.106365,-32.800305
11.185,2.0,1.0,1.0,33.5,34.5,34.5,3.5,2.5,2.6225,0.6019248901184181,-0.022483102896872706,0.782989593437474,0.006429596533365627,-0.108234,-32.62148
11.185,2.0,1.0,1.0,33.5,34.5,34.5,3.5,2.5,2.625,0.594977572790155,-0.023015922327882,0.788006698905515,0.00635073683867939,-0.110164,-32.44076
11.185,2.0,1.0,1.0,33.5,34.5,34.5,3.5,2.5,2.6275,0.5879328618486244,-0.023564889005943362,0.7929943223221433,0.006264983805281492,-0.112159,-32.258087
11.185,2.0,1.0,1.0,33.5,34.5,34.5,3.5,2.5,2.63,0.5807891379496697,-0.024130699733273794,0.7979511660176595,0.006171912193913014,-0.114223,-32.0734
11.185,2.0,1.0,1.0,33.5,34.5,34.5,3.5,2.5,2.6325,0.5735447289405852,-0.024714091697091285,0.8028758745091563,0.0060710655893427175,-0.116358,-31.886635
11.185,2.0,1.0,1.0,33.5,34.5,34.5,3.5,2.5,2.635,0.5661979068322053,-0.025315845395048817,0.8077670308850747,0.00596195362732219,-0.11857,-31.697727
11.185,2.0,1.0,1.0,33.5,34.5,34.5,3.5,2.5,2.6375,0.5587468845197149,-0.02593678781306834,0.8126231528685309,0.0058440489287642705,-0.120861,-31.506605
11.185,2.0,1.0,1.0,33.5,34.5,34.5,3.5,2.5,2.64,0.5511898122269908,-0.026577795880627805,0.8174426885223739,0.005716783705249248,-0.123236,-31.313198
11.185,2.0,1.0,1.0,33.5,34.5,34.5,3.5,2.5,2.6425,0.543524773646509,-0.027239800231332108,0.8222240115538428,0.005579545994944397,-0.125699,-31.11743
11.185,2.0,1.0,1.0,33.5,34.5,34.5,3.5,2.5,2.645,0.5357497817436552,-0.027923789299717006,0.8269654161708102,0.005431675482207378,-0.128257,-30.919221
11.185,2.0,1.0,1.0,33.5,34.5,34.5,3.5,2.5,2.6475,0.5278627741907481,-0.028630813788721905,0.8316651114347715,0.005272458847401321,-0.130913,-30.718489
11.185,2.0,1.0,1.0,33.5,34.5,34.5,3.5,2.5,2.65,0.5198616083920818,-0.029361991546185885,0.83632121504782,0.005101124585608248,-0.133674,-30.515146
11.185,2.0,1.0,1.0,33.5,34.5,34.5,3.5,2.5,2.6525,0.5117440560568716,-0.03011851289310442,0.8409317465015832,0.0049168372237955536,-0.136546,-30.309103
11.185,2.0,1.0,1.0,33.5,34.5,34.5,3.5,2.5,2.655,0.5035077972719155,-0.03090164645131418,0.8454946195053648,0.004718690855319387,-0.139536,-30.100264
11.185,2.0,1.0,1.0,33.5,34.5,34.5,3.5,2.5,2.6575,0.4951504140202085,-0.03171274552379015,0.8500076335980792,0.004505701898164388,-0.142651,-29.888528
11.185,2.0,1.0,1.0,33.5,34.5,34.5,3.5,2.5,2.66,0.48666938308540586,-0.032553255086926705,0.8544684648338075,0.004276800968664894,-0.145899,-29.67379
11.185,2.0,1.0,1.0,33.5,34.5,34.5,3.5,2.5,2.6625,0.47806206827498526,-0.033424719461110024,0.858874655413383,0.0040308237452169274,-0.149289,-29.45594
11.185,2.0,1.0,1.0,33.5,34.5,34.5,3.5,2.5,2.665,0.46932571188699235,-0.03432879073364474,0.8632236021139285,0.0037665006761602978,-0.15283,-29.234861
11.185,2.0,1.0,1.0,33.5,34.5,34.5,3.5,2.5,2.6675,0.4604574253364585,-0.03526723801676417,0.8675125433440101,0.0034824453619727836,-0.156532,-29.01043
11.185,2.0,1.0,1.0,33.5,34.5,34.5,3.5,2.5,2.67,0.4514541788476271,-0.036241957633118285,0.8717385446233374,0.003177141413415094,-0.160406,-28.782519
11.185,2.0,1.0,1.0,33.5,34.5,34.5,3.5,2.5,2.6725,0.4423127901071597,-0.03725498433187951,0.8758984822517902,0.002848927553373958,-0.164464,-28.55099
11.185,2.0,1.0,1.0,33.5,34.5,34.5,3.5,2.5,2.675,0.4330299117612878,-0.03830850365050332,0.8799890248918113,0.0024959806897415717,-0.168721,-28.315699
11.185,2.0,1.0,1.0,33.5,34.5,34.5,3.5,2.5,2.6775,0.42360201762639066,-0.03940486555029419,0.8840066127395133,0.002116296638332694,-0.173189,-28.076494
11.185,2.0,1.0,1.0,33.5,34.5,34.5,3.5,2.5,2.68,0.4140253874677252,-0.04054659946827941,0.8879474339014524,0.0017076681168659731,-0.177886,-27.833215
11.185,2.0,1.0,1.0,33.5,34.5,34.5,3.5,2.5,2.6825,0.40429609018499546,-0.04173643094345184,0.8918073975237198,0.001267659561262923,-0.18283,-27.585689
11.185,2.0,1.0,1.0,33.5,34.5,34.5,3.5,2.5,2.685,0.394409965226193,-0.04297729999210605,0.8955821031352047,0.0007935782312870022,-0.188038,-27.333737
11.185,2.0,1.0,1.0,33.5,34.5,34.5,3.5,2.5,2.6875,0.384362602032969,-0.0442723814245158,0.899266805564118,0.000282440970525261,-0.193534,-27.077166
11.185,2.0,1.0,1.0,33.5,34.5,34.5,3.5,2.5,2.69,0.37414931730204803,-0.045625107313160614,0.9028563746620302,-0.00026906413827793046,-0.199342,-26.815771
11.185,2.0,1.0,1.0,33.5,34.5,34.5,3.5,2.5,2.6925,0.3637651298285419,-0.04703919184040584,0.9063452489174214,-0.000864622132749884,-0.205487,-26.549336
11.185,2.0,1.0,1.0,33.5,34.5,34.5,3.5,2.5,2.695,0.35320473267970337,-0.048518658769817875,0.9097273818543731,-0.0015083426405746302,-0.212,-26.277629
11.185,2.0,1.0,1.0,33.5,34.5,34.5,3.5,2.5,2.6975,0.34246246243311446,-0.050067871798480455,0.9129961798831491,-0.002204819782004221,-0.218914,-26.000404
11.185,2.0,1.0,1.0,33.5,34.5,34.5,3.5,2.5,2.7,0.3315322652044456,-0.051691568055076915,0.9161444299871251,-0.0029592021082100644,-0.226266,-25.717396
11.185,2.0,1.0,1.0,33.5,34.5,34.5,3.5,2.5,2.7025,0.32040765919027026,-0.05339489500628527,0.9191642152811759,-0.00377727452550774,-0.234098,-25.428325
11.185,2.0,1.0,1.0,33.5,34.5,34.5,3.5,2.5,2.705,0.30908169346701014,-0.05518345101635075,0.9220468160424711,-0.00466555458667086,-0.242458,-25.13289
11.185,2.0,1.0,1.0,33.5,34.5,34.5,3.5,2.5,2.7075,0.29754690282612695,-0.05706332976308901,0.9247825932730183,-0.005631406068469121,-0.251398,-24.830766
11.185,2.0,1.0,1.0,33.5,34.5,34.5,3.5,2.5,2.71,0.285795258500797,-0.059041168635484254,0.9273608511748561,-0.006683173428287948,-0.26098,-24.521608
11.185,2.0,1.0,1.0,33.5,34.5,34.5,3.5,2.5,2.7125,0.27381811476861573,-0.06112420110517904,0.9297696740655805,-0.007830341579927909,-0.271273,-24.205043
11.185,2.0,1.0,1.0,33.5,34.5,34.5,3.5,2.5,2.715,0.26160615162530354,-0.06332031284958468,0.9319957321844929,-0.009083726498378032,-0.282355,-23.880669
11.185,2.0,1.0,1.0,33.5,34.5,34.5,3.5,2.5,2.7175,0.2491493140552617,-0.06563810106860206,0.9340240494737833,-0.01045570351929954,-0.294317,-23.548055
11.185,2.0,1.0,1.0,33.5,34.5,34.5,3.5,2.5,2.72,0.2364367489342783,-0.06808693592186249,0.9358377246808123,-0.011960481924360021,-0.307264,-23.206735
11.185,2.0,1.0,1.0,33.5,34.5,34.5,3.5,2.5,2.7225,0.22345674137343743,-0.07067702223318995,0.9374175949069334,-0.01361443660723671,-0.321317,-22.856204
11.185,2.0,1.0,1.0,33.5,34.5,34.5,3.5,2.5,2.725,0.21019665347875868,-0.07341945843636571,0.9387418278818099,-0.015436510439197058,-0.336617,-22.495917
11.185,2.0,1.0,1.0,33.5,34.5,34.5,3.5,2.5,2.7275,0.19664287024759897,-0.07632628798192645,0.9397854255823733,-0.017448704583256137,-0.353326,-22.125282
11.185,2.0,1.0,1.0,33.5,34.5,34.5,3.5,2.5,2.73,0.1827807599344593,-0.07941053580530485,0.9405196170985242,-0.019676678683136467,-0.37164,-21.743659
11.185,2.0,1.0,1.0,33.5,34.5,34.5,3.5,2.5,2.7325,0.1685946601221841,-0.08268621854611706,0.9409111125585812,-0.022150488888791,-0.391784,-21.35035
11.185,2.0,1.0,1.0,33.5,34.5,34.5,3.5,2.5,2.735,0.1540679065759204,-0.08616831136255629,0.9409211820649364,-0.024905499470141118,-0.414029,-20.944598
11.185,2.0,1.0,1.0,33.5,34.5,34.5,3.5,2.5,2.7375,0.1391829307194841,-0.08987264542373237,0.9405045134541652,-0.027983513807871754,-0.438697,-20.52558
11.185,2.0,1.0,1.0,33.5,34.5,34.5,3.5,2.5,2.74,0.1239214647617695,-0.09381569698744935,0.9396077896860758,-0.03143418342412253,-0.466176,-20.092398
11.185,2.0,1.0,1.0,33.5,34.5,34.5,3.5,2.5,2.7425,0.10826491342992245,-0.09801420907562827,0.9381679101142666,-0.03531677008093735,-0.496934,-19.644078
11.185,2.0,1.0,1.0,33.5,34.5,34.5,3.5,2.5,2.745,0.09219498151760096,-0.10248455658023291,0.9361097591629063,-0.03970235644401922,-0.531542,-19.17956
11.185,2.0,1.0,1.0,33.5,34.5,34.5,3.5,2.5,2.7475,0.07569469259122903,-0.10724171963810547,0.9333434006933847,-0.04467662569351127,-0.570699,-18.697696
11.185,2.0,1.0,1.0,33.5,34.5,34.5,3.5,2.5,2.75,0.0587500048681801,-0.112297659701192,0.929760547142066,-0.0503433591734624,-0.615272,-18.197245
11.185,2.0,1.0,1.0,33.5,34.5,34.5,3.5,2.5,2.7525,0.04135233894659005,-0.11765878452885783,0.9252301220597738,-0.05682883094748578,-0.666338,-17.676875
11.185,2.0,1.0,1.0,33.5,34.5,34.5,3.5,2.5,2.755,0.023502499550031673,-0.12332202166964412,0.9195927105060562,-0.06428730139500657,-0.725254,-17.135171
11.185,2.0,1.0,1.0,33.5,34.5,34.5,3.5,2.5,2.7575,0.0052167315546126315,-0.1292687633378228,0.9126536915736797,-0.07290781096668773,-0.793738,-16.570651
11.185,2.0,1.0,1.0,33.5,34.5,34.5,3.5,2.5,2.76,-0.013463953419674284,-0.1354555520800573,0.9041749099080513,-0.08292241115258638,-0.873988,-15.981803
11.185,2.0,1.0,1.0,33.5,34.5,34.5,3.5,2.5,2.7625,-0.03245944302621593,-0.14179978039533686,0.8938649496356776,-0.09461576155924772,-0.968839,-15.367146
11.185,2.0,1.0,1.0,33.5,34.5,34.5,3.5,2.5,2.765,-0.0516285575032802,-0.14815779633214132,0.8813685894984524,-0.10833550541335699,-1.081972,-14.725336
11.185,2.0,1.0,1.0,33.5,34.5,34.5,3.5,2.5,2.7675,-0.07073557441036338,-0.1542915688229249,0.8662571673234729,-0.12450168718225021,-1.218201,-14.05535
11.185,2.0,1.0,1.0,33.5,34.5,34.5,3.5,2.5,2.77,-0.08939978711467302,-0.159818504601397,0.8480239827249512,-0.14361108146081444,-1.383838,-13.356768
11.185,2.0,1.0,1.0,33.5,34.5,34.5,3.5,2.5,2.7725,-0.10702114066907456,-0.16413754007314807,0.826093623012279,-0.16622756606305053,-1.58713,-12.630243
11.185,2.0,1.0,1.0,33.5,34.5,34.5,3.5,2.5,2.775,-0.12267508228373275,-0.16632476511252575,0.7998629641581668,-0.1929408556898135,-1.838715,-11.878215
11.185,2.0,1.0,1.0,33.5,34.5,34.5,3.5,2.5,2.7775,-0.1349756423996739,-0.16499775024995292,0.7688066542687991,-0.2242609686008376,-2.151816,-11.106017
11.185,2.0,1.0,1.0,33.5,34.5,34.5,3.5,2.5,2.78,-0.14192715400386224,-0.1581691167033612,0.7327011343506706,-0.26039476871173917,-2.541493,-10.323448
11.185,2.0,1.0,1.0,33.5,34.5,34.5,3.5,2.5,2.7825,-0.14083980733660598,-0.14316444641737683,0.6920382171936859,-0.3008343046836988,-3.021147,-9.546874
11.185,2.0,1.0,1.0,33.5,34.5,34.5,3.5,2.5,2.785,-0.12849109898902572,-0.11678575974274291,0.6486710144420091,-0.3437152244367835,-3.592364,-8.801536
11.185,2.0,1.0,1.0,33.5,34.5,34.5,3.5,2.5,2.7875,-0.10184692859241191,-0.07603197829429692,0.6065670702348094,-0.38507112373144864,-4.221678,-8.123083
11.185,2.0,1.0,1.0,33.5,34.5,34.5,3.5,2.5,2.79,-0.059622771430803155,-0.019652825375781842,0.5721386979021482,-0.41851211338449584,-4.803064,-7.556273
11.185,2.0,1.0,1.0,33.5,34.5,34.5,3.5,2.5,2.7925,-0.004364725592631947,0.04978661597753923,0.5531781402484048,-0.4362930668305,-5.142429,-7.148246
11.185,2.0,1.0,1.0,33.5,34.5,34.5,3.5,2.5,2.795,0.05648956580060881,0.12486454308983272,0.5558376648292246,-0.4323213721145592,-5.056414,-6.935902
11.185,2.0,1.0,1.0,33.5,34.5,34.5,3.5,2.5,2.7975,0.11248413795271298,0.19518111047976466,0.5810935558361675,-0.4056647293711041,-4.555321,-6.93233
11.185,2.0,1.0,1.0,33.5,34.5,34.5,3.5,2.5,2.8,0.15452341070964346,0.25171707219902945,0.62378511414471,-0.36148709356915587,-3.840654,-7.121213
11.185,2.0,1.0,1.0,33.5,34.5,34.5,3.5,2.5,2.8025,0.1783771152319303,0.2903069093931755,0.6753652934216562,-0.30829754411243454,-3.116365,-7.46358
11.185,2.0,1.0,1.0,33.5,34.5,34.5,3.5,2.5,2.805,0.1848409901464022,0.31178102392387586,0.7278278749475853,-0.2540440921574229,-2.487982,-7.91167
11.185,2.0,1.0,1.0,33.5,34.5,34.5,3.5,2.5,2.8075,0.1775516311047556,0.3197827215244026,0.7759233535226107,-0.20391980169890545,-1.981974,-8.421074
11.185,2.0,1.0,1.0,33.5,34.5,34.5,3.5,2.5,2.81,0.16073346003353933,0.3185272201544874,0.8172488377425038,-0.1602834653509715,-1.58809,-8.956823
11.185,2.0,1.0,1.0,33.5,34.5,34.5,3.5,2.5,2.8125,0.137964728984776,0.311578560000595,0.851342188989376,-0.123565975012166,-1.285334,-9.494279
11.185,2.0,1.0,1.0,33.5,34.5,34.5,3.5,2.5,2.815,0.1118381514066544,0.3015163717805274,0.878744476528273,-0.09320416376946608,-1.052966,-10.017444
11.185,2.0,1.0,1.0,33.5,34.5,34.5,3.5,2.5,2.8175,0.08406449599411613,0.29004178079875576,0.9003726430085159,-0.06826412804201555,-0.87386,-10.516642
11.185,2.0,1.0,1.0,33.5,34.5,34.5,3.5,2.5,2.82,0.055701221020362256,0.2782063347380013,0.9171875060528158,-0.047770252847430666,-0.734849,-10.986465
11.185,2.0,1.0,1.0,33.5,34.5,34.5,3.5,2.5,2.8225,0.02736576806752249,0.26662482395352277,0.9300508063595996,-0.030846278836244308,-0.626108,-11.424245
11.185,2.0,1.0,1.0,33.5,34.5,34.5,3.5,2.5,2.825,-0.0006048494846263093,0.25563424618780944,0.9396817304342792,-0.0167576626630617,-0.540383,-11.828997
11.185,2.0,1.0,1.0,33.5,34.5,34.5,3.5,2.5,2.8275,-0.028045901903290826,0.24540141278488298,0.9466584427360127,-0.004909383087398564,-0.472324,-12.200721
11.185,2.0,1.0,1.0,33.5,34.5,34.5,3.5,2.5,2.83,-0.05489540047635726,0.23599209765585905,0.9514363814323057,0.005172779741772586,-0.417971,-12.539965
