1,w,sub_t,h,l1,l2,l3,g1,g2,Freq,S11_re,S21_re,S11_img,S21_img,S11_dB,S21_dB
11.185,2.0,1.0,1.0,34.4,34.8,34.8,4.1,2.0,2.5,0.719634665774074,-0.013227230365989,0.68242176894153,0.00645636210771537,-0.071932,-36.642529
11.185,2.0,1.0,1.0,34.4,34.8,34.8,4.1,2.0,2.5025,0.7141613502964477,-0.013492105952623075,0.6880031969707764,0.006443661900828142,-0.072809,-36.506104
11.185,2.0,1.0,1.0,34.4,34.8,34.8,4.1,2.0,2.505,0.7086139328937553,-0.013762594526225438,0.693568972422007,0.006428586030845258,-0.073707,-36.368852
11.185,2.0,1.0,1.0,34.4,34.8,34.8,4.1,2.0,2.5075,0.7029916085081435,-0.014038853669083706,0.6991184089386001,0.006411030265041715,-0.074625,-36.230752
11.185,2.0,1.0,1.0,34.4,34.8,34.8,4.1,2.0,2.51,0.6972935591946601,-0.014321047064818657,0.7046507994604236,0.006390885399427435,-0.075565,-36.091782
11.185,2.0,1.0,1.0,34.4,34.8,34.8,4.1,2.0,2.5125,0.691518953833234,-0.014609344805697684,0.7101654155101373,0.006368036972404673,-0.076527,-35.951922
11.185,2.0,1.0,1.0,34.4,34.8,34.8,4.1,2.0,2.515,0.6856669478271836,-0.014903923718977433,0.7156615064485655,0.0063423649585433554,-0.077512,-35.811147
11.185,2.0,1.0,1.0,34.4,34.8,34.8,4.1,2.0,2.5175,0.6797366827871709,-0.01520496771366075,0.721138298697222,0.006313743440845442,-0.078521,-35.669435
11.185,2.0,1.0,1.0,34.4,34.8,34.8,4.1,2.0,2.52,0.6737272861993833,-0.015512668149171498,0.7265949949259685,0.006282040259714944,-0.079554,-35.526762
11.185,2.0,1.0,1.0,34.4,34.8,34.8,4.1,2.0,2.5225,0.6676378710766497,-0.015827224227574536,0.732030773203546,0.006247116636682725,-0.080613,-35.383102
11.185,2.0,1.0,1.0,34.4,34.8,34.8,4.1,2.0,2.525,0.6614675355910256,-0.01614884341110769,0.7374447861085884,0.006208826770742181,-0.081698,-35.23843
11.185,2.0,1.0,1.0,34.4,34.8,34.8,4.1,2.0,2.5275,0.6552153626862725,-0.016477741866943337,0.7428361597984742,0.006167017404947237,-0.082811,-35.092719
11.185,2.0,1.0,1.0,34.4,34.8,34.8,4.1,2.0,2.53,0.6488804196684973,-0.016814144941262696,0.7482039930331377,0.006121527360688514,-0.083952,-34.945942
11.185,2.0,1.0,1.0,34.4,34.8,34.8,4.1,2.0,2.5325,0.6424617577730349,-0.017158287664907873,0.7535473561507102,0.0060721870368069236,-0.085122,-34.79807
11.185,2.0,1.0,1.0,34.4,34.8,34.8,4.1,2.0,2.535,0.6359584117054758,-0.01751041529307601,0.7588652899915632,0.006018817870415229,-0.086323,-34.649075
11.185,2.0,1.0,1.0,34.4,34.8,34.8,4.1,2.0,2.5375,0.6293693991545417,-0.017870783881738624,0.7641568047669832,0.005961231755979083,-0.087556,-34.498925
11.185,2.0,1.0,1.0,34.4,34.8,34.8,4.1,2.0,2.54,0.6226937202742616,-0.01823966090371056,0.7694208788683681,0.00589923041885004,-0.088821,-34.34759
11.185,2.0,1.0,1.0,34.4,34.8,34.8,4.1,2.0,2.5425,0.6159303571326611,-0.018617325907557245,0.7746564576124104,0.005832604739044363,-0.09012,-34.195037
11.185,2.0,1.0,1.0,34.4,34.8,34.8,4.1,2.0,2.545,0.6090782731238905,-0.019004071222820763,0.7798624519172858,0.005761134020614393,-0.091455,-34.041232
11.185,2.0,1.0,1.0,34.4,34.8,34.8,4.1,2.0,2.5475,0.6021364123404143,-0.01940020271536617,0.7850377369043422,0.005684585201459131,-0.092827,-33.886141
11.185,2.0,1.0,1.0,34.4,34.8,34.8,4.1,2.0,2.55,0.5951036989015099,-0.019806040597005196,0.7901811504192455,0.0056027119978579775,-0.094238,-33.729727
11.185,2.0,1.0,1.0,34.4,34.8,34.8,4.1,2.0,2.5525,0.5879790362339912,-0.020221920293942753,0.79529149146585,0.0055152539773826855,-0.095688,-33.571952
11.185,2.0,1.0,1.0,34.4,34.8,34.8,4.1,2.0,2.555,0.5807613063005892,-0.020648193379027197,0.8003675185453852,0.005421935553132311,-0.097181,-33.412778
11.185,2.0,1.0,1.0,34.4,34.8,34.8,4.1,2.0,2.5575,0.5734493687709876,-0.02108522857325981,0.8054079478927221,0.005322464891436409,-0.098716,-33.252165
11.185,2.0,1.0,1.0,34.4,34.8,34.8,4.1,2.0,2.56,0.5660420601299825,-0.0215334128225495,0.8104114516005417,0.0052165327242733,-0.100297,-33.090069
11.185,2.0,1.0,1.0,34.4,34.8,34.8,4.1,2.0,2.5625,0.5585381927166376,-0.021993152456282215,0.8153766556212461,0.0051038110566282175,-0.101926,-32.926448
11.185,2.0,1.0,1.0,34.4,34.8,34.8,4.1,2.0,2.565,0.5509365536876673,-0.022464874434924363,0.8203021376352378,0.004983951757868066,-0.103604,-32.761255
11.185,2.0,1.0,1.0,34.4,34.8,34.8,4.1,2.0,2.5675,0.5432359038975662,-0.02294902769459764,0.8251864247728785,0.004856585024901816,-0.105333,-32.594445
11.185,2.0,1.0,1.0,34.4,34.8,34.8,4.1,2.0,2.57,0.5354349766871825,-0.023446084597361663,0.8300279911759502,0.004721317703414314,-0.107117,-32.425966
11.185,2.0,1.0,1.0,34.4,34.8,34.8,4.1,2.0,2.5725,0.5275324765715519,-0.02395654249682695,0.834825255382704,0.004577731451777196,-0.108957,-32.255768
11.185,2.0,1.0,1.0,34.4,34.8,34.8,4.1,2.0,2.575,0.5195270778168036,-0.024480925429706896,0.8395765775186552,0.004425380730321074,-0.110857,-32.083797
11.185,2.0,1.0,1.0,34.4,34.8,34.8,4.1,2.0,2.5775,0.5114174228948434,-0.025019785945013407,0.8442802562730327,0.004263790596464593,-0.112819,-31.909998
11.185,2.0,1.0,1.0,34.4,34.8,34.8,4.1,2.0,2.58,0.5032021208032723,-0.02557370708382074,0.8489345256382717,0.004092454283692943,-0.114847,-31.734311
11.185,2.0,1.0,1.0,34.4,34.8,34.8,4.1,2.0,2.5825,0.49487974523660677,-0.026143304523883304,0.853537551387009,0.003910830539514386,-0.116942,-31.556676
11.185,2.0,1.0,1.0,34.4,34.8,34.8,4.1,2.0,2.585,0.4864488325933329,-0.026729228904905294,0.8580874272576927,0.0037183406942352705,-0.11911,-31.37703
11.185,2.0,1.0,1.0,34.4,34.8,34.8,4.1,2.0,2.5875,0.4779078798015708,-0.027332168351951444,0.862582170816099,0.0035143654286156636,-0.121354,-31.195304
11.185,2.0,1.0,1.0,34.4,34.8,34.8,4.1,2.0,2.59,0.46925534194422264,-0.027952851216370263,0.8670197189555758,0.0032982412041167464,-0.123678,-31.011431
11.185,2.0,1.0,1.0,34.4,34.8,34.8,4.1,2.0,2.5925,0.460489629662272,-0.028592049055704494,0.8713979229937651,0.003069256314427091,-0.126086,-30.825336
11.185,2.0,1.0,1.0,34.4,34.8,34.8,4.1,2.0,2.595,0.4516091063125317,-0.029250579876407425,0.8757145433175979,0.0028266465111471367,-0.128583,-30.636942
11.185,2.0,1.0,1.0,34.4,34.8,34.8,4.1,2.0,2.5975,0.4426120848533733,-0.02992931166580481,0.8799672435215273,0.0025695901497771777,-0.131173,-30.44617
11.185,2.0,1.0,1.0,34.4,34.8,34.8,4.1,2.0,2.6,0.43349682442898757,-0.030629166242659354,0.8841535839759795,0.0022972027943318507,-0.133863,-30.252936
11.185,2.0,1.0,1.0,34.4,34.8,34.8,4.1,2.0,2.6025,0.42426152661933353,-0.03135112345895648,0.8882710147537117,0.0020085312098003173,-0.136658,-30.057149
11.185,2.0,1.0,1.0,34.4,34.8,34.8,4.1,2.0,2.605,0.41490433131912724,-0.03209622578916086,0.8923168678309442,0.0017025466610382468,-0.139564,-29.858718
11.185,2.0,1.0,1.0,34.4,34.8,34.8,4.1,2.0,2.6075,0.40542331220504074,-0.03286558334723983,0.8962883484674401,0.0013781374242475303,-0.142589,-29.657543
11.185,2.0,1.0,1.0,34.4,34.8,34.8,4.1,2.0,2.61,0.39581647174555934,-0.03366037937624776,0.9001825256548222,0.0010341004026150958,-0.145739,-29.453523
11.185,2.0,1.0,1.0,34.4,34.8,34.8,4.1,2.0,2.6125,0.38608173570270893,-0.03448187626026249,0.9039963215049321,0.0006691317205344525,-0.149022,-29.246547
11.185,2.0,1.0,1.0,34.4,34.8,34.8,4.1,2.0,2.615,0.37621694706906655,-0.03533142211399529,0.9077264994293792,0.00028181615061783017,-0.152448,-29.036501
11.185,2.0,1.0,1.0,34.4,34.8,34.8,4.1,2.0,2.6175,0.3662198593770508,-0.03621045801149926,0.9113696509370323,-0.00012938479619052927,-0.156025,-28.823264
11.185,2.0,1.0,1.0,34.4,34.8,34.8,4.1,2.0,2.62,0.35608812931037875,-0.037120525922110785,0.9149221808472755,-0.0005661463154230873,-0.159764,-28.606707
11.185,2.0,1.0,1.0,34.4,34.8,34.8,4.1,2.0,2.6225,0.34581930853983517,-0.03806327742908483,0.9183802906824157,-0.00103029552052582,-0.163677,-28.386696
11.185,2.0,1.0,1.0,34.4,34.8,34.8,4.1,2.0,2.625,0.335410834697055,-0.039040483314325,0.921739959961591,-0.0015238286927964,-0.167775,-28.163085
11.185,2.0,1.0,1.0,34.4,34.8,34.8,4.1,2.0,2.6275,0.32486002139087466,-0.04005404410113173,0.9249969250694361,-0.002048930889744009,-0.172073,-27.935723
11.185,2.0,1.0,1.0,34.4,34.8,34.8,4.1,2.0,2.63,0.3141640471611799,-0.04110600165588963,0.9281466553137735,-0.002607998289441688,-0.176585,-27.704448
11.185,2.0,1.0,1.0,34.4,34.8,34.8,4.1,2.0,2.6325,0.3033199432549985,-0.04219855195894471,0.9311843257156708,-0.0032036637178449235,-0.181328,-27.46909
11.185,2.0,1.0,1.0,34.4,34.8,34.8,4.1,2.0,2.635,0.2923245800993597,-0.043334059164287515,0.9341047859894179,-0.0038388258898819716,-0.18632,-27.229464
11.185,2.0,1.0,1.0,34.4,34.8,34.8,4.1,2.0,2.6375,0.2811746523353765,-0.04451507107662622,0.9369025250660463,-0.004516682996730891,-0.191582,-26.985377
11.185,2.0,1.0,1.0,34.4,34.8,34.8,4.1,2.0,2.64,0.269866662268891,-0.04574433618233758,0.9395716303875027,-0.005240771395297373,-0.197135,-26.736621
11.185,2.0,1.0,1.0,34.4,34.8,34.8,4.1,2.0,2.6425,0.25839690158584255,-0.04702482237658572,0.9421057410441632,-0.0060150103068009305,-0.203004,-26.482975
11.185,2.0,1.0,1.0,34.4,34.8,34.8,4.1,2.0,2.645,0.24676143117666693,-0.04835973753112132,0.9444979936390318,-0.006843753616300161,-0.209218,-26.224204
11.185,2.0,1.0,1.0,34.4,34.8,34.8,4.1,2.0,2.6475,0.23495605891583005,-0.04975255204369284,0.9467409595289935,-0.00773185009247471,-0.215808,-25.960053
11.185,2.0,1.0,1.0,34.4,34.8,34.8,4.1,2.0,2.65,0.22297631525308048,-0.05120702349740516,0.9488265718057466,-0.008684713627972863,-0.222808,-25.690251
11.185,2.0,1.0,1.0,34.4,34.8,34.8,4.1,2.0,2.6525,0.2108174264971172,-0.05272722353207442,0.9507460400219256,-0.009708405449091633,-0.230258,-25.414508
11.185,2.0,1.0,1.0,34.4,34.8,34.8,4.1,2.0,2.655,0.198474285716472,-0.0543175669828818,0.952489750223309,-0.010809730677532816,-0.238203,-25.132511
11.185,2.0,1.0,1.0,34.4,34.8,34.8,4.1,2.0,2.6575,0.18594142125686244,-0.055982843264590645,0.9540471472915936,-0.011996352169715821,-0.246692,-24.843922
11.185,2.0,1.0,1.0,34.4,34.8,34.8,4.1,2.0,2.66,0.17321296299301192,-0.05772824985802338,0.9554065959032544,-0.0132769252408735,-0.255784,-24.54838
11.185,2.0,1.0,1.0,34.4,34.8,34.8,4.1,2.0,2.6625,0.1602826066170789,-0.059559427568691856,0.9565552155279069,-0.014661257741238956,-0.265542,-24.245491
11.185,2.0,1.0,1.0,34.4,34.8,34.8,4.1,2.0,2.665,0.14714357654567153,-0.061482496945276154,0.9574786837714272,-0.016160501041523497,-0.276043,-23.934833
11.185,2.0,1.0,1.0,34.4,34.8,34.8,4.1,2.0,2.6675,0.13378858844784292,-0.06350409482390262,0.9581610009455136,-0.01778737887208269,-0.287372,-23.615945
11.185,2.0,1.0,1.0,34.4,34.8,34.8,4.1,2.0,2.67,0.12020981302267529,-0.0656314093381124,0.9585842069248863,-0.01955646273348749,-0.299629,-23.28833
11.185,2.0,1.0,1.0,34.4,34.8,34.8,4.1,2.0,2.6725,0.10639884358448956,-0.06787221080834359,0.958728039015314,-0.02148450487276383,-0.312929,-22.951445
11.185,2.0,1.0,1.0,34.4,34.8,34.8,4.1,2.0,2.675,0.09234667139010042,-0.07023487455671136,0.9585695165408997,-0.023590842753934072,-0.327407,-22.604699
11.185,2.0,1.0,1.0,34.4,34.8,34.8,4.1,2.0,2.6775,0.07804367468139345,-0.07272838967088328,0.9580824339568433,-0.025897892747781124,-0.34322,-22.24745
11.185,2.0,1.0,1.0,34.4,34.8,34.8,4.1,2.0,2.68,0.06347963044163009,-0.07536234474629398,0.9572367392269036,-0.028431755692706923,-0.360556,-21.878994
11.185,2.0,1.0,1.0,34.4,34.8,34.8,4.1,2.0,2.6825,0.048643762366030956,-0.07814687718668405,0.9559977676089246,-0.03122296338823439,-0.379633,-21.498559
11.185,2.0,1.0,1.0,34.4,34.8,34.8,4.1,2.0,2.685,0.03352484527471298,-0.08109256600402773,0.9543252923943404,-0.03430740343152035,-0.400715,-21.105301
11.185,2.0,1.0,1.0,34.4,34.8,34.8,4.1,2.0,2.6875,0.01811139629940503,-0.08421023810146715,0.9521723429456167,-0.03772747067612037,-0.424118,-20.698293
11.185,2.0,1.0,1.0,34.4,34.8,34.8,4.1,2.0,2.69,0.0023919984365862925,-0.08751064299987608,0.9494837258234844,-0.04153350769683106,-0.450222,-20.276516
11.185,2.0,1.0,1.0,34.4,34.8,34.8,4.1,2.0,2.6925,-0.013644174740980538,-0.09100392815578273,0.946194166024431,-0.045785614814140285,-0.479492,-19.838848
11.185,2.0,1.0,1.0,34.4,34.8,34.8,4.1,2.0,2.695,-0.030006528913533122,-0.09469881213624502,0.9422259614628121,-0.050555933310348584,-0.512496,-19.384055
11.185,2.0,1.0,1.0,34.4,34.8,34.8,4.1,2.0,2.6975,-0.04670175435040095,-0.09860129919942509,0.9374860141888006,-0.05593153403518997,-0.54994,-18.910782
11.185,2.0,1.0,1.0,34.4,34.8,34.8,4.1,2.0,2.7,-0.0637318227620562,-0.10271269552615928,0.9318620667246295,-0.062018077288256514,-0.592701,-18.417539
11.185,2.0,1.0,1.0,34.4,34.8,34.8,4.1,2.0,2.7025,-0.08109089895364774,-0.1070265573222283,0.9252179340972022,-0.06894444584585328,-0.641886,-17.9027
11.185,2.0,1.0,1.0,34.4,34.8,34.8,4.1,2.0,2.705,-0.0987605821161717,-0.11152399698135532,0.9173874902717015,-0.07686858263810578,-0.698901,-17.364496
11.185,2.0,1.0,1.0,34.4,34.8,34.8,4.1,2.0,2.7075,-0.11670256319393914,-0.11616645236255961,0.9081671634593341,-0.08598476633354746,-0.765554,-16.801026
11.185,2.0,1.0,1.0,34.4,34.8,34.8,4.1,2.0,2.71,-0.13484726780640344,-0.12088451921694754,0.8973067682334229,-0.09653248251656195,-0.844191,-16.210285
11.185,2.0,1.0,1.0,34.4,34.8,34.8,4.1,2.0,2.7125,-0.15307624660318314,-0.12556065878371353,0.884498763701064,-0.10880678676457792,-0.937887,-15.590218
11.185,2.0,1.0,1.0,34.4,34.8,34.8,4.1,2.0,2.715,-0.17119483840653466,-0.13000238784307513,0.8693667114686429,-0.12316937751439672,-1.050716,-14.938832
11.185,2.0,1.0,1.0,34.4,34.8,34.8,4.1,2.0,2.7175,-0.18888982076672864,-0.1339007981847928,0.8514553046181054,-0.1400580207376844,-1.18812,-14.254401
11.185,2.0,1.0,1.0,34.4,34.8,34.8,4.1,2.0,2.72,-0.20566436436948127,-0.13676693020159536,0.8302278361863249,-0.15998852890413948,-1.357405,-13.535813
11.185,2.0,1.0,1.0,34.4,34.8,34.8,4.1,2.0,2.7225,-0.22074020414083956,-0.13783622380421498,0.805084255919315,-0.1835363531428034,-1.568377,-12.783178
11.185,2.0,1.0,1.0,34.4,34.8,34.8,4.1,2.0,2.725,-0.23291702725578187,-0.13593145622249742,0.7754272500266937,-0.211270859623866,-1.834023,-11.99883
11.185,2.0,1.0,1.0,34.4,34.8,34.8,4.1,2.0,2.7275,-0.24038933628173303,-0.1292848046071071,0.7408292312472068,-0.2435905029678833,-2.170869,-11.188957
11.185,2.0,1.0,1.0,34.4,34.8,34.8,4.1,2.0,2.73,-0.24056084205095254,-0.11535893164741864,0.7013900077333173,-0.2803712559141242,-2.597815,-10.366102
11.185,2.0,1.0,1.0,34.4,34.8,34.8,4.1,2.0,2.7325,-0.23000349168830372,-0.0908121179250744,0.6584000013500674,-0.3203168311940589,-3.130134,-9.552654
11.185,2.0,1.0,1.0,34.4,34.8,34.8,4.1,2.0,2.735,-0.20491858937229157,-0.05195813355152127,0.6153401571373961,-0.3599829408065588,-3.760945,-8.784816
11.185,2.0,1.0,1.0,34.4,34.8,34.8,4.1,2.0,2.7375,-0.1626709274641442,0.003722301979867889,0.5788347152977805,-0.3928567055217333,-4.418779,-8.114927
11.185,2.0,1.0,1.0,34.4,34.8,34.8,4.1,2.0,2.74,-0.1046328699422209,0.0747969000793507,0.5582928973986795,-0.4097334708495203,-4.912831,-7.607604
11.185,2.0,1.0,1.0,34.4,34.8,34.8,4.1,2.0,2.7425,-0.03882437713281996,0.15332581658390332,0.5625416439358808,-0.4020434561842527,-4.976269,-7.324816
11.185,2.0,1.0,1.0,34.4,34.8,34.8,4.1,2.0,2.745,0.02127046832210522,0.2260805906410926,0.5941272461143262,-0.36742648563783453,-4.516848,-7.302194
11.185,2.0,1.0,1.0,34.4,34.8,34.8,4.1,2.0,2.7475,0.06307835539584451,0.28082545893168215,0.6463883570833109,-0.3125311784607844,-3.748967,-7.531601
11.185,2.0,1.0,1.0,34.4,34.8,34.8,4.1,2.0,2.75,0.0812560539253978,0.312465944603902,0.707220958892263,-0.249252053752755,-2.951942,-7.965277
11.185,2.0,1.0,1.0,34.4,34.8,34.8,4.1,2.0,2.7525,0.0781743116701221,0.32344179540240264,0.7657396681244301,-0.18819955725677368,-2.273348,-8.537675
11.185,2.0,1.0,1.0,34.4,34.8,34.8,4.1,2.0,2.755,0.05995632471585316,0.319805432674922,0.8158014423774799,-0.13530066702698573,-1.744916,-9.187183
11.185,2.0,1.0,1.0,34.4,34.8,34.8,4.1,2.0,2.7575,0.032739731734849585,0.3075711059542359,0.8555771750828761,-0.09226528969986406,-1.348461,-9.866871
11.185,2.0,1.0,1.0,34.4,34.8,34.8,4.1,2.0,2.76,0.0010739655959654912,0.2911718891270851,0.8856862630965414,-0.05843005929366274,-1.054395,-10.545553
11.185,2.0,1.0,1.0,34.4,34.8,34.8,4.1,2.0,2.7625,-0.03217593344799945,0.27338481581290913,0.9076721043336188,-0.03224897425991151,-0.835966,-11.204497
11.185,2.0,1.0,1.0,34.4,34.8,34.8,4.1,2.0,2.765,-0.06539505573430343,0.2557650572005566,0.9231841362368368,-0.012086835141444423,-0.672496,-11.833488
11.185,2.0,1.0,1.0,34.4,34.8,34.8,4.1,2.0,2.7675,-0.09776258763775311,0.23909503952726288,0.9336544930749197,0.0034706202630771475,-0.548919,-12.427674
11.185,2.0,1.0,1.0,34.4,34.8,34.8,4.1,2.0,2.77,-0.12891986507341466,0.22370932280667377,0.9402226580414764,0.015547128509687516,-0.454493,-12.985393
11.185,2.0,1.0,1.0,34.4,34.8,34.8,4.1,2.0,2.7725,-0.15876100692579675,0.20969864079671693,0.943758639908168,0.025000971858819884,-0.381589,-13.506791
11.185,2.0,1.0,1.0,34.4,34.8,34.8,4.1,2.0,2.775,-0.18731013489782747,0.1970291176192442,0.944914074398754,0.03247626473109063,-0.324765,-13.992973
11.185,2.0,1.0,1.0,34.4,34.8,34.8,4.1,2.0,2.7775,-0.21465247373216914,0.1856089165080089,0.9441733310567174,0.038453617342194865,-0.280107,-14.445506
11.185,2.0,1.0,1.0,34.4,34.8,34.8,4.1,2.0,2.78,-0.24089699086145688,0.1753242205690585,0.9418959520041991,0.043291984651341375,-0.244766,-14.866122
11.185,2.0,1.0,1.0,34.4,34.8,34.8,4.1,2.0,2.7825,-0.26615688838196083,0.1660579101342917,0.9383493203656703,0.04726078795792288,-0.216647,-15.256553
11.185,2.0,1.0,1.0,34.4,34.8,34.8,4.1,2.0,2.785,-0.290539980427527,0.15769869178972828,0.9337329382539858,0.05056374855300833,-0.194192,-15.618443
11.185,2.0,1.0,1.0,34.4,34.8,34.8,4.1,2.0,2.7875,-0.31414443892218213,0.15014506357921154,0.9281961807068685,0.05335630659206157,-0.176225,-15.953298
11.185,2.0,1.0,1.0,34.4,34.8,34.8,4.1,2.0,2.79,-0.3370573845890896,0.14330655849807958,0.9218511999074366,0.05575828804058026,-0.161856,-16.262468
11.185,2.0,1.0,1.0,34.4,34.8,34.8,4.1,2.0,2.7925,-0.35935492881853615,0.13710361166297055,0.9147822993440035,0.0578631239871854,-0.150397,-16.547137
11.185,2.0,1.0,1.0,34.4,34.8,34.8,4.1,2.0,2.795,-0.38110290443184724,0.1314667835763199,0.9070527605115816,0.05974459112991263,-0.141318,-16.808329
11.185,2.0,1.0,1.0,34.4,34.8,34.8,4.1,2.0,2.7975,-0.40235787574126003,0.12633573127844333,0.8987098339760607,0.06146177469817608,-0.134203,-17.04691
11.185,2.0,1.0,1.0,34.4,34.8,34.8,4.1,2.0,2.8,-0.4231682137104101,0.12165813082879065,0.88978840376536,0.06306275566822428,-0.128726,-17.263596
11.185,2.0,1.0,1.0,34.4,34.8,34.8,4.1,2.0,2.8025,-0.4435751296719633,0.11738865113505022,0.8803136870300594,0.06458738030769662,-0.124628,-17.458962
11.185,2.0,1.0,1.0,34.4,34.8,34.8,4.1,2.0,2.805,-0.4636136196870585,0.11348802304072488,0.8703032259833055,0.06606936804396855,-0.121706,-17.633445
11.185,2.0,1.0,1.0,34.4,34.8,34.8,4.1,2.0,2.8075,-0.4833133029021344,0.1099222177840096,0.8597683546297047,0.06753794183958144,-0.119794,-17.787353
11.185,2.0,1.0,1.0,34.4,34.8,34.8,4.1,2.0,2.81,-0.5026991533083133,0.10666173370359726,0.8487152698201066,0.06901911493634752,-0.118764,-17.920867
11.185,2.0,1.0,1.0,34.4,34.8,34.8,4.1,2.0,2.8125,-0.521792131943969,0.103680982803556,0.837145798232745,0.0705367326999201,-0.118514,-18.034045
11.185,2.0,1.0,1.0,34.4,34.8,34.8,4.1,2.0,2.815,-0.5406097296150569,0.1009577657997191,0.825057923346484,0.07211334394381885,-0.118963,-18.126822
11.185,2.0,1.0,1.0,34.4,34.8,34.8,4.1,2.0,2.8175,-0.5591664307642037,0.09847282347099087,0.8124461160452566,0.07377095950183815,-0.120051,-18.199013
11.185,2.0,1.0,1.0,34.4,34.8,34.8,4.1,2.0,2.82,-0.5774741083601795,0.09620945235052994,0.7993014968093757,0.07553174491113654,-0.121733,-18.250306
11.185,2.0,1.0,1.0,34.4,34.8,34.8,4.1,2.0,2.8225,-0.5955423582103693,0.09415317333138827,0.7856118447638964,0.07741868754810405,-0.123978,-18.280258
11.185,2.0,1.0,1.0,34.4,34.8,34.8,4.1,2.0,2.825,-0.6133787791941779,0.09229144220764936,0.7713614578068781,0.07945627565177228,-0.12677,-18.288293
11.185,2.0,1.0,1.0,34.4,34.8,34.8,4.1,2.0,2.8275,-0.630989203631667,0.09061339122040525,0.7565308574740431,0.08167122704204043,-0.130106,-18.273686
11.185,2.0,1.0,1.0,34.4,34.8,34.8,4.1,2.0,2.83,-0.648377879227132,0.0891095900380714,0.7410963209969911,0.08409330906193672,-0.133995,-18.235556
