1,w,sub_t,h,l1,l2,l3,g1,g2,Freq,S11_re,S21_re,S11_img,S21_img,S11_dB,S21_dB
11.185,2.0,1.0,1.0,33.5,33.9,33.9,4.3,3.1,2.5,0.850042745552165,-0.0053732495428519,0.515441927984811,0.00362065842740476,-0.051318,-43.769474
11.185,2.0,1.0,1.0,33.5,33.9,33.9,4.3,3.1,2.5025,0.846604241626133,-0.0054751042033297495,0.5209717117787523,0.0036281348968483645,-0.05177,-43.651186
11.185,2.0,1.0,1.0,33.5,33.9,33.9,4.3,3.1,2.505,0.8431152895737097,-0.0055786249927778555,0.5265001338144653,0.0036349376064273874,-0.052229,-43.532648
11.185,2.0,1.0,1.0,33.5,33.9,33.9,4.3,3.1,2.5075,0.8395754170233847,-0.005683842806836808,0.532026954753598,0.0036410428625754396,-0.052696,-43.413852
11.185,2.0,1.0,1.0,33.5,33.9,33.9,4.3,3.1,2.51,0.8359841445071725,-0.005790789296965054,0.5375519283406736,0.003646426170056324,-0.053171,-43.29479
11.185,2.0,1.0,1.0,33.5,33.9,33.9,4.3,3.1,2.5125,0.8323409853585872,-0.005899496893592387,0.5430748011878271,0.0036510622008851293,-0.053654,-43.175452
11.185,2.0,1.0,1.0,33.5,33.9,33.9,4.3,3.1,2.515,0.8286454456096092,-0.0060099988301471376,0.5485953125528312,0.003654924761867166,-0.054145,-43.055829
11.185,2.0,1.0,1.0,33.5,33.9,33.9,4.3,3.1,2.5175,0.824897023886668,-0.006122329167997398,0.5541131941101669,0.003657986760684617,-0.054644,-42.935914
11.185,2.0,1.0,1.0,33.5,33.9,33.9,4.3,3.1,2.52,0.821095211305651,-0.006236522822348768,0.5596281697149285,0.0036602201704547,-0.055152,-42.815695
11.185,2.0,1.0,1.0,33.5,33.9,33.9,4.3,3.1,2.5225,0.8172394913659654,-0.00635261558914306,0.5651399551592858,0.0036615959926801496,-0.055669,-42.695164
11.185,2.0,1.0,1.0,33.5,33.9,33.9,4.3,3.1,2.525,0.8133293398436615,-0.00647064417300561,0.5706482579212773,0.0036620842185069676,-0.056195,-42.574312
11.185,2.0,1.0,1.0,33.5,33.9,33.9,4.3,3.1,2.5275,0.8093642246836468,-0.006590646216290974,0.5761527769056586,0.003661653788199836,-0.05673,-42.453129
11.185,2.0,1.0,1.0,33.5,33.9,33.9,4.3,3.1,2.53,0.8053436058910125,-0.006712660329279479,0.5816532021765286,0.0036602725487398704,-0.057274,-42.331605
11.185,2.0,1.0,1.0,33.5,33.9,33.9,4.3,3.1,2.5325,0.8012669354214941,-0.006836726121580487,0.5871492146814542,0.003657907209443525,-0.057828,-42.20973
11.185,2.0,1.0,1.0,33.5,33.9,33.9,4.3,3.1,2.535,0.7971336570710954,-0.006962884234801249,0.5926404859667962,0.0036545232954950223,-0.058392,-42.087495
11.185,2.0,1.0,1.0,33.5,33.9,33.9,4.3,3.1,2.5375,0.7929432063649062,-0.007091176376543176,0.5981266778839214,0.0036500850992782657,-0.058965,-41.964889
11.185,2.0,1.0,1.0,33.5,33.9,33.9,4.3,3.1,2.54,0.7886950104451401,-0.007221645355791729,0.6036074422859858,0.003644555629386541,-0.05955,-41.841902
11.185,2.0,1.0,1.0,33.5,33.9,33.9,4.3,3.1,2.5425,0.7843884879584267,-0.007354335119769254,0.6090824207149556,0.0036378965571809366,-0.060144,-41.718524
11.185,2.0,1.0,1.0,33.5,33.9,33.9,4.3,3.1,2.545,0.7800230489423915,-0.007489290792324625,0.614551244078511,0.0036300681607596584,-0.06075,-41.594744
11.185,2.0,1.0,1.0,33.5,33.9,33.9,4.3,3.1,2.5475,0.7755980947115646,-0.007626558713937397,0.6200135323164708,0.003621029266191851,-0.061367,-41.470552
11.185,2.0,1.0,1.0,33.5,33.9,33.9,4.3,3.1,2.55,0.771113017742646,-0.007766186483419659,0.6254688940563712,0.003610737185859916,-0.061995,-41.345935
11.185,2.0,1.0,1.0,33.5,33.9,33.9,4.3,3.1,2.5525,0.7665672015591827,-0.007908223001402625,0.63091692625778,0.003599147653743508,-0.062634,-41.220884
11.185,2.0,1.0,1.0,33.5,33.9,33.9,4.3,3.1,2.555,0.7619600206156878,-0.008052718515701215,0.6363572138449576,0.0035862147574680864,-0.063286,-41.095387
11.185,2.0,1.0,1.0,33.5,33.9,33.9,4.3,3.1,2.5575,0.757290840181248,-0.008199724668655173,0.6417893293274243,0.0035718908669280284,-0.06395,-40.969432
11.185,2.0,1.0,1.0,33.5,33.9,33.9,4.3,3.1,2.56,0.7525590162226737,-0.008349294546551079,0.6472128324079828,0.003556126559282505,-0.064626,-40.843008
11.185,2.0,1.0,1.0,33.5,33.9,33.9,4.3,3.1,2.5625,0.747763895287232,-0.0085014827312364,0.652627269577729,0.00353887054010747,-0.065315,-40.716102
11.185,2.0,1.0,1.0,33.5,33.9,33.9,4.3,3.1,2.565,0.7429048143850123,-0.008656345354043663,0.658032173697563,0.0035200695604726264,-0.066017,-40.588703
11.185,2.0,1.0,1.0,33.5,33.9,33.9,4.3,3.1,2.5675,0.7379811008709889,-0.00881394015214952,0.6634270635656775,0.003499668329696487,-0.066733,-40.460799
11.185,2.0,1.0,1.0,33.5,33.9,33.9,4.3,3.1,2.57,0.7329920723268182,-0.008974326527502553,0.6688114434704947,0.0034776094235143785,-0.067463,-40.332375
11.185,2.0,1.0,1.0,33.5,33.9,33.9,4.3,3.1,2.5725,0.7279370364424375,-0.009137565608460954,0.6741848027284834,0.003453833187376327,-0.068207,-40.203421
11.185,2.0,1.0,1.0,33.5,33.9,33.9,4.3,3.1,2.575,0.7228152908975166,-0.009303720314290907,0.6795466152062645,0.0034282776345708047,-0.068965,-40.073921
11.185,2.0,1.0,1.0,33.5,33.9,33.9,4.3,3.1,2.5775,0.717626123242826,-0.009472855422686315,0.6848963388263895,0.003400878338849039,-0.069739,-39.943864
11.185,2.0,1.0,1.0,33.5,33.9,33.9,4.3,3.1,2.58,0.7123688107815785,-0.009645037640479921,0.6902334150561313,0.003371568321199687,-0.070528,-39.813235
11.185,2.0,1.0,1.0,33.5,33.9,33.9,4.3,3.1,2.5825,0.7070426204508021,-0.009820335677728831,0.6955572683786135,0.00334027793039973,-0.071333,-39.682021
11.185,2.0,1.0,1.0,33.5,33.9,33.9,4.3,3.1,2.585,0.7016468087028134,-0.00999882032536714,0.7008673057455512,0.0033069347169373013,-0.072154,-39.550206
11.185,2.0,1.0,1.0,33.5,33.9,33.9,4.3,3.1,2.5875,0.6961806213868439,-0.01018056453663348,0.7061629160108507,0.0032714632998741156,-0.072992,-39.417776
11.185,2.0,1.0,1.0,33.5,33.9,33.9,4.3,3.1,2.59,0.6906432936308897,-0.010365643512493144,0.7114434693442662,0.003233785226180712,-0.073846,-39.284717
11.185,2.0,1.0,1.0,33.5,33.9,33.9,4.3,3.1,2.5925,0.6850340497238364,-0.010554134791290625,0.7167083166242769,0.0031938188220427674,-0.074719,-39.151013
11.185,2.0,1.0,1.0,33.5,33.9,33.9,4.3,3.1,2.595,0.6793521029979347,-0.010746118342883436,0.7219567888092882,0.003151479035597938,-0.07561,-39.016648
11.185,2.0,1.0,1.0,33.5,33.9,33.9,4.3,3.1,2.5975,0.6735966557116672,-0.010941676667525874,0.727188196286229,0.003106677270520442,-0.076519,-38.881606
11.185,2.0,1.0,1.0,33.5,33.9,33.9,4.3,3.1,2.6,0.6677668989330753,-0.011140894899789089,0.7324018281955523,0.0030593212098243353,-0.077448,-38.745871
11.185,2.0,1.0,1.0,33.5,33.9,33.9,4.3,3.1,2.6025,0.6618620124236032,-0.011343860917824149,0.7375969517315782,0.003009314629207252,-0.078396,-38.609426
11.185,2.0,1.0,1.0,33.5,33.9,33.9,4.3,3.1,2.605,0.6558811645224967,-0.011550665458295898,0.7427728114170827,0.0029565571992009438,-0.079365,-38.472253
11.185,2.0,1.0,1.0,33.5,33.9,33.9,4.3,3.1,2.6075,0.649823512031815,-0.011761402237338063,0.7479286283509429,0.0029009442753356483,-0.080354,-38.334335
11.185,2.0,1.0,1.0,33.5,33.9,33.9,4.3,3.1,2.61,0.6436882001020958,-0.011976168077905056,0.7530635994275854,0.002842366675461061,-0.081366,-38.195654
11.185,2.0,1.0,1.0,33.5,33.9,33.9,4.3,3.1,2.6125,0.6374743621187001,-0.012195063043922632,0.7581768965269114,0.0027807104432942937,-0.082399,-38.056191
11.185,2.0,1.0,1.0,33.5,33.9,33.9,4.3,3.1,2.615,0.6311811195888705,-0.012418190581667652,0.7632676656732792,0.002715856597188709,-0.083455,-37.915927
11.185,2.0,1.0,1.0,33.5,33.9,33.9,4.3,3.1,2.6175,0.6248075820295185,-0.012645657668838564,0.7683350261620265,0.0026476808630316465,-0.084535,-37.774842
11.185,2.0,1.0,1.0,33.5,33.9,33.9,4.3,3.1,2.62,0.6183528468557501,-0.012877574971811412,0.7733780696519296,0.002576053390085883,-0.08564,-37.632915
11.185,2.0,1.0,1.0,33.5,33.9,33.9,4.3,3.1,2.6225,0.6118159992701152,-0.013114057011611968,0.7783958592218694,0.002500838448487675,-0.086769,-37.490127
11.185,2.0,1.0,1.0,33.5,33.9,33.9,4.3,3.1,2.625,0.605196112152577,-0.0133552223391733,0.783387428389861,0.00242189410700158,-0.087924,-37.346455
11.185,2.0,1.0,1.0,33.5,33.9,33.9,4.3,3.1,2.6275,0.5984922459511458,-0.013601193720490259,0.7883517800924793,0.0023390718895087343,-0.089107,-37.201877
11.185,2.0,1.0,1.0,33.5,33.9,33.9,4.3,3.1,2.63,0.5917034485731365,-0.013852098332327199,0.7932878856225509,0.002252216408569725,-0.090316,-37.056372
11.185,2.0,1.0,1.0,33.5,33.9,33.9,4.3,3.1,2.6325,0.5848287552769622,-0.01410806796918391,0.7981946835228467,0.002161164974253494,-0.091555,-36.909915
11.185,2.0,1.0,1.0,33.5,33.9,33.9,4.3,3.1,2.635,0.5778671885643683,-0.01436923926227769,0.8030710784333162,0.002065747176258957,-0.092822,-36.762482
11.185,2.0,1.0,1.0,33.5,33.9,33.9,4.3,3.1,2.6375,0.570817758072979,-0.01463575391135596,0.8079159398892312,0.001965784437174426,-0.094121,-36.614049
11.185,2.0,1.0,1.0,33.5,33.9,33.9,4.3,3.1,2.64,0.5636794604689843,-0.014907758930215792,0.812728101067393,0.0018610895345185573,-0.09545,-36.46459
11.185,2.0,1.0,1.0,33.5,33.9,33.9,4.3,3.1,2.6425,0.5564512793397819,-0.01518540690687216,0.8175063574773199,0.001751466088985499,-0.096813,-36.314078
11.185,2.0,1.0,1.0,33.5,33.9,33.9,4.3,3.1,2.645,0.5491321850863333,-0.01546885627938942,0.8222494655940903,0.0016367080160707651,-0.098209,-36.162487
11.185,2.0,1.0,1.0,33.5,33.9,33.9,4.3,3.1,2.6475,0.5417211348149565,-0.015758271628466988,0.8269561414292271,0.0015165989379822995,-0.09964,-36.009787
11.185,2.0,1.0,1.0,33.5,33.9,33.9,4.3,3.1,2.65,0.5342170722282098,-0.016053823987954477,0.8316250590357142,0.0013909115524393658,-0.101107,-35.855951
11.185,2.0,1.0,1.0,33.5,33.9,33.9,4.3,3.1,2.6525,0.5266189275145119,-0.01635569117456111,0.8362548489428674,0.0012594069546278818,-0.102612,-35.700948
11.185,2.0,1.0,1.0,33.5,33.9,33.9,4.3,3.1,2.655,0.518925617236015,-0.01666405813812273,0.8408440965164329,0.0011218339082065102,-0.104156,-35.544747
11.185,2.0,1.0,1.0,33.5,33.9,33.9,4.3,3.1,2.6575,0.511136044214239,-0.016979117333893557,0.8453913402388441,0.0009779280608457814,-0.10574,-35.387315
11.185,2.0,1.0,1.0,33.5,33.9,33.9,4.3,3.1,2.66,0.5032490974128614,-0.017301069118444864,0.8498950699041048,0.0008274110993183811,-0.107365,-35.22862
11.185,2.0,1.0,1.0,33.5,33.9,33.9,4.3,3.1,2.6625,0.4952636518169991,-0.017630122170873168,0.8543537247212404,0.0006699898386460779,-0.109035,-35.068626
11.185,2.0,1.0,1.0,33.5,33.9,33.9,4.3,3.1,2.665,0.4871785683081948,-0.01796649394115467,0.8587656913196898,0.0005053552392314327,-0.110749,-34.907299
11.185,2.0,1.0,1.0,33.5,33.9,33.9,4.3,3.1,2.6675,0.47899269353425694,-0.018310411127621933,0.8631293016493315,0.00033318134526060244,-0.112511,-34.7446
11.185,2.0,1.0,1.0,33.5,33.9,33.9,4.3,3.1,2.67,0.4707048597729583,-0.01866211018569343,0.8674428307671416,0.00015312413694249037,-0.114321,-34.580493
11.185,2.0,1.0,1.0,33.5,33.9,33.9,4.3,3.1,2.6725,0.46231388478848096,-0.019021837870149414,0.8717044945016414,-3.517971165833722e-05,-0.116182,-34.414936
11.185,2.0,1.0,1.0,33.5,33.9,33.9,4.3,3.1,2.675,0.453818571679386,-0.019389851813422312,0.8759124469853854,-0.0002321141783436321,-0.118095,-34.247888
11.185,2.0,1.0,1.0,33.5,33.9,33.9,4.3,3.1,2.6775,0.4452177087167051,-0.019766421142559373,0.8800647780447077,-0.00043808535222757925,-0.120064,-34.079306
11.185,2.0,1.0,1.0,33.5,33.9,33.9,4.3,3.1,2.68,0.4365100691706097,-0.020151827137713515,0.8841595104347941,-0.00065352301822372,-0.122091,-33.909146
11.185,2.0,1.0,1.0,33.5,33.9,33.9,4.3,3.1,2.6825,0.4276944111239543,-0.020546363935232986,0.8881945969068219,-0.00087888237918319,-0.124177,-33.737361
11.185,2.0,1.0,1.0,33.5,33.9,33.9,4.3,3.1,2.685,0.4187694772707719,-0.02095033927864532,0.8921679170924632,-0.0011146459297582281,-0.126325,-33.563903
11.185,2.0,1.0,1.0,33.5,33.9,33.9,4.3,3.1,2.6875,0.40973399469763405,-0.021364075321070194,0.8960772741893493,-0.001361325497715721,-0.128539,-33.38872
11.185,2.0,1.0,1.0,33.5,33.9,33.9,4.3,3.1,2.69,0.40058667464557,-0.021787909482844585,0.8999203914292218,-0.0016194644702988183,-0.130822,-33.211761
11.185,2.0,1.0,1.0,33.5,33.9,33.9,4.3,3.1,2.6925,0.3913262122499894,-0.022222195368406618,0.9036949083083521,-0.001889640225359806,-0.133175,-33.032971
11.185,2.0,1.0,1.0,33.5,33.9,33.9,4.3,3.1,2.695,0.3819512862558787,-0.022667303746750606,0.9073983765573617,-0.002172466789398223,-0.135603,-32.852292
11.185,2.0,1.0,1.0,33.5,33.9,33.9,4.3,3.1,2.6975,0.3724605587052261,-0.02312362360004457,0.9110282558248178,-0.002468597747388714,-0.13811,-32.669666
11.185,2.0,1.0,1.0,33.5,33.9,33.9,4.3,3.1,2.7,0.3628526745934609,-0.02359156324527527,0.9145819090457978,-0.0027787294324124264,-0.140699,-32.485029
11.185,2.0,1.0,1.0,33.5,33.9,33.9,4.3,3.1,2.7025,0.3531262614913852,-0.024071551534061358,0.9180565974630193,-0.0031036044266850174,-0.143373,-32.298317
11.185,2.0,1.0,1.0,33.5,33.9,33.9,4.3,3.1,2.705,0.343279929128888,-0.0245640391360355,0.921449475263974,-0.003444015409666751,-0.146138,-32.109461
11.185,2.0,1.0,1.0,33.5,33.9,33.9,4.3,3.1,2.7075,0.33331226893647803,-0.02506949991143742,0.9247575837927854,-0.003800809393632394,-0.148999,-31.91839
11.185,2.0,1.0,1.0,33.5,33.9,33.9,4.3,3.1,2.71,0.32322185354051197,-0.025588432378765104,0.927977845290028,-0.004174892392466763,-0.151959,-31.72503
11.185,2.0,1.0,1.0,33.5,33.9,33.9,4.3,3.1,2.7125,0.3130072362078208,-0.026121361283483118,0.9311070561075072,-0.004567234575653044,-0.155024,-31.529303
11.185,2.0,1.0,1.0,33.5,33.9,33.9,4.3,3.1,2.715,0.30266695023539525,-0.026668839273863404,0.9341418793377312,-0.004978875966568776,-0.158201,-31.331126
11.185,2.0,1.0,1.0,33.5,33.9,33.9,4.3,3.1,2.7175,0.2921995082807928,-0.027231448690002914,0.9370788367894669,-0.005410932752463852,-0.161495,-31.130414
11.185,2.0,1.0,1.0,33.5,33.9,33.9,4.3,3.1,2.72,0.28160340162911496,-0.027809803471882368,0.9399143002310735,-0.005864604283055605,-0.164913,-30.927076
11.185,2.0,1.0,1.0,33.5,33.9,33.9,4.3,3.1,2.7225,0.27087709939272,-0.028404551191957367,0.9426444818120795,-0.006341180845768692,-0.168461,-30.721017
11.185,2.0,1.0,1.0,33.5,33.9,33.9,4.3,3.1,2.725,0.26001904764049466,-0.02901637521712342,0.945265423560385,-0.0068420523185446416,-0.172149,-30.512137
11.185,2.0,1.0,1.0,33.5,33.9,33.9,4.3,3.1,2.7275,0.24902766845438606,-0.02964599700390469,0.9477729858372516,-0.007368717816175166,-0.175983,-30.300331
11.185,2.0,1.0,1.0,33.5,33.9,33.9,4.3,3.1,2.73,0.23790135891235936,-0.030294178529246332,0.950162834614423,-0.00792279646366711,-0.179974,-30.085489
11.185,2.0,1.0,1.0,33.5,33.9,33.9,4.3,3.1,2.7325,0.22663848999887665,-0.030961724857211968,0.9524304274168907,-0.008506039450698893,-0.18413,-29.867493
11.185,2.0,1.0,1.0,33.5,33.9,33.9,4.3,3.1,2.735,0.21523740544681885,-0.03164948683900013,0.9545709977503344,-0.009120343545347223,-0.188463,-29.64622
11.185,2.0,1.0,1.0,33.5,33.9,33.9,4.3,3.1,2.7375,0.20369642051854708,-0.032358363939750785,0.9565795378034865,-0.009767766273637473,-0.192984,-29.421541
11.185,2.0,1.0,1.0,33.5,33.9,33.9,4.3,3.1,2.74,0.19201382073897638,-0.033089307180291926,0.9584507791816832,-0.010450543004941082,-0.197706,-29.193316
11.185,2.0,1.0,1.0,33.5,33.9,33.9,4.3,3.1,2.7425,0.18018786060045544,-0.033843322174853044,0.9601791713877088,-0.011171106222821,-0.202642,-28.961402
11.185,2.0,1.0,1.0,33.5,33.9,33.9,4.3,3.1,2.745,0.16821676226850177,-0.03462147223629613,0.9617588577183664,-0.01193210730785416,-0.207809,-28.725643
11.185,2.0,1.0,1.0,33.5,33.9,33.9,4.3,3.1,2.7475,0.15609871432972527,-0.03542488150786373,0.9631836481885722,-0.01273644121475121,-0.213222,-28.485875
11.185,2.0,1.0,1.0,33.5,33.9,33.9,4.3,3.1,2.75,0.143831870639538,-0.0362547380638701,0.964446989027204,-0.013587274492613,-0.2189,-28.241926
11.185,2.0,1.0,1.0,33.5,33.9,33.9,4.3,3.1,2.7525,0.13141434934875157,-0.0371122968999147,0.9655419282081498,-0.01448807717668736,-0.224863,-27.99361
11.185,2.0,1.0,1.0,33.5,33.9,33.9,4.3,3.1,2.755,0.11884423221652918,-0.0379988827044324,0.9664610763831337,-0.015442659175343702,-0.231133,-27.740731
11.185,2.0,1.0,1.0,33.5,33.9,33.9,4.3,3.1,2.7575,0.10611956435455773,-0.03891589226553169,0.9671965624663944,-0.016455211890650023,-0.237736,-27.483081
11.185,2.0,1.0,1.0,33.5,33.9,33.9,4.3,3.1,2.76,0.09323835459673362,-0.03986479631719715,0.9677399829807428,-0.017530355949229675,-0.244698,-27.220436
11.185,2.0,1.0,1.0,33.5,33.9,33.9,4.3,3.1,2.7625,0.08019857675380491,-0.040847140563189305,0.9680823441045112,-0.018673196087374014,-0.252051,-26.95256
11.185,2.0,1.0,1.0,33.5,33.9,33.9,4.3,3.1,2.765,0.06699817209870905,-0.041864545530161675,0.9682139951525766,-0.0198893844373642,-0.259827,-26.679197
11.185,2.0,1.0,1.0,33.5,33.9,33.9,4.3,3.1,2.7675,0.053635053542600224,-0.0429187047866566,0.9681245519735081,-0.021185193708976167,-0.268066,-26.400076
11.185,2.0,1.0,1.0,33.5,33.9,33.9,4.3,3.1,2.77,0.040107112113315475,-0.04401138091230579,0.9678028084383392,-0.022567602061643953,-0.27681,-26.114906
11.185,2.0,1.0,1.0,33.5,33.9,33.9,4.3,3.1,2.7725,0.026412226550200993,-0.0451443983989261,0.9672366338211018,-0.024044391831828518,-0.286108,-25.823374
11.185,2.0,1.0,1.0,33.5,33.9,33.9,4.3,3.1,2.775,0.012548277099246915,-0.04631963239479947,0.966412853410421,-0.025624264733204335,-0.296014,-25.525146
11.185,2.0,1.0,1.0,33.5,33.9,33.9,4.3,3.1,2.7775,-0.0014868350454258006,-0.047538991841263284,0.9653171091240705,-0.027316976704923054,-0.30659,-25.21986
11.185,2.0,1.0,1.0,33.5,33.9,33.9,4.3,3.1,2.78,-0.015695160720325244,-0.048804395063759345,0.9639336961981441,-0.0291334962712776,-0.317906,-24.907128
11.185,2.0,1.0,1.0,33.5,33.9,33.9,4.3,3.1,2.7825,-0.030078665599372438,-0.05011773522182171,0.9622453711563066,-0.031086191126867394,-0.330042,-24.586531
11.185,2.0,1.0,1.0,33.5,33.9,33.9,4.3,3.1,2.785,-0.0446391793419195,-0.05148083213019291,0.9602331251913727,-0.03318904871515587,-0.343091,-24.257616
11.185,2.0,1.0,1.0,33.5,33.9,33.9,4.3,3.1,2.7875,-0.059378326374280636,-0.052895365746554075,0.9578759157600485,-0.035457937874921415,-0.357158,-23.919893
11.185,2.0,1.0,1.0,33.5,33.9,33.9,4.3,3.1,2.79,-0.07429743192233879,-0.05436278495357789,0.9551503475395308,-0.037910920249609036,-0.372367,-23.572833
11.185,2.0,1.0,1.0,33.5,33.9,33.9,4.3,3.1,2.7925,-0.08939739460245023,-0.05588418296409959,0.9520302918463004,-0.040568622162343894,-0.388858,-23.215859
11.185,2.0,1.0,1.0,33.5,33.9,33.9,4.3,3.1,2.795,-0.10467851367257591,-0.05746012749082001,0.9484864310842345,-0.04345468014017026,-0.406799,-22.848347
11.185,2.0,1.0,1.0,33.5,33.9,33.9,4.3,3.1,2.7975,-0.12014025457108492,-0.05909042937571513,0.944485711672341,-0.046596276320157164,-0.426384,-22.469617
11.185,2.0,1.0,1.0,33.5,33.9,33.9,4.3,3.1,2.8,-0.13578093008587092,-0.060773827133011445,0.9399906851008679,-0.05002478368356112,-0.447843,-22.07893
11.185,2.0,1.0,1.0,33.5,33.9,33.9,4.3,3.1,2.8025,-0.15159726561134484,-0.06250755604189423,0.934958712195502,-0.053776545518823465,-0.471449,-21.675478
11.185,2.0,1.0,1.0,33.5,33.9,33.9,4.3,3.1,2.805,-0.16758380430839678,-0.06428675788638316,0.9293410003103963,-0.0578938187241574,-0.497525,-21.258383
11.185,2.0,1.0,1.0,33.5,33.9,33.9,4.3,3.1,2.8075,-0.18373208987708406,-0.06610366949440949,0.9230814371453874,-0.062425916392260646,-0.526463,-20.826683
11.185,2.0,1.0,1.0,33.5,33.9,33.9,4.3,3.1,2.81,-0.2000295385606058,-0.06794650238414134,0.9161151786264186,-0.06743059112571663,-0.558734,-20.379333
11.185,2.0,1.0,1.0,33.5,33.9,33.9,4.3,3.1,2.8125,-0.216457874181356,-0.0697978883909825,0.90836694286622,-0.0729757056335112,-0.594912,-19.915191
11.185,2.0,1.0,1.0,33.5,33.9,33.9,4.3,3.1,2.815,-0.23299094492104275,-0.07163271165595403,0.8997489599314751,-0.07914123904852893,-0.635702,-19.433016
11.185,2.0,1.0,1.0,33.5,33.9,33.9,4.3,3.1,2.8175,-0.24959166001702945,-0.07341506774756398,0.8901585326452442,-0.08602167141830001,-0.681974,-18.931464
11.185,2.0,1.0,1.0,33.5,33.9,33.9,4.3,3.1,2.82,-0.26620766662848716,-0.07509397423057156,0.8794751861031997,-0.09372876582551495,-0.73481,-18.409087
11.185,2.0,1.0,1.0,33.5,33.9,33.9,4.3,3.1,2.8225,-0.2827652148474347,-0.07659728701116361,0.8675574406029702,-0.10239471005124932,-0.795573,-17.864339
11.185,2.0,1.0,1.0,33.5,33.9,33.9,4.3,3.1,2.825,-0.29916040914181824,-0.07782303070783884,0.854239367770798,-0.11217545433051289,-0.865985,-17.295598
11.185,2.0,1.0,1.0,33.5,33.9,33.9,4.3,3.1,2.8275,-0.3152466891558011,-0.07862700158693284,0.8393273458112708,-0.12325382609075702,-0.948245,-16.701201
