1,w,sub_t,h,l1,l2,l3,g1,g2,Freq,S11_re,S21_re,S11_img,S21_img,S11_dB,S21_dB
11.185,2.0,1.0,1.0,34.5,33.0,33.0,2.0,1.5,2.5,0.694453817611696,-0.0235190383033006,0.706924342827803,0.0146577986384612,-0.078849,-31.146409
11.185,2.0,1.0,1.0,34.5,33.0,33.0,2.0,1.5,2.5025,0.688542497535368,-0.02396384893236461,0.712536757234034,0.014646067529195608,-0.079772,-31.030478
11.185,2.0,1.0,1.0,34.5,33.0,33.0,2.0,1.5,2.505,0.6825518160651493,-0.024416273035489468,0.7181292316844108,0.0146298701993057,-0.080714,-30.914145
11.185,2.0,1.0,1.0,34.5,33.0,33.0,2.0,1.5,2.5075,0.6764809705122996,-0.024876439137086436,0.7237009428833726,0.01460903161079267,-0.081674,-30.797404
11.185,2.0,1.0,1.0,34.5,33.0,33.0,2.0,1.5,2.51,0.6703291499310496,-0.025344477577117004,0.729251043521132,0.014583370425913494,-0.082654,-30.680251
11.185,2.0,1.0,1.0,34.5,33.0,33.0,2.0,1.5,2.5125,0.6640955352044842,-0.025820520500271234,0.7347786615611995,0.014552698773438663,-0.083653,-30.56268
11.185,2.0,1.0,1.0,34.5,33.0,33.0,2.0,1.5,2.515,0.6577792991427518,-0.026304701841839914,0.7402828995072654,0.014516822005926305,-0.084672,-30.444684
11.185,2.0,1.0,1.0,34.5,33.0,33.0,2.0,1.5,2.5175,0.6513796065943612,-0.026797157310014284,0.7457628336488497,0.014475538447659793,-0.085712,-30.326258
11.185,2.0,1.0,1.0,34.5,33.0,33.0,2.0,1.5,2.52,0.6448956145713258,-0.027298024364336183,0.7512175132851721,0.014428639132879784,-0.086773,-30.207395
11.185,2.0,1.0,1.0,34.5,33.0,33.0,2.0,1.5,2.5225,0.638326472389009,-0.027807442189995955,0.7566459599266208,0.014375907533931366,-0.087855,-30.088091
11.185,2.0,1.0,1.0,34.5,33.0,33.0,2.0,1.5,2.525,0.6316713218215093,-0.028325551667661483,0.7620471664732491,0.014317119278926442,-0.08896,-29.968339
11.185,2.0,1.0,1.0,34.5,33.0,33.0,2.0,1.5,2.5275,0.62492929727351,-0.028852495338495824,0.7674200963696746,0.014252041858511397,-0.090088,-29.848133
11.185,2.0,1.0,1.0,34.5,33.0,33.0,2.0,1.5,2.53,0.6180995259695561,-0.029388417364000923,0.7727636827357589,0.014180434321309908,-0.091238,-29.727467
11.185,2.0,1.0,1.0,34.5,33.0,33.0,2.0,1.5,2.5325,0.6111811281617592,-0.029933463480298107,0.7780768274724319,0.014102046957597232,-0.092413,-29.606335
11.185,2.0,1.0,1.0,34.5,33.0,33.0,2.0,1.5,2.535,0.6041732173569934,-0.030487780946433736,0.7833584003420218,0.014016620970742064,-0.093612,-29.48473
11.185,2.0,1.0,1.0,34.5,33.0,33.0,2.0,1.5,2.5375,0.5970749005647066,-0.03105151848626693,0.7886072380224216,0.013923888135937104,-0.094836,-29.362646
11.185,2.0,1.0,1.0,34.5,33.0,33.0,2.0,1.5,2.54,0.589885278566511,-0.0316248262234693,0.7938221431344343,0.013823570445719125,-0.096086,-29.240078
11.185,2.0,1.0,1.0,34.5,33.0,33.0,2.0,1.5,2.5425,0.5826034462087923,-0.03220785560913588,0.7990018832416174,0.01371537974176036,-0.097363,-29.117017
11.185,2.0,1.0,1.0,34.5,33.0,33.0,2.0,1.5,2.545,0.5752284927196333,-0.032800759341470934,0.8041451898219348,0.013599017332393937,-0.098667,-28.993458
11.185,2.0,1.0,1.0,34.5,33.0,33.0,2.0,1.5,2.5475,0.567759502051426,-0.03340369127697767,0.8092507572105164,0.013474173595315811,-0.099998,-28.869395
11.185,2.0,1.0,1.0,34.5,33.0,33.0,2.0,1.5,2.55,0.5601955532505878,-0.03401680633254582,0.8143172415128307,0.01334052756488244,-0.101358,-28.74482
11.185,2.0,1.0,1.0,34.5,33.0,33.0,2.0,1.5,2.5525,0.552535720855919,-0.034640260377784636,0.8193432594875396,0.013197746503404955,-0.102748,-28.619728
11.185,2.0,1.0,1.0,34.5,33.0,33.0,2.0,1.5,2.555,0.5447790753271641,-0.035274210116912466,0.8243273873983239,0.01304548545581501,-0.104168,-28.49411
11.185,2.0,1.0,1.0,34.5,33.0,33.0,2.0,1.5,2.5575,0.5369246835054511,-0.03591881295946431,0.8292681598339495,0.012883386787055515,-0.105618,-28.36796
11.185,2.0,1.0,1.0,34.5,33.0,33.0,2.0,1.5,2.56,0.5289716091073704,-0.036574226879030745,0.8341640684958319,0.012711079701525962,-0.107101,-28.241272
11.185,2.0,1.0,1.0,34.5,33.0,33.0,2.0,1.5,2.5625,0.5209189132545303,-0.037240610259188976,0.8390135609523658,0.012528179743886045,-0.108617,-28.114038
11.185,2.0,1.0,1.0,34.5,33.0,33.0,2.0,1.5,2.565,0.512765655040518,-0.03791812172573407,0.8438150393592736,0.012334288280496456,-0.110166,-27.986251
11.185,2.0,1.0,1.0,34.5,33.0,33.0,2.0,1.5,2.5675,0.5045108921373248,-0.03860691996425332,0.8485668591452215,0.012128991960750422,-0.111749,-27.857904
11.185,2.0,1.0,1.0,34.5,33.0,33.0,2.0,1.5,2.57,0.49615368144335203,-0.039307163522030626,0.85326732766196,0.011911862157519977,-0.113369,-27.728989
11.185,2.0,1.0,1.0,34.5,33.0,33.0,2.0,1.5,2.5725,0.48769307977526255,-0.040019010593194376,0.8579147027982358,0.011682454385916584,-0.115025,-27.5995
11.185,2.0,1.0,1.0,34.5,33.0,33.0,2.0,1.5,2.575,0.4791281446060337,-0.04074261878595296,0.8625071915567347,0.0114403076995345,-0.116719,-27.469428
11.185,2.0,1.0,1.0,34.5,33.0,33.0,2.0,1.5,2.5775,0.47045793485170573,-0.04147814487068568,0.8670429485932999,0.011184944063317326,-0.118451,-27.338767
11.185,2.0,1.0,1.0,34.5,33.0,33.0,2.0,1.5,2.58,0.4616815117094338,-0.042225744507572265,0.8715200747176978,0.010915867702158683,-0.120224,-27.207507
11.185,2.0,1.0,1.0,34.5,33.0,33.0,2.0,1.5,2.5825,0.4527979395495886,-0.042985571952358914,0.8759366153551905,0.010632564424316149,-0.122038,-27.075643
11.185,2.0,1.0,1.0,34.5,33.0,33.0,2.0,1.5,2.585,0.44380628686479473,-0.04375777973876477,0.8802905589682022,0.010334500918687053,-0.123894,-26.943165
11.185,2.0,1.0,1.0,34.5,33.0,33.0,2.0,1.5,2.5875,0.43470562727893497,-0.044542518335931126,0.8845798354373556,0.010021124024963116,-0.125793,-26.810067
11.185,2.0,1.0,1.0,34.5,33.0,33.0,2.0,1.5,2.59,0.425495040619322,-0.04533993577921025,0.888802314401198,0.009691859975647251,-0.127738,-26.676339
11.185,2.0,1.0,1.0,34.5,33.0,33.0,2.0,1.5,2.5925,0.4161736140553717,-0.04615017727247728,0.8929558035539206,0.009346113608884387,-0.129729,-26.541973
11.185,2.0,1.0,1.0,34.5,33.0,33.0,2.0,1.5,2.595,0.4067404433073287,-0.04697338476002252,0.8970380469004229,0.008983267551022812,-0.131768,-26.406962
11.185,2.0,1.0,1.0,34.5,33.0,33.0,2.0,1.5,2.5975,0.3971946339287176,-0.04780969646595692,0.9010467229680891,0.0086026813677905,-0.133855,-26.271297
11.185,2.0,1.0,1.0,34.5,33.0,33.0,2.0,1.5,2.6,0.3875353026664411,-0.04865924639891897,0.9049794429746564,0.008203690682933683,-0.135994,-26.13497
11.185,2.0,1.0,1.0,34.5,33.0,33.0,2.0,1.5,2.6025,0.37776157890261386,-0.049522163819722485,0.9088337489516108,0.007785606263134385,-0.138185,-25.997971
11.185,2.0,1.0,1.0,34.5,33.0,33.0,2.0,1.5,2.605,0.36787260618243284,-0.050398572669428446,0.9126071118225625,0.007347713067984107,-0.14043,-25.860292
11.185,2.0,1.0,1.0,34.5,33.0,33.0,2.0,1.5,2.6075,0.3578675438326228,-0.05128859095514702,0.916296929436105,0.00688926926376001,-0.142731,-25.721924
11.185,2.0,1.0,1.0,34.5,33.0,33.0,2.0,1.5,2.61,0.3477455686752256,-0.05219233009069731,0.9199005245526914,0.00640950519971342,-0.145089,-25.582858
11.185,2.0,1.0,1.0,34.5,33.0,33.0,2.0,1.5,2.6125,0.3375058768417339,-0.05310989418905365,0.9234151427851404,0.005907622345545151,-0.147506,-25.443086
11.185,2.0,1.0,1.0,34.5,33.0,33.0,2.0,1.5,2.615,0.3271476856928521,-0.05404137930329681,0.9268379504924021,0.0053827921887108325,-0.149985,-25.302597
11.185,2.0,1.0,1.0,34.5,33.0,33.0,2.0,1.5,2.6175,0.3166702358494362,-0.05498687261256299,0.9301660326263156,0.004834155090163228,-0.152527,-25.161382
11.185,2.0,1.0,1.0,34.5,33.0,33.0,2.0,1.5,2.62,0.3060727933404521,-0.05594645154924125,0.933396390531126,0.004260819097108695,-0.155135,-25.019432
11.185,2.0,1.0,1.0,34.5,33.0,33.0,2.0,1.5,2.6225,0.29535465187409066,-0.05692018286340994,0.9365259396956375,0.003661858711321445,-0.15781,-24.876737
11.185,2.0,1.0,1.0,34.5,33.0,33.0,2.0,1.5,2.625,0.28451513523855,-0.0579081216202235,0.939551507457917,0.00303631361153249,-0.160555,-24.733287
11.185,2.0,1.0,1.0,34.5,33.0,33.0,2.0,1.5,2.6275,0.27355359983925426,-0.058910310125662425,0.9424698306626279,0.002383187328380117,-0.163372,-24.589072
11.185,2.0,1.0,1.0,34.5,33.0,33.0,2.0,1.5,2.63,0.2624694373797389,-0.05992677677573575,0.9452775532710906,0.0017014458703841395,-0.166264,-24.444082
11.185,2.0,1.0,1.0,34.5,33.0,33.0,2.0,1.5,2.6325,0.251262077693746,-0.0609575348238813,0.9479712239243521,0.0009900162993852592,-0.169233,-24.298307
11.185,2.0,1.0,1.0,34.5,33.0,33.0,2.0,1.5,2.635,0.23993099173652382,-0.062002581060934044,0.950547293459618,0.00024778525387050555,-0.172282,-24.151735
11.185,2.0,1.0,1.0,34.5,33.0,33.0,2.0,1.5,2.6375,0.2284756947437531,-0.06306189440163457,0.9530021123805735,-0.0005264025814090587,-0.175414,-24.004357
11.185,2.0,1.0,1.0,34.5,33.0,33.0,2.0,1.5,2.64,0.21689574956695215,-0.06413543437121967,0.9553319282822372,-0.0013337460611313895,-0.178632,-23.856161
11.185,2.0,1.0,1.0,34.5,33.0,33.0,2.0,1.5,2.6425,0.20519077019476606,-0.06522313948516753,0.9575328832311708,-0.0021754892220149456,-0.181939,-23.707137
11.185,2.0,1.0,1.0,34.5,33.0,33.0,2.0,1.5,2.645,0.1933604254700032,-0.06632492551467643,0.959601011102039,-0.0030529229839547723,-0.185337,-23.557273
11.185,2.0,1.0,1.0,34.5,33.0,33.0,2.0,1.5,2.6475,0.18140444301289396,-0.0674406836299081,0.9615322348717048,-0.003967386911276935,-0.188831,-23.406557
11.185,2.0,1.0,1.0,34.5,33.0,33.0,2.0,1.5,2.65,0.16932261336158497,-0.06857027841245433,0.963322363872253,-0.00492027103569103,-0.192423,-23.254978
11.185,2.0,1.0,1.0,34.5,33.0,33.0,2.0,1.5,2.6525,0.1571147943415807,-0.06971354572784244,0.9649670910045781,-0.005913017742482786,-0.196118,-23.102524
11.185,2.0,1.0,1.0,34.5,33.0,33.0,2.0,1.5,2.655,0.14478091567646262,-0.07087029044823208,0.9664619899143957,-0.006947123721458175,-0.199919,-22.949183
11.185,2.0,1.0,1.0,34.5,33.0,33.0,2.0,1.5,2.6575,0.13232098385296615,-0.07204028401470529,0.9678025121328512,-0.008024141984085008,-0.203831,-22.794943
11.185,2.0,1.0,1.0,34.5,33.0,33.0,2.0,1.5,2.66,0.11973508725428593,-0.0732232618277687,0.9689839841841448,-0.009145683948213468,-0.207857,-22.63979
11.185,2.0,1.0,1.0,34.5,33.0,33.0,2.0,1.5,2.6625,0.10702340157628326,-0.07441892045381704,0.9700016046629836,-0.010313421591662902,-0.212002,-22.483713
11.185,2.0,1.0,1.0,34.5,33.0,33.0,2.0,1.5,2.665,0.09418619554217818,-0.07562691463438147,0.9708504412849621,-0.011529089675854464,-0.21627,-22.326697
11.185,2.0,1.0,1.0,34.5,33.0,33.0,2.0,1.5,2.6675,0.08122383693228265,-0.07684685408396859,0.9715254279134218,-0.012794488040529683,-0.220666,-22.16873
11.185,2.0,1.0,1.0,34.5,33.0,33.0,2.0,1.5,2.67,0.06813679894633391,-0.07807830006120361,0.9720213615667407,-0.01411148397043389,-0.225196,-22.009798
11.185,2.0,1.0,1.0,34.5,33.0,33.0,2.0,1.5,2.6725,0.054925666917131875,-0.0793207616967989,0.9723328994104697,-0.015482014634645744,-0.229864,-21.849887
11.185,2.0,1.0,1.0,34.5,33.0,33.0,2.0,1.5,2.675,0.04159114539538151,-0.08057369206056991,0.9724545557392822,-0.01690808959899799,-0.234677,-21.688982
11.185,2.0,1.0,1.0,34.5,33.0,33.0,2.0,1.5,2.6775,0.02813406562693413,-0.08183648394831948,0.9723806989542454,-0.018391793411759956,-0.239639,-21.52707
11.185,2.0,1.0,1.0,34.5,33.0,33.0,2.0,1.5,2.68,0.014555393445049311,-0.08310846536787383,0.9721055485415578,-0.01993528826242315,-0.244758,-21.364135
11.185,2.0,1.0,1.0,34.5,33.0,33.0,2.0,1.5,2.6825,0.0008562376018132084,-0.08438889470188621,0.9716231720596171,-0.02154081671304641,-0.250039,-21.200162
11.185,2.0,1.0,1.0,34.5,33.0,33.0,2.0,1.5,2.685,-0.012962141435480398,-0.08567695552320478,0.970927482142002,-0.023210704501167405,-0.25549,-21.035136
11.185,2.0,1.0,1.0,34.5,33.0,33.0,2.0,1.5,2.6875,-0.0268983221953919,-0.08697175103661946,0.9700122335248768,-0.02494736341276113,-0.261118,-20.86904
11.185,2.0,1.0,1.0,34.5,33.0,33.0,2.0,1.5,2.69,-0.04095071239123058,-0.0882722981186273,0.9688710201081955,-0.026753294223105527,-0.266929,-20.701859
11.185,2.0,1.0,1.0,34.5,33.0,33.0,2.0,1.5,2.6925,-0.055117538556109034,-0.08957752092450091,0.9674972720612104,-0.028631089702708813,-0.272933,-20.533576
11.185,2.0,1.0,1.0,34.5,33.0,33.0,2.0,1.5,2.695,-0.06939683509004732,-0.09088624402934324,0.9658842529839149,-0.030583437684605082,-0.279137,-20.364173
11.185,2.0,1.0,1.0,34.5,33.0,33.0,2.0,1.5,2.6975,-0.0837864326825673,-0.09219718506699101,0.9640250571374189,-0.032613124188371395,-0.285551,-20.193633
11.185,2.0,1.0,1.0,34.5,33.0,33.0,2.0,1.5,2.7,-0.09828394607127194,-0.09350894682751636,0.9619126067576731,-0.03472303659507793,-0.292183,-20.021938
11.185,2.0,1.0,1.0,34.5,33.0,33.0,2.0,1.5,2.7025,-0.1128867610940323,-0.09482000877068855,0.9595396494686977,-0.03691616686609091,-0.299044,-19.84907
11.185,2.0,1.0,1.0,34.5,33.0,33.0,2.0,1.5,2.705,-0.12759202098879732,-0.09612871790901979,0.9568987558132688,-0.03919561479711652,-0.306144,-19.67501
11.185,2.0,1.0,1.0,34.5,33.0,33.0,2.0,1.5,2.7075,-0.1423966118915671,-0.09743327900993609,0.953982316921186,-0.041564591297124344,-0.313494,-19.499739
11.185,2.0,1.0,1.0,34.5,33.0,33.0,2.0,1.5,2.71,-0.15729714747884674,-0.0987317440621207,0.9507825423376366,-0.04402642167973673,-0.321106,-19.323236
11.185,2.0,1.0,1.0,34.5,33.0,33.0,2.0,1.5,2.7125,-0.17228995269649391,-0.10002200094614254,0.947291458036854,-0.0465845489523048,-0.328992,-19.145481
11.185,2.0,1.0,1.0,34.5,33.0,33.0,2.0,1.5,2.715,-0.187371046511913,-0.10130176124405985,0.9435009046494222,-0.0492425370851338,-0.337166,-18.966454
11.185,2.0,1.0,1.0,34.5,33.0,33.0,2.0,1.5,2.7175,-0.20253612362115014,-0.10256854711672377,0.9394025359350812,-0.052004074240126784,-0.34564,-18.786132
11.185,2.0,1.0,1.0,34.5,33.0,33.0,2.0,1.5,2.72,-0.21778053503634925,-0.10381967717094064,0.9349878175369227,-0.054872975934394386,-0.354431,-18.604493
11.185,2.0,1.0,1.0,34.5,33.0,33.0,2.0,1.5,2.7225,-0.23309926747256682,-0.10505225123143373,0.9302480260575205,-0.0578531881100762,-0.363554,-18.421515
11.185,2.0,1.0,1.0,34.5,33.0,33.0,2.0,1.5,2.725,-0.24848692144545265,-0.1062631339245838,0.9251742485028444,-0.06094879007657974,-0.373025,-18.237174
11.185,2.0,1.0,1.0,34.5,33.0,33.0,2.0,1.5,2.7275,-0.2639376879834004,-0.107448936972181,0.9197573821459273,-0.06416399728562988,-0.382863,-18.051447
11.185,2.0,1.0,1.0,34.5,33.0,33.0,2.0,1.5,2.73,-0.2794453238486922,-0.10860600008376722,0.9139881348693096,-0.06750316389270158,-0.393086,-17.864307
11.185,2.0,1.0,1.0,34.5,33.0,33.0,2.0,1.5,2.7325,-0.2950031251524513,-0.10973037032553881,0.9078570260534498,-0.07097078505051521,-0.403714,-17.67573
11.185,2.0,1.0,1.0,34.5,33.0,33.0,2.0,1.5,2.735,-0.31060389923721055,-0.11081777983208177,0.901354388087721,-0.07457149887103014,-0.41477,-17.485689
11.185,2.0,1.0,1.0,34.5,33.0,33.0,2.0,1.5,2.7375,-0.32623993468897483,-0.11186362171435761,0.8944703685915499,-0.07831008798163255,-0.426275,-17.294157
11.185,2.0,1.0,1.0,34.5,33.0,33.0,2.0,1.5,2.74,-0.3419029693273308,-0.11286292400320151,0.887194933445982,-0.08219148058863629,-0.438256,-17.101106
11.185,2.0,1.0,1.0,34.5,33.0,33.0,2.0,1.5,2.7425,-0.3575841560075714,-0.11381032145205429,0.8795178707507159,-0.08622075094657358,-0.450737,-16.906508
11.185,2.0,1.0,1.0,34.5,33.0,33.0,2.0,1.5,2.745,-0.3732740260526474,-0.11470002500557903,0.8714287958388838,-0.09040311911459241,-0.463748,-16.710332
11.185,2.0,1.0,1.0,34.5,33.0,33.0,2.0,1.5,2.7475,-0.388962450115115,-0.1155257887221077,0.8629171575019488,-0.09474394986124753,-0.477318,-16.512548
11.185,2.0,1.0,1.0,34.5,33.0,33.0,2.0,1.5,2.75,-0.404638596249746,-0.116280873917385,0.853972245600529,-0.0992487505554997,-0.491481,-16.313124
11.185,2.0,1.0,1.0,34.5,33.0,33.0,2.0,1.5,2.7525,-0.42029088495616107,-0.11695801027472631,0.8445832002644132,-0.10392316785426417,-0.50627,-16.112028
11.185,2.0,1.0,1.0,34.5,33.0,33.0,2.0,1.5,2.755,-0.43590694092766546,-0.11754935364236274,0.8347390229171607,-0.10877298296463396,-0.521723,-15.909226
11.185,2.0,1.0,1.0,34.5,33.0,33.0,2.0,1.5,2.7575,-0.45147354121711325,-0.11804644021233128,0.8244285893982708,-0.11380410522114291,-0.537881,-15.704684
11.185,2.0,1.0,1.0,34.5,33.0,33.0,2.0,1.5,2.76,-0.46697655950320294,-0.1184401367467282,0.8136406655001437,-0.11902256367408201,-0.554787,-15.498366
11.185,2.0,1.0,1.0,34.5,33.0,33.0,2.0,1.5,2.7625,-0.4824009061111716,-0.11872058648646171,0.8023639252888061,-0.1244344963328408,-0.572488,-15.290235
11.185,2.0,1.0,1.0,34.5,33.0,33.0,2.0,1.5,2.765,-0.49773046341018773,-0.11887715034488971,0.7905869726383533,-0.1300461366470661,-0.591035,-15.080255
11.185,2.0,1.0,1.0,34.5,33.0,33.0,2.0,1.5,2.7675,-0.5129480161763103,-0.11889834295405675,0.7782983664806402,-0.13586379673652157,-0.610482,-14.868385
11.185,2.0,1.0,1.0,34.5,33.0,33.0,2.0,1.5,2.77,-0.5280351764747967,-0.11877176309493327,0.765486650356001,-0.14189384679597433,-0.630889,-14.654587
11.185,2.0,1.0,1.0,34.5,33.0,33.0,2.0,1.5,2.7725,-0.5429723025792162,-0.1184840180055948,0.7521403869499529,-0.14814269000191577,-0.652319,-14.438819
11.185,2.0,1.0,1.0,34.5,33.0,33.0,2.0,1.5,2.775,-0.5577384114082121,-0.11802064102334965,0.7382481984175797,-0.15461673213083862,-0.674844,-14.221039
11.185,2.0,1.0,1.0,34.5,33.0,33.0,2.0,1.5,2.7775,-0.5723110839246439,-0.11736600197948201,0.7237988134347859,-0.16132234496094916,-0.698538,-14.001204
11.185,2.0,1.0,1.0,34.5,33.0,33.0,2.0,1.5,2.78,-0.5866663629076715,-0.11650320972997918,0.7087811220775504,-0.16826582236695123,-0.723484,-13.779271
11.185,2.0,1.0,1.0,34.5,33.0,33.0,2.0,1.5,2.7825,-0.600778642478699,-0.11541400617441058,0.6931842398210213,-0.1754533278265494,-0.749772,-13.555194
11.185,2.0,1.0,1.0,34.5,33.0,33.0,2.0,1.5,2.785,-0.614620548738823,-0.11407865109079159,0.6769975821747792,-0.18289083183264324,-0.7775,-13.328928
11.185,2.0,1.0,1.0,34.5,33.0,33.0,2.0,1.5,2.7875,-0.6281628108633924,-0.11247579710060314,0.6602109517348501,-0.19058403744085534,-0.806776,-13.100426
11.185,2.0,1.0,1.0,34.5,33.0,33.0,2.0,1.5,2.79,-0.6413741220026664,-0.11058235408016964,0.6428146397436311,-0.1985382918714996,-0.837717,-12.869641
11.185,2.0,1.0,1.0,34.5,33.0,33.0,2.0,1.5,2.7925,-0.6542209893638641,-0.10837334235908354,0.6247995446138064,-0.2067584817204395,-0.870452,-12.636525
11.185,2.0,1.0,1.0,34.5,33.0,33.0,2.0,1.5,2.795,-0.6666675729074003,-0.10582173410215924,0.6061573103001522,-0.21524890890591344,-0.905123,-12.401031
11.185,2.0,1.0,1.0,34.5,33.0,33.0,2.0,1.5,2.7975,-0.6786755121911942,-0.1028982823702115,0.5868804879040977,-0.22401314397824262,-0.941884,-12.163112
11.185,2.0,1.0,1.0,34.5,33.0,33.0,2.0,1.5,2.8,-0.6902037410565255,-0.0995713375119951,0.5669627244805604,-0.233053852835702,-0.980908,-11.922719
11.185,2.0,1.0,1.0,34.5,33.0,33.0,2.0,1.5,2.8025,-0.7012082900871176,-0.09580665077479922,0.5463989836973124,-0.24237259221064045,-1.022383,-11.679807
11.185,2.0,1.0,1.0,34.5,33.0,33.0,2.0,1.5,2.805,-0.7116420771160673,-0.09156716536015369,0.5251858037859826,-0.2519695685029296,-1.066519,-11.43433
11.185,2.0,1.0,1.0,34.5,33.0,33.0,2.0,1.5,2.8075,-0.721454686535805,-0.08681279562697664,0.5033215991335934,-0.26184335363044436,-1.113547,-11.186245
11.185,2.0,1.0,1.0,34.5,33.0,33.0,2.0,1.5,2.81,-0.730592138827774,-0.08150019579978314,0.4808070129056634,-0.27199055052692467,-1.163725,-10.935511
11.185,2.0,1.0,1.0,34.5,33.0,33.0,2.0,1.5,2.8125,-0.738996652625204,-0.0755825204285008,0.457645329275746,-0.282405399737032,-1.217337,-10.68209
11.185,2.0,1.0,1.0,34.5,33.0,33.0,2.0,1.5,2.815,-0.7466064028234285,-0.06900918003770677,0.4338429551661587,-0.29307931723214925,-1.274703,-10.42595
11.185,2.0,1.0,1.0,34.5,33.0,33.0,2.0,1.5,2.8175,-0.7533552798453684,-0.061725596983360505,0.4094099828769766,-0.3040003521018538,-1.336177,-10.167064
11.185,2.0,1.0,1.0,34.5,33.0,33.0,2.0,1.5,2.82,-0.7591726572629797,-0.05367296861249185,0.38436084657853803,-0.31515255118149893,-1.402156,-9.90541
11.185,2.0,1.0,1.0,34.5,33.0,33.0,2.0,1.5,2.8225,-0.763983177704422,-0.04478804752959959,0.3587150873293923,-0.3265152159924682,-1.473085,-9.640976
11.185,2.0,1.0,1.0,34.5,33.0,33.0,2.0,1.5,2.825,-0.7677065705048552,-0.035002952276055085,0.3324982429896032,-0.338062035665062,-1.549463,-9.373761
11.185,2.0,1.0,1.0,34.5,33.0,33.0,2.0,1.5,2.8275,-0.7702575190839577,-0.02424502622183054,0.3057428810164872,-0.3497600778954304,-1.631853,-9.103777
11.185,2.0,1.0,1.0,34.5,33.0,33.0,2.0,1.5,2.83,-0.7715456017873736,-0.012436768183119593,0.27848979348051855,-0.36156861863144435,-1.720887,-8.83105
