1,w,sub_t,h,l1,l2,l3,g1,g2,Freq,S11_re,S21_re,S11_img,S21_img,S11_dB,S21_dB
11.185,2.0,1.0,1.0,33.4,33.2,33.2,2.3,3.8,2.5,0.858578673913161,-0.00688843460223751,0.500259245299565,0.00569160523366354,-0.054996,-40.977528
11.185,2.0,1.0,1.0,33.4,33.2,33.2,2.3,3.8,2.5025,0.8552132030524696,-0.007024970407383342,0.5058790043901454,0.005714731292532404,-0.055495,-40.861419
11.185,2.0,1.0,1.0,33.4,33.2,33.2,2.3,3.8,2.505,0.8517961399926194,-0.007163827079514212,0.5114989658695233,0.005737130741452839,-0.056002,-40.74507
11.185,2.0,1.0,1.0,33.4,33.2,33.2,2.3,3.8,2.5075,0.8483269735473703,-0.0073050467744694364,0.5171189000331597,0.005758772880020215,-0.056518,-40.628475
11.185,2.0,1.0,1.0,33.4,33.2,33.2,2.3,3.8,2.51,0.844805184434982,-0.00744867254928765,0.5227385700948671,0.0057796259229437935,-0.057042,-40.511627
11.185,2.0,1.0,1.0,33.4,33.2,33.2,2.3,3.8,2.5125,0.8412302451505702,-0.007594748383233945,0.5283577319545109,0.0057996569591023004,-0.057576,-40.394521
11.185,2.0,1.0,1.0,33.4,33.2,33.2,2.3,3.8,2.515,0.837601619837012,-0.007743319199307428,0.533976133958083,0.005818831908920041,-0.058118,-40.277148
11.185,2.0,1.0,1.0,33.4,33.2,33.2,2.3,3.8,2.5175,0.8339187641544333,-0.007894430886237166,0.5395935166498677,0.005837115479988424,-0.05867,-40.159502
11.185,2.0,1.0,1.0,33.4,33.2,33.2,2.3,3.8,2.52,0.830181125148294,-0.008048130320974138,0.5452096125164391,0.005854471120853912,-0.059231,-40.041576
11.185,2.0,1.0,1.0,33.4,33.2,33.2,2.3,3.8,2.5225,0.82638814111612,-0.008204465391686648,0.5508241457221802,0.005870860972889479,-0.059801,-39.923364
11.185,2.0,1.0,1.0,33.4,33.2,33.2,2.3,3.8,2.525,0.8225392414729028,-0.008363485021266591,0.5564368318360511,0.005886245820162821,-0.060382,-39.804859
11.185,2.0,1.0,1.0,33.4,33.2,33.2,2.3,3.8,2.5275,0.8186338466152107,-0.008525239191353442,0.5620473775492826,0.005900585037209742,-0.060973,-39.686052
11.185,2.0,1.0,1.0,33.4,33.2,33.2,2.3,3.8,2.53,0.8146713677840635,-0.008689778966882548,0.5676554803836773,0.005913836534617533,-0.061574,-39.566938
11.185,2.0,1.0,1.0,33.4,33.2,33.2,2.3,3.8,2.5325,0.8106512069266096,-0.008857156521163829,0.573260828390188,0.0059259567023168015,-0.062185,-39.44751
11.185,2.0,1.0,1.0,33.4,33.2,33.2,2.3,3.8,2.535,0.8065727565566674,-0.00902742516149674,0.5788630998374299,0.005936900350477213,-0.062808,-39.327759
11.185,2.0,1.0,1.0,33.4,33.2,33.2,2.3,3.8,2.5375,0.8024353996141892,-0.009200639355326355,0.5844619628897595,0.005946620647895041,-0.063441,-39.207679
11.185,2.0,1.0,1.0,33.4,33.2,33.2,2.3,3.8,2.54,0.7982385093237145,-0.009376854756945503,0.5900570752745602,0.005955069057756562,-0.064086,-39.087262
11.185,2.0,1.0,1.0,33.4,33.2,33.2,2.3,3.8,2.5425,0.7939814490518813,-0.00955612823474654,0.5956480839383391,0.005962195270654586,-0.064742,-38.966501
11.185,2.0,1.0,1.0,33.4,33.2,33.2,2.3,3.8,2.545,0.7896635721640795,-0.009738517899025948,0.6012346246912421,0.00596794713472887,-0.06541,-38.845389
11.185,2.0,1.0,1.0,33.4,33.2,33.2,2.3,3.8,2.5475,0.7852842218803335,-0.009924083130343922,0.6068163218395576,0.005972270582795293,-0.06609,-38.723917
11.185,2.0,1.0,1.0,33.4,33.2,33.2,2.3,3.8,2.55,0.7808427311304967,-0.01011288460844041,0.612392787805798,0.0059751095563210475,-0.066783,-38.602079
11.185,2.0,1.0,1.0,33.4,33.2,33.2,2.3,3.8,2.5525,0.7763384224088816,-0.01030498434170736,0.6179636227358817,0.005976405926095641,-0.067488,-38.479866
11.185,2.0,1.0,1.0,33.4,33.2,33.2,2.3,3.8,2.555,0.7717706076284135,-0.0105004456972166,0.6235284140929717,0.005976099409440442,-0.068207,-38.357271
11.185,2.0,1.0,1.0,33.4,33.2,33.2,2.3,3.8,2.5575,0.7671385879744393,-0.010699333431300794,0.6290867362374789,0.005974127483790029,-0.068938,-38.234286
11.185,2.0,1.0,1.0,33.4,33.2,33.2,2.3,3.8,2.56,0.7624416537583236,-0.010901713720683598,0.6346381499927182,0.005970425296470943,-0.069683,-38.110902
11.185,2.0,1.0,1.0,33.4,33.2,33.2,2.3,3.8,2.5625,0.7576790842709653,-0.011107654194153556,0.6401822021957037,0.00596492557049348,-0.070443,-37.987113
11.185,2.0,1.0,1.0,33.4,33.2,33.2,2.3,3.8,2.565,0.7528501476363891,-0.011317223964774656,0.6457184252325342,0.005957558506162459,-0.071216,-37.862909
11.185,2.0,1.0,1.0,33.4,33.2,33.2,2.3,3.8,2.5675,0.7479541006655794,-0.01153049366262382,0.6512463365577997,0.00594825167830284,-0.072004,-37.738282
11.185,2.0,1.0,1.0,33.4,33.2,33.2,2.3,3.8,2.57,0.7429901887107255,-0.011747535468044315,0.6567654381974245,0.005936929928884648,-0.072807,-37.613224
11.185,2.0,1.0,1.0,33.4,33.2,33.2,2.3,3.8,2.5725,0.7379576455200729,-0.011968423145400845,0.6622752162343338,0.0059235152548201735,-0.073626,-37.487727
11.185,2.0,1.0,1.0,33.4,33.2,33.2,2.3,3.8,2.575,0.7328556930935808,-0.012193232077319852,0.6677751402763067,0.0059079266906941555,-0.07446,-37.361782
11.185,2.0,1.0,1.0,33.4,33.2,33.2,2.3,3.8,2.5775,0.7276835415396072,-0.012422039299395482,0.6732646629053515,0.005890080186174468,-0.07531,-37.23538
11.185,2.0,1.0,1.0,33.4,33.2,33.2,2.3,3.8,2.58,0.7224403889328607,-0.012654923535338267,0.6787432191079127,0.005869888477836751,-0.076177,-37.108512
11.185,2.0,1.0,1.0,33.4,33.2,33.2,2.3,3.8,2.5825,0.7171254211738605,-0.012891965232540386,0.6842102256852004,0.005847260955122323,-0.077061,-36.98117
11.185,2.0,1.0,1.0,33.4,33.2,33.2,2.3,3.8,2.585,0.711737811850189,-0.013133246598027098,0.6896650806428837,0.005822103520132254,-0.077963,-36.853344
11.185,2.0,1.0,1.0,33.4,33.2,33.2,2.3,3.8,2.5875,0.7062767220998165,-0.013378851634759992,0.6951071625593837,0.0057943184409445375,-0.078882,-36.725025
11.185,2.0,1.0,1.0,33.4,33.2,33.2,2.3,3.8,2.59,0.700741300476818,-0.01362886617825244,0.7005358299319446,0.005763804198123656,-0.079819,-36.596205
11.185,2.0,1.0,1.0,33.4,33.2,33.2,2.3,3.8,2.5925,0.6951306828198066,-0.013883377933453395,0.7059504204996531,0.005730455324072604,-0.080775,-36.466873
11.185,2.0,1.0,1.0,33.4,33.2,33.2,2.3,3.8,2.595,0.6894439921234559,-0.014142476511848683,0.7113502505425148,0.005694162234858473,-0.081751,-36.33702
11.185,2.0,1.0,1.0,33.4,33.2,33.2,2.3,3.8,2.5975,0.6836803384134748,-0.014406253468724348,0.7167346141556852,0.005654811054120568,-0.082746,-36.206636
11.185,2.0,1.0,1.0,33.4,33.2,33.2,2.3,3.8,2.6,0.6778388186254578,-0.014674802340528573,0.7221027824979018,0.005612283428648774,-0.083762,-36.075712
11.185,2.0,1.0,1.0,33.4,33.2,33.2,2.3,3.8,2.6025,0.6719185164880465,-0.01494821868226138,0.7274540030131118,0.0055664563351949135,-0.084798,-35.944237
11.185,2.0,1.0,1.0,33.4,33.2,33.2,2.3,3.8,2.605,0.6659185024108658,-0.015226600104814206,0.7327874986242814,0.005517201878055196,-0.085856,-35.812201
11.185,2.0,1.0,1.0,33.4,33.2,33.2,2.3,3.8,2.6075,0.659837833377738,-0.01551004631217112,0.7381024668982906,0.005464387076934729,-0.086936,-35.679595
11.185,2.0,1.0,1.0,33.4,33.2,33.2,2.3,3.8,2.61,0.6536755528457167,-0.01579865913837444,0.7433980791807977,0.005407873644576254,-0.088039,-35.546407
11.185,2.0,1.0,1.0,33.4,33.2,33.2,2.3,3.8,2.6125,0.6474306906505021,-0.016092542584146944,0.7486734796998943,0.005347517753604411,-0.089164,-35.412627
11.185,2.0,1.0,1.0,33.4,33.2,33.2,2.3,3.8,2.615,0.6411022629188533,-0.016391802853050794,0.7539277846373368,0.005283169792004877,-0.090314,-35.278243
11.185,2.0,1.0,1.0,33.4,33.2,33.2,2.3,3.8,2.6175,0.6346892719886561,-0.016696548387050324,0.7591600811660624,0.005214674106622432,-0.091488,-35.143246
11.185,2.0,1.0,1.0,33.4,33.2,33.2,2.3,3.8,2.62,0.628190706337337,-0.017006889901332277,0.7643694264526683,0.005141868734025057,-0.092687,-35.007624
11.185,2.0,1.0,1.0,33.4,33.2,33.2,2.3,3.8,2.6225,0.6216055405193696,-0.017322940418221622,0.7695548466234545,0.005064585118041831,-0.093912,-34.871365
11.185,2.0,1.0,1.0,33.4,33.2,33.2,2.3,3.8,2.625,0.614932735113681,-0.0176448153000132,0.774715335692576,0.00498264781324022,-0.095164,-34.734458
11.185,2.0,1.0,1.0,33.4,33.2,33.2,2.3,3.8,2.6275,0.6081712366817907,-0.017972632280523107,0.7798498544507886,0.0048958741735630985,-0.096442,-34.596892
11.185,2.0,1.0,1.0,33.4,33.2,33.2,2.3,3.8,2.63,0.6013199777376051,-0.018306511495141196,0.7849573293131946,0.00480407402529795,-0.09775,-34.458653
11.185,2.0,1.0,1.0,33.4,33.2,33.2,2.3,3.8,2.6325,0.5943778767298313,-0.01864657550914553,0.7900366511243342,0.0047070493234995315,-0.099086,-34.319731
11.185,2.0,1.0,1.0,33.4,33.2,33.2,2.3,3.8,2.635,0.5873438380380474,-0.01899294934401462,0.7950866739188778,0.004604593790932313,-0.100452,-34.180112
11.185,2.0,1.0,1.0,33.4,33.2,33.2,2.3,3.8,2.6375,0.5802167519835446,-0.019345760501446665,0.8001062136361072,0.004496492538539781,-0.101848,-34.039784
11.185,2.0,1.0,1.0,33.4,33.2,33.2,2.3,3.8,2.64,0.5729954948561069,-0.01970513898476655,0.8050940467862867,0.004382521666386069,-0.103276,-33.898735
11.185,2.0,1.0,1.0,33.4,33.2,33.2,2.3,3.8,2.6425,0.5656789289580076,-0.020071217317368342,0.8100489090669285,0.004262447843947128,-0.104737,-33.75695
11.185,2.0,1.0,1.0,33.4,33.2,33.2,2.3,3.8,2.645,0.5582659026665673,-0.020444130557806715,0.814969493926868,0.0041360278685575215,-0.106231,-33.614417
11.185,2.0,1.0,1.0,33.4,33.2,33.2,2.3,3.8,2.6475,0.550755250516715,-0.020824016311111783,0.8198544510759677,0.004003008200741399,-0.10776,-33.471121
11.185,2.0,1.0,1.0,33.4,33.2,33.2,2.3,3.8,2.65,0.5431457933050873,-0.02121101473586041,0.8247023849381632,0.0038631244750740737,-0.109324,-33.32705
11.185,2.0,1.0,1.0,33.4,33.2,33.2,2.3,3.8,2.6525,0.5354363382173343,-0.021605268546488678,0.8295118530454345,0.0037161009851320926,-0.110925,-33.182189
11.185,2.0,1.0,1.0,33.4,33.2,33.2,2.3,3.8,2.655,0.5276256789803704,-0.022006923010282217,0.8342813643702074,0.003561650140994655,-0.112564,-33.036523
11.185,2.0,1.0,1.0,33.4,33.2,33.2,2.3,3.8,2.6575,0.519712596041466,-0.022416125938422238,0.8390093775935223,0.0033994718976576616,-0.114241,-32.890038
11.185,2.0,1.0,1.0,33.4,33.2,33.2,2.3,3.8,2.66,0.5116958567761946,-0.02283302767040554,0.8436942993062057,0.003229253152612351,-0.115959,-32.742719
11.185,2.0,1.0,1.0,33.4,33.2,33.2,2.3,3.8,2.6625,0.5035742157273932,-0.023257781051087625,0.8483344821401184,0.003050667110723261,-0.117718,-32.59455
11.185,2.0,1.0,1.0,33.4,33.2,33.2,2.3,3.8,2.665,0.49534641487743303,-0.023690541399525297,0.8529282228264322,0.0028633726144139224,-0.119521,-32.445515
11.185,2.0,1.0,1.0,33.4,33.2,33.2,2.3,3.8,2.6675,0.4870111839562897,-0.024131466468710804,0.857473760177686,0.0026670134370334647,-0.121367,-32.295599
11.185,2.0,1.0,1.0,33.4,33.2,33.2,2.3,3.8,2.67,0.4785672407880452,-0.024580716395201756,0.8619692729902548,0.002461217537131696,-0.123259,-32.144785
11.185,2.0,1.0,1.0,33.4,33.2,33.2,2.3,3.8,2.6725,0.4700132916786541,-0.025038453637549977,0.866412877863645,0.0022455962712126295,-0.125197,-31.993057
11.185,2.0,1.0,1.0,33.4,33.2,33.2,2.3,3.8,2.675,0.4613480318480293,-0.025504842902323004,0.8708026269328594,0.0020197435623689913,-0.127185,-31.840397
11.185,2.0,1.0,1.0,33.4,33.2,33.2,2.3,3.8,2.6775,0.4525701459096919,-0.025980051056391423,0.875136505509864,0.0017832350220170186,-0.129223,-31.686787
11.185,2.0,1.0,1.0,33.4,33.2,33.2,2.3,3.8,2.68,0.44367830840148126,-0.02646424702402195,0.8794124296299791,0.001535627021756159,-0.131313,-31.532211
11.185,2.0,1.0,1.0,33.4,33.2,33.2,2.3,3.8,2.6825,0.43467118437109253,-0.026957601667166972,0.8836282434987716,0.0012764557121664162,-0.133456,-31.376649
11.185,2.0,1.0,1.0,33.4,33.2,33.2,2.3,3.8,2.685,0.425547430020454,-0.02746028764718114,0.8877817168347997,0.0010052359851289003,-0.135655,-31.220082
11.185,2.0,1.0,1.0,33.4,33.2,33.2,2.3,3.8,2.6875,0.41630569341327983,-0.02797247926601325,0.8918705421032717,0.0007214603760086556,-0.137912,-31.062493
11.185,2.0,1.0,1.0,33.4,33.2,33.2,2.3,3.8,2.69,0.40694461525047065,-0.028494352284722753,0.8958923316354137,0.00042459790177504876,-0.140228,-30.90386
11.185,2.0,1.0,1.0,33.4,33.2,33.2,2.3,3.8,2.6925,0.3974628297183399,-0.029026083716951034,0.8998446146280399,0.00011409283084644352,-0.142606,-30.744164
11.185,2.0,1.0,1.0,33.4,33.2,33.2,2.3,3.8,2.695,0.3878589654150972,-0.02956785159473059,0.9037248340174694,-0.0002106366198611801,-0.145047,-30.583384
11.185,2.0,1.0,1.0,33.4,33.2,33.2,2.3,3.8,2.6975,0.37813164636136404,-0.030119834703747447,0.9075303432216217,-0.0005501996655390809,-0.147555,-30.421499
11.185,2.0,1.0,1.0,33.4,33.2,33.2,2.3,3.8,2.7,0.3682794931010148,-0.030682212284868338,0.9112584027437123,-0.0009052344169609953,-0.150131,-30.258488
11.185,2.0,1.0,1.0,33.4,33.2,33.2,2.3,3.8,2.7025,0.3583011238990847,-0.031255163698413,0.9149061766305888,-0.001276409432439608,-0.152779,-30.094327
11.185,2.0,1.0,1.0,33.4,33.2,33.2,2.3,3.8,2.705,0.3481951560440536,-0.03183886804727923,0.9184707287783054,-0.0016644253642966633,-0.155499,-29.928995
11.185,2.0,1.0,1.0,33.4,33.2,33.2,2.3,3.8,2.7075,0.3379602072623937,-0.032433503754617454,0.9219490190770683,-0.0020700167063398586,-0.158297,-29.762468
11.185,2.0,1.0,1.0,33.4,33.2,33.2,2.3,3.8,2.71,0.3275948972539178,-0.033039248091290996,0.9253378993871753,-0.002493953649335764,-0.161173,-29.594721
11.185,2.0,1.0,1.0,33.4,33.2,33.2,2.3,3.8,2.7125,0.3170978493571662,-0.03365627664784947,0.9286341093370475,-0.002937044052007695,-0.164132,-29.425731
11.185,2.0,1.0,1.0,33.4,33.2,33.2,2.3,3.8,2.715,0.3064676923548506,-0.0342847627451703,0.9318342719338376,-0.003400135535671426,-0.167177,-29.255471
11.185,2.0,1.0,1.0,33.4,33.2,33.2,2.3,3.8,2.7175,0.2957030624302226,-0.03492487677729066,0.934934888976491,-0.0038841177112554134,-0.17031,-29.083916
11.185,2.0,1.0,1.0,33.4,33.2,33.2,2.3,3.8,2.72,0.2848026052861781,-0.035576785479239544,0.9379323362604368,-0.00438992454813912,-0.173536,-28.911039
11.185,2.0,1.0,1.0,33.4,33.2,33.2,2.3,3.8,2.7225,0.2737649784399058,-0.036240651111889864,0.9408228585623536,-0.004918536894991733,-0.176858,-28.736813
11.185,2.0,1.0,1.0,33.4,33.2,33.2,2.3,3.8,2.725,0.2625888537070919,-0.036916630554959806,0.9436025643926453,-0.005470985163599745,-0.18028,-28.561208
11.185,2.0,1.0,1.0,33.4,33.2,33.2,2.3,3.8,2.7275,0.25127291989085276,-0.03760487429830326,0.946267420502406,-0.006048352187555847,-0.183806,-28.384197
11.185,2.0,1.0,1.0,33.4,33.2,33.2,2.3,3.8,2.73,0.2398158856920565,-0.038305525320512124,0.9488132461306986,-0.0066517762686337896,-0.187441,-28.205748
11.185,2.0,1.0,1.0,33.4,33.2,33.2,2.3,3.8,2.7325,0.22821648285914128,-0.03901871784260822,0.9512357069769667,-0.007282454424714456,-0.191189,-28.025831
11.185,2.0,1.0,1.0,33.4,33.2,33.2,2.3,3.8,2.735,0.21647346959731262,-0.03974457594319745,0.9535303088822824,-0.007941645854253896,-0.195054,-27.844415
11.185,2.0,1.0,1.0,33.4,33.2,33.2,2.3,3.8,2.7375,0.2045856342588446,-0.0404832120198852,0.9556923912019406,-0.008630675633511045,-0.199042,-27.661466
11.185,2.0,1.0,1.0,33.4,33.2,33.2,2.3,3.8,2.74,0.19255179933835803,-0.04123472507997672,0.9577171198505976,-0.009350938664083286,-0.203159,-27.47695
11.185,2.0,1.0,1.0,33.4,33.2,33.2,2.3,3.8,2.7425,0.18037082579925742,-0.04199919884149114,0.9595994799997596,-0.010103903889744238,-0.207409,-27.290833
11.185,2.0,1.0,1.0,33.4,33.2,33.2,2.3,3.8,2.745,0.16804161776016702,-0.042776699623263734,0.9613342684058627,-0.010891118803149462,-0.211799,-27.103079
11.185,2.0,1.0,1.0,33.4,33.2,33.2,2.3,3.8,2.7475,0.1555631275731138,-0.04356727400037069,0.9629160853455472,-0.011714214264681133,-0.216335,-26.913651
11.185,2.0,1.0,1.0,33.4,33.2,33.2,2.3,3.8,2.75,0.142934361328491,-0.0443709461982377,0.964339326132908,-0.0125749096575538,-0.221025,-26.72251
11.185,2.0,1.0,1.0,33.4,33.2,33.2,2.3,3.8,2.7525,0.13015438482552735,-0.04518771519554455,0.9655981721915352,-0.013475018405313687,-0.225874,-26.529617
11.185,2.0,1.0,1.0,33.4,33.2,33.2,2.3,3.8,2.755,0.11722233005111875,-0.04601755150235772,0.9666865816520528,-0.014416453880037854,-0.23089,-26.334931
11.185,2.0,1.0,1.0,33.4,33.2,33.2,2.3,3.8,2.7575,0.10413740221451116,-0.046860393575752626,0.9675982794435344,-0.015401235731903424,-0.236083,-26.13841
11.185,2.0,1.0,1.0,33.4,33.2,33.2,2.3,3.8,2.76,0.09089888739061917,-0.047716143830447144,0.9683267468446873,-0.016431496673341497,-0.241459,-25.94001
11.185,2.0,1.0,1.0,33.4,33.2,33.2,2.3,3.8,2.7625,0.07750616083062516,-0.048584664196590334,0.9688652104580108,-0.017509489753754125,-0.247029,-25.739685
11.185,2.0,1.0,1.0,33.4,33.2,33.2,2.3,3.8,2.765,0.06395869600525647,-0.049465771170721366,0.9692066305671895,-0.01863759616374013,-0.252801,-25.53739
11.185,2.0,1.0,1.0,33.4,33.2,33.2,2.3,3.8,2.7675,0.050256074453696606,-0.050359230298938545,0.9693436888348742,-0.019818333610977658,-0.258786,-25.333076
11.185,2.0,1.0,1.0,33.4,33.2,33.2,2.3,3.8,2.77,0.036397996519679475,-0.051264750023360006,0.9692687752945983,-0.021054365313346868,-0.264996,-25.126691
11.185,2.0,1.0,1.0,33.4,33.2,33.2,2.3,3.8,2.7725,0.022384293066135645,-0.052181974813866785,0.9689739745869815,-0.022348509658551008,-0.271441,-24.918186
11.185,2.0,1.0,1.0,33.4,33.2,33.2,2.3,3.8,2.775,0.00821493827085537,-0.05311047749672743,0.9684510513864901,-0.023703750583412293,-0.278134,-24.707506
11.185,2.0,1.0,1.0,33.4,33.2,33.2,2.3,3.8,2.7775,-0.00610993638165673,-0.05404975067980298,0.9676914349609242,-0.02512324873017804,-0.285089,-24.494594
11.185,2.0,1.0,1.0,33.4,33.2,33.2,2.3,3.8,2.78,-0.020590026782482673,-0.054999197160390485,0.9666862028014647,-0.02661035344155691,-0.29232,-24.279394
11.185,2.0,1.0,1.0,33.4,33.2,33.2,2.3,3.8,2.7825,-0.03522483940848123,-0.05595811918610367,0.9654260632565475,-0.02816861566079256,-0.299842,-24.061845
11.185,2.0,1.0,1.0,33.4,33.2,33.2,2.3,3.8,2.785,-0.05001367289518884,-0.05692570642119676,0.9639013370981067,-0.02980180180784914,-0.307672,-23.841884
11.185,2.0,1.0,1.0,33.4,33.2,33.2,2.3,3.8,2.7875,-0.06495559778537405,-0.057901022450022835,0.9621019379438734,-0.031513908707649065,-0.315827,-23.619448
11.185,2.0,1.0,1.0,33.4,33.2,33.2,2.3,3.8,2.79,-0.0800494342412347,-0.05888298962545989,0.9600173514544875,-0.03330917965122455,-0.324327,-23.394468
11.185,2.0,1.0,1.0,33.4,33.2,33.2,2.3,3.8,2.7925,-0.09529372747935855,-0.05987037204260123,0.957636613219344,-0.035192121675474725,-0.333192,-23.166875
11.185,2.0,1.0,1.0,33.4,33.2,33.2,2.3,3.8,2.795,-0.11068672065441586,-0.06086175638620605,0.954948285240435,-0.03716752415183911,-0.342445,-22.936597
11.185,2.0,1.0,1.0,33.4,33.2,33.2,2.3,3.8,2.7975,-0.12622632487914717,-0.061855530363612195,0.9519404309192194,-0.03924047877836534,-0.352108,-22.703557
11.185,2.0,1.0,1.0,33.4,33.2,33.2,2.3,3.8,2.8,-0.1419100860239847,-0.06284985839221592,0.9486005884480012,-0.04141640107312641,-0.362209,-22.467677
11.185,2.0,1.0,1.0,33.4,33.2,33.2,2.3,3.8,2.8025,-0.1577351478883118,-0.06384265416122,0.9449157425047953,-0.04370105346932031,-0.372774,-22.228875
11.185,2.0,1.0,1.0,33.4,33.2,33.2,2.3,3.8,2.805,-0.17369821127589177,-0.06483154963000831,0.9408722941497182,-0.04610057011319887,-0.383835,-21.987066
11.185,2.0,1.0,1.0,33.4,33.2,33.2,2.3,3.8,2.8075,-0.18979548843805516,-0.06581385995886173,0.936456028822159,-0.04862148346457978,-0.395424,-21.742162
11.185,2.0,1.0,1.0,33.4,33.2,33.2,2.3,3.8,2.81,-0.2060226522680157,-0.0667865437901975,0.9316520823422346,-0.05127075279524379,-0.407578,-21.494069
11.185,2.0,1.0,1.0,33.4,33.2,33.2,2.3,3.8,2.8125,-0.222374779536414,-0.0677461582082175,0.926444904828428,-0.0540557946719122,-0.420334,-21.242692
11.185,2.0,1.0,1.0,33.4,33.2,33.2,2.3,3.8,2.815,-0.2388462873495751,-0.0686888075996064,0.9208182224572269,-0.056984515496325876,-0.433736,-20.987931
11.185,2.0,1.0,1.0,33.4,33.2,33.2,2.3,3.8,2.8175,-0.2554308618853579,-0.06961008551513576,0.9147549970119458,-0.06006534615331677,-0.44783,-20.729681
11.185,2.0,1.0,1.0,33.4,33.2,33.2,2.3,3.8,2.82,-0.27212137831374644,-0.07050500848870138,0.9082373831991598,-0.06330727878628996,-0.462668,-20.467833
11.185,2.0,1.0,1.0,33.4,33.2,33.2,2.3,3.8,2.8225,-0.28890981063696375,-0.07136794060291841,0.9012466837553879,-0.06671990567507523,-0.478304,-20.202273
11.185,2.0,1.0,1.0,33.4,33.2,33.2,2.3,3.8,2.825,-0.30578712998254104,-0.07219250739481341,0.893763302428013,-0.07031346012960903,-0.4948,-19.932884
11.185,2.0,1.0,1.0,33.4,33.2,33.2,2.3,3.8,2.8275,-0.32274318964769805,-0.07297149746663449,0.8857666949981562,-0.07409885922912111,-0.512224,-19.659542
