1,w,sub_t,h,l1,l2,l3,g1,g2,Freq,S11_re,S21_re,S11_img,S21_img,S11_dB,S21_dB
11.185,2.0,1.0,1.0,34.6,33.2,33.2,4.4,3.6,2.5,0.687621638046108,-0.00800972961581878,0.716175017438651,0.00224881406654447,-0.062419,-41.598127
11.185,2.0,1.0,1.0,34.6,33.2,33.2,4.4,3.6,2.5025,0.6817710162961083,-0.008130493120029093,0.7216511383754158,0.002203984416803384,-0.063028,-41.489713
11.185,2.0,1.0,1.0,34.6,33.2,33.2,4.4,3.6,2.505,0.6758460647644693,-0.008252608434508793,0.7271065435322503,0.002157265661616672,-0.063646,-41.381112
11.185,2.0,1.0,1.0,34.6,33.2,33.2,4.4,3.6,2.5075,0.669846126491827,-0.008376082461876242,0.7325404652253001,0.002108608107778117,-0.064274,-41.272321
11.185,2.0,1.0,1.0,34.6,33.2,33.2,4.4,3.6,2.51,0.6637705401724575,-0.008500921742407153,0.7379521157901916,0.00205796079232578,-0.064912,-41.163336
11.185,2.0,1.0,1.0,34.6,33.2,33.2,4.4,3.6,2.5125,0.6576186403170948,-0.008627132428733194,0.7433406870774927,0.0020052714505948495,-0.06556,-41.054152
11.185,2.0,1.0,1.0,34.6,33.2,33.2,4.4,3.6,2.515,0.6513897574278555,-0.00875472025931444,0.7487053499372323,0.0019504864835655793,-0.066218,-40.944765
11.185,2.0,1.0,1.0,34.6,33.2,33.2,4.4,3.6,2.5175,0.6450832181858671,-0.008883690530632433,0.7540452536923433,0.0018935509244981375,-0.066887,-40.835171
11.185,2.0,1.0,1.0,34.6,33.2,33.2,4.4,3.6,2.52,0.6386983456521617,-0.009014048068049446,0.759359525600924,0.0018344084048468674,-0.067567,-40.725366
11.185,2.0,1.0,1.0,34.6,33.2,33.2,4.4,3.6,2.5225,0.6322344594824884,-0.00914579719527601,0.7646472703071894,0.001773001119446993,-0.068258,-40.615346
11.185,2.0,1.0,1.0,34.6,33.2,33.2,4.4,3.6,2.525,0.6256908761566544,-0.009278941702387996,0.7699075692810303,0.0017092697909668298,-0.06896,-40.505106
11.185,2.0,1.0,1.0,34.6,33.2,33.2,4.4,3.6,2.5275,0.6190669092230708,-0.009413484812331263,0.7751394802460816,0.0016431536336197145,-0.069674,-40.394643
11.185,2.0,1.0,1.0,34.6,33.2,33.2,4.4,3.6,2.53,0.6123618695592031,-0.009549429145849608,0.7803420365962154,0.0015745903161307306,-0.070399,-40.283952
11.185,2.0,1.0,1.0,34.6,33.2,33.2,4.4,3.6,2.5325,0.60557506564863,-0.00968677668476971,0.7855142468003936,0.001503515923952863,-0.071136,-40.173028
11.185,2.0,1.0,1.0,34.6,33.2,33.2,4.4,3.6,2.535,0.5987058038754608,-0.00982552873357401,0.7906550937958305,0.0014298649207295684,-0.071885,-40.061868
11.185,2.0,1.0,1.0,34.6,33.2,33.2,4.4,3.6,2.5375,0.5917533888368883,-0.009965685879189343,0.7957635343694057,0.0013535701090004652,-0.072646,-39.950468
11.185,2.0,1.0,1.0,34.6,33.2,33.2,4.4,3.6,2.54,0.5847171236746699,-0.01010724794891735,0.8008384985273201,0.0012745625901481848,-0.07342,-39.838823
11.185,2.0,1.0,1.0,34.6,33.2,33.2,4.4,3.6,2.5425,0.5775963104263705,-0.01025021396642923,0.8058788888529722,0.001192771723585261,-0.074207,-39.726928
11.185,2.0,1.0,1.0,34.6,33.2,33.2,4.4,3.6,2.545,0.5703902503972266,-0.010394582105744657,0.8108835798530659,0.001108125085181461,-0.075007,-39.614781
11.185,2.0,1.0,1.0,34.6,33.2,33.2,4.4,3.6,2.5475,0.5630982445535306,-0.01054034964311179,0.8158514172919735,0.0010205484249323543,-0.075821,-39.502376
11.185,2.0,1.0,1.0,34.6,33.2,33.2,4.4,3.6,2.55,0.5557195939384366,-0.010687512906702343,0.8207812175144101,0.0009299656238716584,-0.076648,-39.389708
11.185,2.0,1.0,1.0,34.6,33.2,33.2,4.4,3.6,2.5525,0.548253600111175,-0.01083606722403194,0.8256717667564719,0.0008362986502313927,-0.077488,-39.276775
11.185,2.0,1.0,1.0,34.6,33.2,33.2,4.4,3.6,2.555,0.5406995656106353,-0.010986006867013962,0.8305218204451512,0.0007394675148542948,-0.078343,-39.163571
11.185,2.0,1.0,1.0,34.6,33.2,33.2,4.4,3.6,2.5575,0.5330567944443495,-0.01113732499455018,0.8353301024864381,0.0006393902258661126,-0.079213,-39.050092
11.185,2.0,1.0,1.0,34.6,33.2,33.2,4.4,3.6,2.56,0.5253245926039384,-0.01129001359255943,0.8400953045421574,0.0005359827426146717,-0.080097,-38.936334
11.185,2.0,1.0,1.0,34.6,33.2,33.2,4.4,3.6,2.5625,0.5175022686081041,-0.011444063411341066,0.8448160852957183,0.00042915892888699246,-0.080996,-38.822292
11.185,2.0,1.0,1.0,34.6,33.2,33.2,4.4,3.6,2.565,0.5095891340742933,-0.011599463900167082,0.8494910697069926,0.00031883050541483263,-0.08191,-38.707962
11.185,2.0,1.0,1.0,34.6,33.2,33.2,4.4,3.6,2.5675,0.5015845043202093,-0.011756203138992375,0.8541188482565538,0.00020490700168294086,-0.082841,-38.593339
11.185,2.0,1.0,1.0,34.6,33.2,33.2,4.4,3.6,2.57,0.49348769899635553,-0.01191426776716913,0.8586979761795719,8.729570705553064e-05,-0.083787,-38.47842
11.185,2.0,1.0,1.0,34.6,33.2,33.2,4.4,3.6,2.5725,0.48529804275085825,-0.01207364290904765,0.8632269726896696,-3.409837876219621e-05,-0.084749,-38.363199
11.185,2.0,1.0,1.0,34.6,33.2,33.2,4.4,3.6,2.575,0.4770148659278378,-0.012234312096341517,0.8677043201931167,-0.0001593725959068645,-0.085728,-38.247672
11.185,2.0,1.0,1.0,34.6,33.2,33.2,4.4,3.6,2.5775,0.46863750530064424,-0.012396257187130763,0.8721284634937554,-0.00028862667516258144,-0.086724,-38.131835
11.185,2.0,1.0,1.0,34.6,33.2,33.2,4.4,3.6,2.58,0.46016530484131407,-0.012559458281372983,0.8764978089891117,-0.0004219627893648991,-0.087737,-38.015682
11.185,2.0,1.0,1.0,34.6,33.2,33.2,4.4,3.6,2.5825,0.4515976165276245,-0.012723893632787728,0.8808107238582068,-0.0005594856053759815,-0.088768,-37.899211
11.185,2.0,1.0,1.0,34.6,33.2,33.2,4.4,3.6,2.585,0.4429338011891872,-0.012889539556974717,0.8850655352416117,-0.0007013023366017544,-0.089817,-37.782414
11.185,2.0,1.0,1.0,34.6,33.2,33.2,4.4,3.6,2.5875,0.4341732293940352,-0.013056370335622793,0.8892605294143692,-0.0008475227960186581,-0.090884,-37.66529
11.185,2.0,1.0,1.0,34.6,33.2,33.2,4.4,3.6,2.59,0.4253152823772272,-0.013224358116660596,0.8933939509524444,-0.0009982594496748174,-0.09197,-37.547831
11.185,2.0,1.0,1.0,34.6,33.2,33.2,4.4,3.6,2.5925,0.41635935301298616,-0.013393472810196568,0.8974640018934621,-0.0011536274706282605,-0.093075,-37.430035
11.185,2.0,1.0,1.0,34.6,33.2,33.2,4.4,3.6,2.595,0.40730484683199003,-0.013563681980089635,0.9014688408925007,-0.0013137447932804161,-0.094199,-37.311895
11.185,2.0,1.0,1.0,34.6,33.2,33.2,4.4,3.6,2.5975,0.39815118308539726,-0.013734950730988064,0.9054065823738556,-0.0014787321680619608,-0.095344,-37.193408
11.185,2.0,1.0,1.0,34.6,33.2,33.2,4.4,3.6,2.6,0.38889779585728323,-0.01390724159066826,0.9092752956796984,-0.0016487132164230071,-0.096509,-37.074568
11.185,2.0,1.0,1.0,34.6,33.2,33.2,4.4,3.6,2.6025,0.37954413522718694,-0.014080514387499722,0.9130730042166606,-0.0018238144860779888,-0.097695,-36.955371
11.185,2.0,1.0,1.0,34.6,33.2,33.2,4.4,3.6,2.605,0.3700896684844693,-0.014254726122858363,0.9167976846014716,-0.0020041655064512737,-0.098902,-36.835811
11.185,2.0,1.0,1.0,34.6,33.2,33.2,4.4,3.6,2.6075,0.36053388139626924,-0.014429830838302576,0.9204472658068334,-0.0021898988442669905,-0.100131,-36.715884
11.185,2.0,1.0,1.0,34.6,33.2,33.2,4.4,3.6,2.61,0.3508762795308413,-0.01460577947732344,0.924019628308833,-0.002381150159222625,-0.101381,-36.595585
11.185,2.0,1.0,1.0,34.6,33.2,33.2,4.4,3.6,2.6125,0.34111638963809965,-0.014782519741472305,0.9275126032372732,-0.002578058259683274,-0.102655,-36.474909
11.185,2.0,1.0,1.0,34.6,33.2,33.2,4.4,3.6,2.615,0.33125376108921345,-0.014959995940664479,0.930923971530435,-0.002780765158329428,-0.103951,-36.35385
11.185,2.0,1.0,1.0,34.6,33.2,33.2,4.4,3.6,2.6175,0.3212879673771501,-0.015138148837451175,0.9342514630958384,-0.002989416127688673,-0.105272,-36.232403
11.185,2.0,1.0,1.0,34.6,33.2,33.2,4.4,3.6,2.62,0.3112186076800578,-0.015316915485045173,0.937492755978735,-0.003204159755478144,-0.106616,-36.110564
11.185,2.0,1.0,1.0,34.6,33.2,33.2,4.4,3.6,2.6225,0.30104530848941236,-0.015496229058879363,0.9406454755401501,-0.003425147999681137,-0.107985,-35.988326
11.185,2.0,1.0,1.0,34.6,33.2,33.2,4.4,3.6,2.625,0.290767725304886,-0.015676018681471,0.943707193646419,-0.00365253624327923,-0.109379,-35.865685
11.185,2.0,1.0,1.0,34.6,33.2,33.2,4.4,3.6,2.6275,0.28038554439787766,-0.015856209240356293,0.9466754278723014,-0.00388648334855784,-0.110798,-35.742635
11.185,2.0,1.0,1.0,34.6,33.2,33.2,4.4,3.6,2.63,0.26989848464568783,-0.016036721198854124,0.9495476407198801,-0.004127151710901196,-0.112244,-35.61917
11.185,2.0,1.0,1.0,34.6,33.2,33.2,4.4,3.6,2.6325,0.25930629943830713,-0.016217470399408514,0.9523212388555903,-0.004374707311989856,-0.113717,-35.495285
11.185,2.0,1.0,1.0,34.6,33.2,33.2,4.4,3.6,2.635,0.24860877865980552,-0.01639836785925287,0.9549935723678677,-0.004629319772312805,-0.115217,-35.370975
11.185,2.0,1.0,1.0,34.6,33.2,33.2,4.4,3.6,2.6375,0.23780575074629634,-0.016579319558128865,0.9575619340480623,-0.004891162402903402,-0.116746,-35.246233
11.185,2.0,1.0,1.0,34.6,33.2,33.2,4.4,3.6,2.64,0.22689708482243248,-0.01676022621778668,0.9600235586974131,-0.005160412256210736,-0.118302,-35.121054
11.185,2.0,1.0,1.0,34.6,33.2,33.2,4.4,3.6,2.6425,0.2158826929184038,-0.01694098307298054,0.9623756224630311,-0.005437250176012092,-0.119889,-34.995431
11.185,2.0,1.0,1.0,34.6,33.2,33.2,4.4,3.6,2.645,0.20476253226936367,-0.017121479633666285,0.9646152422060228,-0.005721860846278672,-0.121505,-34.86936
11.185,2.0,1.0,1.0,34.6,33.2,33.2,4.4,3.6,2.6475,0.1935366076991864,-0.017301599438095897,0.9667394749050434,-0.006014432838902616,-0.123151,-34.742832
11.185,2.0,1.0,1.0,34.6,33.2,33.2,4.4,3.6,2.65,0.182204974090421,-0.017481219796492198,0.9687453170987413,-0.006315158660199273,-0.124829,-34.615843
11.185,2.0,1.0,1.0,34.6,33.2,33.2,4.4,3.6,2.6525,0.17076773894229516,-0.017660211524975603,0.970629704370759,-0.006624234796098116,-0.126539,-34.488385
11.185,2.0,1.0,1.0,34.6,33.2,33.2,4.4,3.6,2.655,0.15922506501851144,-0.01783843866940036,0.9723895108811076,-0.0069418617559426805,-0.128282,-34.360453
11.185,2.0,1.0,1.0,34.6,33.2,33.2,4.4,3.6,2.6575,0.14757717308656548,-0.018015758218744744,0.974021548947956,-0.007268244114823319,-0.130058,-34.23204
11.185,2.0,1.0,1.0,34.6,33.2,33.2,4.4,3.6,2.66,0.13582434475022762,-0.01819201980768202,0.9755225686840517,-0.007603590554374096,-0.131868,-34.103138
11.185,2.0,1.0,1.0,34.6,33.2,33.2,4.4,3.6,2.6625,0.12396692537676045,-0.018367065407943733,0.976889257692177,-0.007948113901972882,-0.133714,-33.973741
11.185,2.0,1.0,1.0,34.6,33.2,33.2,4.4,3.6,2.665,0.11200532712030961,-0.018540729008066532,0.9781182408242868,-0.008302031168295379,-0.135595,-33.843841
11.185,2.0,1.0,1.0,34.6,33.2,33.2,4.4,3.6,2.6675,0.09994003204287731,-0.01871283628109337,0.9792060800091211,-0.008665563583183471,-0.137513,-33.713432
11.185,2.0,1.0,1.0,34.6,33.2,33.2,4.4,3.6,2.67,0.0877715953340901,-0.018883204239776418,0.9801492741533386,-0.009038936629804805,-0.139468,-33.582505
11.185,2.0,1.0,1.0,34.6,33.2,33.2,4.4,3.6,2.6725,0.07550064863089208,-0.019051640878804448,0.9809442591214051,-0.009422380077097113,-0.141462,-33.451054
11.185,2.0,1.0,1.0,34.6,33.2,33.2,4.4,3.6,2.675,0.06312790343815076,-0.019217944803547146,0.9815874077996662,-0.009816128010509148,-0.143495,-33.31907
11.185,2.0,1.0,1.0,34.6,33.2,33.2,4.4,3.6,2.6775,0.05065415465097824,-0.01938190484477786,0.9820750302502671,-0.010220418861073924,-0.145568,-33.186545
11.185,2.0,1.0,1.0,34.6,33.2,33.2,4.4,3.6,2.68,0.0380802841794289,-0.019543299658801312,0.9824033739607628,-0.010635495432876526,-0.147683,-33.053471
11.185,2.0,1.0,1.0,34.6,33.2,33.2,4.4,3.6,2.6825,0.02540726467602888,-0.019701897312370657,0.9825686241954762,-0.01106160492900618,-0.149839,-32.91984
11.185,2.0,1.0,1.0,34.6,33.2,33.2,4.4,3.6,2.685,0.012636163366403599,-0.019857454851735866,0.9825669044548615,-0.011498998976119473,-0.152039,-32.785641
11.185,2.0,1.0,1.0,34.6,33.2,33.2,4.4,3.6,2.6875,-0.000231854016970404,-0.0200097178551128,0.982394277049314,-0.0119479336477774,-0.154283,-32.650867
11.185,2.0,1.0,1.0,34.6,33.2,33.2,4.4,3.6,2.69,-0.013195519198030949,-0.02015841996780696,0.9820467437940519,-0.01240866948676301,-0.156573,-32.515507
11.185,2.0,1.0,1.0,34.6,33.2,33.2,4.4,3.6,2.6925,-0.0262534572179367,-0.020303282419161194,0.9815202468318964,-0.012881471526635673,-0.158909,-32.379553
11.185,2.0,1.0,1.0,34.6,33.2,33.2,4.4,3.6,2.695,-0.039404182194009416,-0.020444013520424298,0.9808106695908968,-0.013366609312832005,-0.161292,-32.242993
11.185,2.0,1.0,1.0,34.6,33.2,33.2,4.4,3.6,2.6975,-0.05264609297790597,-0.020580308142556323,0.9799138378839561,-0.013864356923684509,-0.163725,-32.105818
11.185,2.0,1.0,1.0,34.6,33.2,33.2,4.4,3.6,2.7,-0.06597746871421825,-0.020711847172894555,0.9788255211576992,-0.01437499299179753,-0.166207,-31.968017
11.185,2.0,1.0,1.0,34.6,33.2,33.2,4.4,3.6,2.7025,-0.07939646430114078,-0.020838296949499346,0.9775414338979768,-0.014898800726295717,-0.168741,-31.829579
11.185,2.0,1.0,1.0,34.6,33.2,33.2,4.4,3.6,2.705,-0.0929011057551037,-0.0209593086718821,0.9760572371994952,-0.01543606793654373,-0.171328,-31.690492
11.185,2.0,1.0,1.0,34.6,33.2,33.2,4.4,3.6,2.7075,-0.10648928548165221,-0.021074517786685176,0.9743685405071366,-0.01598708705802998,-0.173968,-31.550743
11.185,2.0,1.0,1.0,34.6,33.2,33.2,4.4,3.6,2.71,-0.12015875745513474,-0.021183543346732423,0.9724709035365641,-0.016552155181209435,-0.176664,-31.410321
11.185,2.0,1.0,1.0,34.6,33.2,33.2,4.4,3.6,2.7125,-0.1339071323102385,-0.021285987341700185,0.9703598383817907,-0.017131574084214042,-0.179417,-31.269213
11.185,2.0,1.0,1.0,34.6,33.2,33.2,4.4,3.6,2.715,-0.1477318723486431,-0.02138143399846552,0.9680308118172946,-0.01772565027046502,-0.182229,-31.127404
11.185,2.0,1.0,1.0,34.6,33.2,33.2,4.4,3.6,2.7175,-0.16163028646454672,-0.021469449048972775,0.9654792478022887,-0.018334695012358078,-0.185101,-30.984881
11.185,2.0,1.0,1.0,34.6,33.2,33.2,4.4,3.6,2.72,-0.17559952499313086,-0.021549578963211986,0.9627005301946399,-0.018959024402343434,-0.188034,-30.841629
11.185,2.0,1.0,1.0,34.6,33.2,33.2,4.4,3.6,2.7225,-0.18963657448644577,-0.021621350144626367,0.9596900056817812,-0.019598959412888844,-0.191031,-30.697633
11.185,2.0,1.0,1.0,34.6,33.2,33.2,4.4,3.6,2.725,-0.20373825242152016,-0.021684268084950522,0.9564429869358196,-0.02025482596699264,-0.194093,-30.552877
11.185,2.0,1.0,1.0,34.6,33.2,33.2,4.4,3.6,2.7275,-0.21790120184589432,-0.021737816475126997,0.9529547559997679,-0.020926955021114114,-0.197222,-30.407343
11.185,2.0,1.0,1.0,34.6,33.2,33.2,4.4,3.6,2.73,-0.23212188596609837,-0.02178145626854403,0.9492205679115759,-0.021615682662601294,-0.20042,-30.261015
11.185,2.0,1.0,1.0,34.6,33.2,33.2,4.4,3.6,2.7325,-0.2463965826849211,-0.021814624692384686,0.9452356545722365,-0.02232135022393252,-0.203689,-30.113873
11.185,2.0,1.0,1.0,34.6,33.2,33.2,4.4,3.6,2.735,-0.2607213790935516,-0.021836734202361287,0.9409952288638606,-0.023044304416343288,-0.207031,-29.965899
11.185,2.0,1.0,1.0,34.6,33.2,33.2,4.4,3.6,2.7375,-0.2750921659249899,-0.021847171375525325,0.9364944890230757,-0.02378489748568594,-0.210449,-29.817073
11.185,2.0,1.0,1.0,34.6,33.2,33.2,4.4,3.6,2.74,-0.2895046319752292,-0.0218452957351849,0.9317286232745623,-0.024543487393671643,-0.213945,-29.667372
11.185,2.0,1.0,1.0,34.6,33.2,33.2,4.4,3.6,2.7425,-0.3039542584988594,-0.02183043850121358,0.9266928147288247,-0.02532043802796896,-0.21752,-29.516776
11.185,2.0,1.0,1.0,34.6,33.2,33.2,4.4,3.6,2.745,-0.3184363135858075,-0.021801901258188146,0.9213822465475966,-0.026116119444984567,-0.221178,-29.365261
11.185,2.0,1.0,1.0,34.6,33.2,33.2,4.4,3.6,2.7475,-0.33294584652579395,-0.021758954532835256,0.9157921073793802,-0.026930908149532848,-0.224922,-29.212801
11.185,2.0,1.0,1.0,34.6,33.2,33.2,4.4,3.6,2.75,-0.347477682166955,-0.0217008362711795,0.909917597066663,-0.0277651874160094,-0.228753,-29.059372
11.185,2.0,1.0,1.0,34.6,33.2,33.2,4.4,3.6,2.7525,-0.36202641527476426,-0.021626750204554165,0.9037539326253131,-0.028619347656124075,-0.232676,-28.904946
11.185,2.0,1.0,1.0,34.6,33.2,33.2,4.4,3.6,2.755,-0.37658640489684114,-0.021535864092237872,0.8972963544954413,-0.029493786838721423,-0.236693,-28.749494
11.185,2.0,1.0,1.0,34.6,33.2,33.2,4.4,3.6,2.7575,-0.39115176873863605,-0.02142730782689508,0.8905401330617138,-0.030388910967725384,-0.240807,-28.592986
11.185,2.0,1.0,1.0,34.6,33.2,33.2,4.4,3.6,2.76,-0.4057163775539885,-0.02130017138719453,0.8834805754396763,-0.031305134624783855,-0.245022,-28.435391
11.185,2.0,1.0,1.0,34.6,33.2,33.2,4.4,3.6,2.7625,-0.42027384955346475,-0.021153502619933113,0.8761130325230793,-0.03224288158376865,-0.249341,-28.276674
11.185,2.0,1.0,1.0,34.6,33.2,33.2,4.4,3.6,2.765,-0.43481754483182145,-0.02098630483166092,0.868432906285465,-0.0332025855049005,-0.253769,-28.1168
11.185,2.0,1.0,1.0,34.6,33.2,33.2,4.4,3.6,2.7675,-0.4493405598141743,-0.020797534167150338,0.8604356573274802,-0.03418469071691812,-0.258309,-27.955733
11.185,2.0,1.0,1.0,34.6,33.2,33.2,4.4,3.6,2.77,-0.4638357217181711,-0.020586096749025846,0.8521168126593419,-0.03518965309640185,-0.262966,-27.793431
11.185,2.0,1.0,1.0,34.6,33.2,33.2,4.4,3.6,2.7725,-0.4782955830267004,-0.020350845549421435,0.8434719737057748,-0.0362179410540811,-0.267744,-27.629853
11.185,2.0,1.0,1.0,34.6,33.2,33.2,4.4,3.6,2.775,-0.49271241596247844,-0.02009057696058682,0.834496824518457,-0.03727003663871094,-0.272648,-27.464956
11.185,2.0,1.0,1.0,34.6,33.2,33.2,4.4,3.6,2.7775,-0.5070782069518327,-0.019804027026855436,0.8251871401785952,-0.038346436769887596,-0.277684,-27.29869
11.185,2.0,1.0,1.0,34.6,33.2,33.2,4.4,3.6,2.78,-0.5213846510603539,-0.019489867295218864,0.8155387953696658,-0.039447654611977384,-0.282857,-27.131008
11.185,2.0,1.0,1.0,34.6,33.2,33.2,4.4,3.6,2.7825,-0.5356231463776339,-0.019146700235828148,0.8055477730977244,-0.04057422110215184,-0.288173,-26.961857
11.185,2.0,1.0,1.0,34.6,33.2,33.2,4.4,3.6,2.785,-0.5497847883216349,-0.0187730541769321,0.7952101735338195,-0.041726686646346475,-0.293638,-26.791179
11.185,2.0,1.0,1.0,34.6,33.2,33.2,4.4,3.6,2.7875,-0.5638603638257379,-0.018367377690932045,0.7845222229501898,-0.042905622997762294,-0.299259,-26.618917
11.185,2.0,1.0,1.0,34.6,33.2,33.2,4.4,3.6,2.79,-0.5778403453623119,-0.017928033359199645,0.7734802827189305,-0.044111625333301124,-0.305043,-26.445006
11.185,2.0,1.0,1.0,34.6,33.2,33.2,4.4,3.6,2.7925,-0.5917148847462035,-0.017453290832880063,0.7620808583388066,-0.04534531454402523,-0.310999,-26.269381
11.185,2.0,1.0,1.0,34.6,33.2,33.2,4.4,3.6,2.795,-0.6054738066491205,-0.016941319094837554,0.7503206084528449,-0.04660733975632935,-0.317134,-26.091969
11.185,2.0,1.0,1.0,34.6,33.2,33.2,4.4,3.6,2.7975,-0.6191066017412846,-0.016390177813917498,0.7381963538164679,-0.04789838110093912,-0.323459,-25.912696
11.185,2.0,1.0,1.0,34.6,33.2,33.2,4.4,3.6,2.8,-0.6326024193598723,-0.015797807666452397,0.7257050861730201,-0.04921915274706502,-0.329982,-25.73148
11.185,2.0,1.0,1.0,34.6,33.2,33.2,4.4,3.6,2.8025,-0.6459500595838068,-0.015162019481026537,0.7128439769910386,-0.05057040621891341,-0.336714,-25.548236
11.185,2.0,1.0,1.0,34.6,33.2,33.2,4.4,3.6,2.805,-0.6591379645711289,-0.014480482040448318,0.6996103860154244,-0.051952934011201934,-0.343668,-25.362874
11.185,2.0,1.0,1.0,34.6,33.2,33.2,4.4,3.6,2.8075,-0.6721542089878658,-0.013750708349067612,0.686001869582977,-0.05336757351916413,-0.350855,-25.175295
11.185,2.0,1.0,1.0,34.6,33.2,33.2,4.4,3.6,2.81,-0.6849864893253269,-0.01297004014331914,0.6720161886518767,-0.05481521129656507,-0.358289,-24.985396
11.185,2.0,1.0,1.0,34.6,33.2,33.2,4.4,3.6,2.8125,-0.697622111864863,-0.0121356303878126,0.657651316494902,-0.056296787652198,-0.365986,-24.793067
11.185,2.0,1.0,1.0,34.6,33.2,33.2,4.4,3.6,2.815,-0.7100479790048791,-0.0112444234573834,0.6429054460076686,-0.05781330159085857,-0.37396,-24.598189
11.185,2.0,1.0,1.0,34.6,33.2,33.2,4.4,3.6,2.8175,-0.7222505736124001,-0.010293132656016018,0.6277769965867379,-0.059365816098403495,-0.382231,-24.400636
11.185,2.0,1.0,1.0,34.6,33.2,33.2,4.4,3.6,2.82,-0.7342159409995129,-0.009278214664903708,0.6122646205384699,-0.06095546376159718,-0.390818,-24.200274
11.185,2.0,1.0,1.0,34.6,33.2,33.2,4.4,3.6,2.8225,-0.7459296680516511,-0.008195840442244348,0.5963672089889089,-0.06258345270121685,-0.399742,-23.996959
11.185,2.0,1.0,1.0,34.6,33.2,33.2,4.4,3.6,2.825,-0.7573768589472922,-0.007041862014377289,0.5800838972789569,-0.06425107278023649,-0.409028,-23.790536
