1,w,sub_t,h,l1,l2,l3,g1,g2,Freq,S11_re,S21_re,S11_img,S21_img,S11_dB,S21_dB
11.185,2.0,1.0,1.0,33.6,33.7,33.7,2.4,4.4,2.5,0.835542071850183,-0.00723703807302309,0.536723221023162,0.00495861010978247,-0.06034,-41.137206
11.185,2.0,1.0,1.0,33.6,33.7,33.7,2.4,4.4,2.5025,0.8317178352152164,-0.007377726908498546,0.5425084605781739,0.0049683563289365275,-0.060923,-41.017389
11.185,2.0,1.0,1.0,33.6,33.7,33.7,2.4,4.4,2.505,0.8278351489073142,-0.007520807423296618,0.5482921643615359,0.004977084698542416,-0.061516,-40.897283
11.185,2.0,1.0,1.0,33.6,33.7,33.7,2.4,4.4,2.5075,0.823893404178527,-0.007666323427596376,0.5540740122346023,0.004984756146781959,-0.062119,-40.776882
11.185,2.0,1.0,1.0,33.6,33.7,33.7,2.4,4.4,2.51,0.8198919828772684,-0.007814319675625328,0.5598536741036674,0.004991330219134347,-0.062733,-40.656179
11.185,2.0,1.0,1.0,33.6,33.7,33.7,2.4,4.4,2.5125,0.8158302573124848,-0.007964841887560505,0.565630809596653,0.004996765024994647,-0.063358,-40.535165
11.185,2.0,1.0,1.0,33.6,33.7,33.7,2.4,4.4,2.515,0.8117075901169682,-0.008117936771910292,0.5714050677291519,0.005001017182026689,-0.063994,-40.413832
11.185,2.0,1.0,1.0,33.6,33.7,33.7,2.4,4.4,2.5175,0.8075233341098894,-0.008273652048382159,0.5771760865594175,0.005004041758143073,-0.064641,-40.292174
11.185,2.0,1.0,1.0,33.6,33.7,33.7,2.4,4.4,2.52,0.8032768321586178,-0.008432036471243007,0.5829434928319469,0.00500579221100078,-0.065299,-40.170182
11.185,2.0,1.0,1.0,33.6,33.7,33.7,2.4,4.4,2.5225,0.7989674170399341,-0.008593139853176354,0.5887069016092171,0.005006220324894071,-0.065969,-40.047849
11.185,2.0,1.0,1.0,33.6,33.7,33.7,2.4,4.4,2.525,0.7945944113007092,-0.008757013089641509,0.5944659158911877,0.005005276144920674,-0.066652,-39.925165
11.185,2.0,1.0,1.0,33.6,33.7,33.7,2.4,4.4,2.5275,0.7901571271181606,-0.008923708183738652,0.6002201262221142,0.005002907908290493,-0.067347,-39.802124
11.185,2.0,1.0,1.0,33.6,33.7,33.7,2.4,4.4,2.53,0.7856548661597894,-0.009093278271583342,0.6059691102842246,0.004999061972639091,-0.068054,-39.678717
11.185,2.0,1.0,1.0,33.6,33.7,33.7,2.4,4.4,2.5325,0.781086919443126,-0.009265777648192568,0.6117124324777963,0.0049936827412006175,-0.068774,-39.554935
11.185,2.0,1.0,1.0,33.6,33.7,33.7,2.4,4.4,2.535,0.7764525671953875,-0.009441261793884884,0.6174496434871362,0.004986712584687584,-0.069508,-39.430771
11.185,2.0,1.0,1.0,33.6,33.7,33.7,2.4,4.4,2.5375,0.7717510787132117,-0.00961978740119451,0.6231802798319571,0.004978091759715814,-0.070255,-39.306216
11.185,2.0,1.0,1.0,33.6,33.7,33.7,2.4,4.4,2.54,0.7669817122225897,-0.009801412402299692,0.6289038634036377,0.004967758323604813,-0.071016,-39.181261
11.185,2.0,1.0,1.0,33.6,33.7,33.7,2.4,4.4,2.5425,0.7621437147391672,-0.009986195996963819,0.6346199009857949,0.00495564804537405,-0.071791,-39.055898
11.185,2.0,1.0,1.0,33.6,33.7,33.7,2.4,4.4,2.545,0.7572363219290744,-0.010174198680986079,0.6403278837586274,0.004941694312745608,-0.07258,-38.930118
11.185,2.0,1.0,1.0,33.6,33.7,33.7,2.4,4.4,2.5475,0.752258757970476,-0.010365482275157562,0.6460272867864074,0.0049258280349538585,-0.073385,-38.803911
11.185,2.0,1.0,1.0,33.6,33.7,33.7,2.4,4.4,2.55,0.7472102354160168,-0.01056010995471704,0.6517175684875364,0.004907977541150557,-0.074204,-38.67727
11.185,2.0,1.0,1.0,33.6,33.7,33.7,2.4,4.4,2.5525,0.7420899550563924,-0.010758146279297873,0.6573981700864956,0.004888068474183046,-0.07504,-38.550184
11.185,2.0,1.0,1.0,33.6,33.7,33.7,2.4,4.4,2.555,0.7368971057852508,-0.010959657223357086,0.6630685150470469,0.004866023679509546,-0.075891,-38.422645
11.185,2.0,1.0,1.0,33.6,33.7,33.7,2.4,4.4,2.5575,0.7316308644656623,-0.011164710207073944,0.6687280084859832,0.0048417630890032785,-0.076759,-38.294642
11.185,2.0,1.0,1.0,33.6,33.7,33.7,2.4,4.4,2.56,0.7262903957984223,-0.011373374127703438,0.6743760365666996,0.004815203599381545,-0.077644,-38.166168
11.185,2.0,1.0,1.0,33.6,33.7,33.7,2.4,4.4,2.5625,0.7208748521924497,-0.011585719391367516,0.680011965871846,0.004786258944982078,-0.078545,-38.037211
11.185,2.0,1.0,1.0,33.6,33.7,33.7,2.4,4.4,2.565,0.7153833736375689,-0.01180181794526364,0.6856351427542747,0.00475483956459183,-0.079465,-37.907762
11.185,2.0,1.0,1.0,33.6,33.7,33.7,2.4,4.4,2.5675,0.709815087579997,-0.012021743310266664,0.6912448926654601,0.0047208524620167905,-0.080402,-37.777811
11.185,2.0,1.0,1.0,33.6,33.7,33.7,2.4,4.4,2.57,0.7041691088008525,-0.012245570613896759,0.6968405194605571,0.004684201060062605,-0.081359,-37.647349
11.185,2.0,1.0,1.0,33.6,33.7,33.7,2.4,4.4,2.5725,0.698444539298045,-0.012473376623621971,0.7024213046791999,0.004644785047576792,-0.082334,-37.516364
11.185,2.0,1.0,1.0,33.6,33.7,33.7,2.4,4.4,2.575,0.6926404681719223,-0.012705239780459131,0.7079865068011277,0.004602500219182018,-0.083329,-37.384847
11.185,2.0,1.0,1.0,33.6,33.7,33.7,2.4,4.4,2.5775,0.686755971515076,-0.012941240232832092,0.7135353604756745,0.004557238307308253,-0.084344,-37.252786
11.185,2.0,1.0,1.0,33.6,33.7,33.7,2.4,4.4,2.58,0.6807901123067345,-0.013181459870640986,0.7190670757241114,0.0045088868061073095,-0.085379,-37.120171
11.185,2.0,1.0,1.0,33.6,33.7,33.7,2.4,4.4,2.5825,0.6747419403121954,-0.013425982359490038,0.7245808371138139,0.004457328786808647,-0.086436,-36.986991
11.185,2.0,1.0,1.0,33.6,33.7,33.7,2.4,4.4,2.585,0.668610491987792,-0.01367489317501445,0.730075802903141,0.0044024427040477675,-0.087515,-36.853235
11.185,2.0,1.0,1.0,33.6,33.7,33.7,2.4,4.4,2.5875,0.6623947903919015,-0.013928279637240632,0.7355511041559067,0.004344102192670017,-0.088616,-36.718892
11.185,2.0,1.0,1.0,33.6,33.7,33.7,2.4,4.4,2.59,0.6560938451025602,-0.01418623094490458,0.7410058438242365,0.004282175854481671,-0.089739,-36.58395
11.185,2.0,1.0,1.0,33.6,33.7,33.7,2.4,4.4,2.5925,0.6497066521422628,-0.014448838209645749,0.7464390957985826,0.004216527034387294,-0.090887,-36.448397
11.185,2.0,1.0,1.0,33.6,33.7,33.7,2.4,4.4,2.595,0.6432321939105838,-0.01471619448998284,0.7518499039235732,0.00414701358531674,-0.092058,-36.312222
11.185,2.0,1.0,1.0,33.6,33.7,33.7,2.4,4.4,2.5975,0.6366694391252845,-0.014988394824968495,0.7572372809783756,0.0040734876213078235,-0.093254,-36.175412
11.185,2.0,1.0,1.0,33.6,33.7,33.7,2.4,4.4,2.6,0.6300173427726098,-0.015265536267406687,0.7626002076201127,0.0039957952580700175,-0.094476,-36.037955
11.185,2.0,1.0,1.0,33.6,33.7,33.7,2.4,4.4,2.6025,0.6232748460675546,-0.01554771791650458,0.7679376312888717,0.003913776340311085,-0.095725,-35.899838
11.185,2.0,1.0,1.0,33.6,33.7,33.7,2.4,4.4,2.605,0.6164408764248843,-0.015835040949816394,0.773248465072745,0.003827264155062283,-0.097,-35.761049
11.185,2.0,1.0,1.0,33.6,33.7,33.7,2.4,4.4,2.6075,0.6095143474417887,-0.01612760865431996,0.7785315865312658,0.0037360851301877222,-0.098303,-35.621574
11.185,2.0,1.0,1.0,33.6,33.7,33.7,2.4,4.4,2.61,0.602494158893076,-0.016425526456450696,0.7837858364755362,0.003640058517210114,-0.099635,-35.4814
11.185,2.0,1.0,1.0,33.6,33.7,33.7,2.4,4.4,2.6125,0.5953791967398959,-0.01672890195089766,0.7890100177032632,0.003538996057527688,-0.100996,-35.340514
11.185,2.0,1.0,1.0,33.6,33.7,33.7,2.4,4.4,2.615,0.588168333153015,-0.01703784492794552,0.7942028936868195,0.003432701631034941,-0.102387,-35.198901
11.185,2.0,1.0,1.0,33.6,33.7,33.7,2.4,4.4,2.6175,0.5808604265517789,-0.017352467399123224,0.7993631872123619,0.003320970886094469,-0.10381,-35.056548
11.185,2.0,1.0,1.0,33.6,33.7,33.7,2.4,4.4,2.62,0.5734543216599282,-0.01767288362089399,0.8044895789679419,0.0032035908497345684,-0.105264,-34.91344
11.185,2.0,1.0,1.0,33.6,33.7,33.7,2.4,4.4,2.6225,0.5659488495795314,-0.01799921011609381,0.8095807060784381,0.0030803395168715825,-0.106752,-34.769562
11.185,2.0,1.0,1.0,33.6,33.7,33.7,2.4,4.4,2.625,0.558342827884398,-0.0183315656927931,0.814635160585023,0.00295098541727261,-0.108274,-34.624899
11.185,2.0,1.0,1.0,33.6,33.7,33.7,2.4,4.4,2.6275,0.5506350607343826,-0.018670071460223335,0.81965148786677,0.0028152871588859375,-0.109831,-34.479436
11.185,2.0,1.0,1.0,33.6,33.7,33.7,2.4,4.4,2.63,0.5428243390121316,-0.019014850841370654,0.8246281850018753,0.0026729929460690546,-0.111424,-34.333157
11.185,2.0,1.0,1.0,33.6,33.7,33.7,2.4,4.4,2.6325,0.5349094404838994,-0.019366029581797915,0.8295636990658342,0.0025238400711428822,-0.113055,-34.186047
11.185,2.0,1.0,1.0,33.6,33.7,33.7,2.4,4.4,2.635,0.5268891299861816,-0.019723735754208712,0.8344564253637669,0.0023675543775872627,-0.114724,-34.038087
11.185,2.0,1.0,1.0,33.6,33.7,33.7,2.4,4.4,2.6375,0.5187621596400365,-0.020088099758216165,0.8393047055939452,0.002203849693072917,-0.116433,-33.889263
11.185,2.0,1.0,1.0,33.6,33.7,33.7,2.4,4.4,2.64,0.5105272690950737,-0.02045925431472254,0.8441068259394016,0.002032427230394863,-0.118182,-33.739556
11.185,2.0,1.0,1.0,33.6,33.7,33.7,2.4,4.4,2.6425,0.5021831858052554,-0.020837334454251497,0.8488610150843307,0.0018529749542315831,-0.119974,-33.588949
11.185,2.0,1.0,1.0,33.6,33.7,33.7,2.4,4.4,2.645,0.4937286253387747,-0.021222477498506014,0.8535654421517969,0.0016651669115013946,-0.12181,-33.437424
11.185,2.0,1.0,1.0,33.6,33.7,33.7,2.4,4.4,2.6475,0.48516229172446906,-0.02161482303434645,0.8582182145590863,0.0014686625229235154,-0.123691,-33.284962
11.185,2.0,1.0,1.0,33.6,33.7,33.7,2.4,4.4,2.65,0.47648287783734283,-0.02201451287929846,0.8628173757867997,0.001263105833211629,-0.125618,-33.131545
11.185,2.0,1.0,1.0,33.6,33.7,33.7,2.4,4.4,2.6525,0.46768906582604464,-0.022421691037602665,0.8673609030575617,0.0010481247171361028,-0.127593,-32.977153
11.185,2.0,1.0,1.0,33.6,33.7,33.7,2.4,4.4,2.655,0.45877952758524776,-0.022836503645714882,0.8718467049199836,0.0008233300384789762,-0.129618,-32.821766
11.185,2.0,1.0,1.0,33.6,33.7,33.7,2.4,4.4,2.6575,0.4497529252761803,-0.0232590989060451,0.8762726187332401,0.0005883147586812094,-0.131694,-32.665365
11.185,2.0,1.0,1.0,33.6,33.7,33.7,2.4,4.4,2.66,0.4406079118987379,-0.023689627007593618,0.88063640804733,0.000342652991731128,-0.133824,-32.507927
11.185,2.0,1.0,1.0,33.6,33.7,33.7,2.4,4.4,2.6625,0.4313431319189004,-0.024128240031995898,0.8849357598737927,8.589900157874549e-05,-0.136008,-32.349432
11.185,2.0,1.0,1.0,33.6,33.7,33.7,2.4,4.4,2.665,0.4219572219554172,-0.024575091843326517,0.8891682818413079,-0.00018241386193462906,-0.13825,-32.189858
11.185,2.0,1.0,1.0,33.6,33.7,33.7,2.4,4.4,2.6675,0.4124488115300667,-0.02503033795982819,0.8933314992302444,-0.00046277429295725963,-0.14055,-32.029181
11.185,2.0,1.0,1.0,33.6,33.7,33.7,2.4,4.4,2.67,0.40281652388609906,-0.025494135405533056,0.8974228518798403,-0.0007556942299895665,-0.142912,-31.86738
11.185,2.0,1.0,1.0,33.6,33.7,33.7,2.4,4.4,2.6725,0.39305897687982855,-0.025966642539514754,0.9014396909612683,-0.0010617101317765298,-0.145336,-31.70443
11.185,2.0,1.0,1.0,33.6,33.7,33.7,2.4,4.4,2.675,0.3831747839507625,-0.02644801886025881,0.9053792756093725,-0.0013813843341871227,-0.147826,-31.540306
11.185,2.0,1.0,1.0,33.6,33.7,33.7,2.4,4.4,2.6775,0.37316255517605396,-0.0269384247823551,0.909238769405383,-0.0017153064939851705,-0.150384,-31.374983
11.185,2.0,1.0,1.0,33.6,33.7,33.7,2.4,4.4,2.68,0.3630208984155447,-0.027438021382401936,0.9130152367023522,-0.0020640951258834514,-0.153013,-31.208436
11.185,2.0,1.0,1.0,33.6,33.7,33.7,2.4,4.4,2.6825,0.35274842055420064,-0.02794697011065472,0.9167056387844833,-0.0024283992398053894,-0.155714,-31.040638
11.185,2.0,1.0,1.0,33.6,33.7,33.7,2.4,4.4,2.685,0.342343728849279,-0.02846543246455714,0.9203068298508721,-0.0028089000858613545,-0.158491,-30.87156
11.185,2.0,1.0,1.0,33.6,33.7,33.7,2.4,4.4,2.6875,0.33180543239021,-0.0289935696198459,0.92381555281349,-0.00320631301518128,-0.161347,-30.701176
11.185,2.0,1.0,1.0,33.6,33.7,33.7,2.4,4.4,2.69,0.32113214367988485,-0.02953154201441848,0.9272284348984651,-0.0036213894654421757,-0.164285,-30.529456
11.185,2.0,1.0,1.0,33.6,33.7,33.7,2.4,4.4,2.6925,0.3103224803467454,-0.03007950887959236,0.9305419830388997,-0.004054919080691349,-0.167308,-30.35637
11.185,2.0,1.0,1.0,33.6,33.7,33.7,2.4,4.4,2.695,0.2993750669980028,-0.030637627712746897,0.9337525790465406,-0.004507731975899378,-0.17042,-30.181887
11.185,2.0,1.0,1.0,33.6,33.7,33.7,2.4,4.4,2.6975,0.2882885372251484,-0.031206053684628112,0.9368564745486385,-0.004980701157593592,-0.173623,-30.005975
11.185,2.0,1.0,1.0,33.6,33.7,33.7,2.4,4.4,2.7,0.2770615357740495,-0.03178493897378681,0.9398497856752233,-0.005474745112924179,-0.176923,-29.828601
11.185,2.0,1.0,1.0,33.6,33.7,33.7,2.4,4.4,2.7025,0.26569272089301527,-0.03237443201971419,0.9427284874808634,-0.005990830580618446,-0.180321,-29.649732
11.185,2.0,1.0,1.0,33.6,33.7,33.7,2.4,4.4,2.705,0.25418076687353947,-0.03297467668520695,0.945488408083635,-0.0065299755184850625,-0.183824,-29.469331
11.185,2.0,1.0,1.0,33.6,33.7,33.7,2.4,4.4,2.7075,0.24252436679985037,-0.03358581131733191,0.9481252225026124,-0.007093252283462226,-0.187435,-29.287364
11.185,2.0,1.0,1.0,33.6,33.7,33.7,2.4,4.4,2.71,0.23072223552502077,-0.034207967695039934,0.9506344461736161,-0.007681791041659984,-0.191159,-29.103792
11.185,2.0,1.0,1.0,33.6,33.7,33.7,2.4,4.4,2.7125,0.2187731128931703,-0.034841269849983605,0.9530114281212163,-0.008296783427457809,-0.195001,-28.918577
11.185,2.0,1.0,1.0,33.6,33.7,33.7,2.4,4.4,2.715,0.20667576722934755,-0.035485832745393464,0.955251343763088,-0.008939486472482624,-0.198966,-28.731679
11.185,2.0,1.0,1.0,33.6,33.7,33.7,2.4,4.4,2.7175,0.19442899912091935,-0.03614176079593687,0.9573491873207188,-0.00961122682724112,-0.203059,-28.543057
11.185,2.0,1.0,1.0,33.6,33.7,33.7,2.4,4.4,2.72,0.1820316455169096,-0.03680914620928382,0.9592997638081686,-0.010313405300322338,-0.207287,-28.352667
11.185,2.0,1.0,1.0,33.6,33.7,33.7,2.4,4.4,2.7225,0.16948258417455656,-0.03748806712760038,0.9610976805680227,-0.011047501742450986,-0.211655,-28.160465
11.185,2.0,1.0,1.0,33.6,33.7,33.7,2.4,4.4,2.725,0.15678073848571336,-0.03817858554432708,0.9627373383208923,-0.011815080305271753,-0.216171,-27.966406
11.185,2.0,1.0,1.0,33.6,33.7,33.7,2.4,4.4,2.7275,0.14392508271934795,-0.03888074496833695,0.9642129216917201,-0.012617795107621132,-0.22084,-27.770441
11.185,2.0,1.0,1.0,33.6,33.7,33.7,2.4,4.4,2.73,0.13091464772068367,-0.039594567803825274,0.9655183891727298,-0.013457396345203446,-0.225671,-27.572521
11.185,2.0,1.0,1.0,33.6,33.7,33.7,2.4,4.4,2.7325,0.1177485271122491,-0.04032005241000279,0.9666474624791097,-0.01433573688308451,-0.230671,-27.372595
11.185,2.0,1.0,1.0,33.6,33.7,33.7,2.4,4.4,2.735,0.10442588404762213,-0.041057169799748966,0.967593615249353,-0.015254779374264579,-0.235848,-27.17061
11.185,2.0,1.0,1.0,33.6,33.7,33.7,2.4,4.4,2.7375,0.09094595857484085,-0.04180585993073837,0.9683500610375934,-0.016216603951841612,-0.241213,-26.96651
11.185,2.0,1.0,1.0,33.6,33.7,33.7,2.4,4.4,2.74,0.07730807567362127,-0.04256602753605711,0.9689097405402296,-0.01722341654696015,-0.246773,-26.760238
11.185,2.0,1.0,1.0,33.6,33.7,33.7,2.4,4.4,2.7425,0.06351165403865189,-0.04333753743384657,0.9692653079935162,-0.018277557889904508,-0.25254,-26.551734
11.185,2.0,1.0,1.0,33.6,33.7,33.7,2.4,4.4,2.745,0.049556215690657136,-0.04412020924687613,0.9694091166726693,-0.019381513257383968,-0.258524,-26.340937
11.185,2.0,1.0,1.0,33.6,33.7,33.7,2.4,4.4,2.7475,0.03544139650767244,-0.04491381145297225,0.9693332034162251,-0.020537923035321048,-0.264736,-26.127781
11.185,2.0,1.0,1.0,33.6,33.7,33.7,2.4,4.4,2.75,0.0211669577814247,-0.0457180546756865,0.969029272091896,-0.0217495941733442,-0.27119,-25.9122
11.185,2.0,1.0,1.0,33.6,33.7,33.7,2.4,4.4,2.7525,0.006732798918063129,-0.04653258411120263,0.9684886759119852,-0.023019512614751568,-0.277899,-25.694123
11.185,2.0,1.0,1.0,33.6,33.7,33.7,2.4,4.4,2.755,-0.00786102858091283,-0.04735697097194953,0.9677023984972957,-0.024350856794012457,-0.284877,-25.473478
11.185,2.0,1.0,1.0,33.6,33.7,33.7,2.4,4.4,2.7575,-0.02261430570247243,-0.04819070280932514,0.966661033578625,-0.02574701230295808,-0.29214,-25.250189
11.185,2.0,1.0,1.0,33.6,33.7,33.7,2.4,4.4,2.76,-0.03752662889316627,-0.04903317255689942,0.9653547632140386,-0.02721158783671972,-0.299703,-25.024177
11.185,2.0,1.0,1.0,33.6,33.7,33.7,2.4,4.4,2.7625,-0.05259739121417247,-0.0498836661109291,0.9637733343882723,-0.028748432541264066,-0.307586,-24.795358
11.185,2.0,1.0,1.0,33.6,33.7,33.7,2.4,4.4,2.765,-0.06782576144657784,-0.05074134823634363,0.961906033847764,-0.03036165489604973,-0.315808,-24.563647
11.185,2.0,1.0,1.0,33.6,33.7,33.7,2.4,4.4,2.7675,-0.08321066087786873,-0.05160524655280819,0.9597416610108666,-0.03205564327792142,-0.324389,-24.328953
11.185,2.0,1.0,1.0,33.6,33.7,33.7,2.4,4.4,2.77,-0.09875073745926553,-0.05247423331612963,0.9572684987778415,-0.03383508836582625,-0.333352,-24.091182
11.185,2.0,1.0,1.0,33.6,33.7,33.7,2.4,4.4,2.7725,-0.11444433697503856,-0.05334700466407452,0.9544742820492361,-0.035705007560225266,-0.342723,-23.850237
11.185,2.0,1.0,1.0,33.6,33.7,33.7,2.4,4.4,2.775,-0.13028947080806452,-0.054222056941323586,0.9513461637443981,-0.03767077160605595,-0.352527,-23.606013
11.185,2.0,1.0,1.0,33.6,33.7,33.7,2.4,4.4,2.7775,-0.14628377981892518,-0.05509765965425325,0.9478706780942674,-0.03973813362356703,-0.362793,-23.358404
11.185,2.0,1.0,1.0,33.6,33.7,33.7,2.4,4.4,2.78,-0.16242449377699208,-0.05597182453064934,0.9440337009645966,-0.04191326076697285,-0.373554,-23.107296
11.185,2.0,1.0,1.0,33.6,33.7,33.7,2.4,4.4,2.7825,-0.17870838568875141,-0.05684227007008961,0.9398204069478107,-0.044202768746160255,-0.384844,-22.852572
11.185,2.0,1.0,1.0,33.6,33.7,33.7,2.4,4.4,2.785,-0.19513172025855846,-0.05770638086489369,0.9352152229444525,-0.046613759460950296,-0.396701,-22.594108
11.185,2.0,1.0,1.0,33.6,33.7,33.7,2.4,4.4,2.7875,-0.21169019558639568,-0.0585611608459747,0.9302017779396748,-0.0491538620096134,-0.409166,-22.331775
11.185,2.0,1.0,1.0,33.6,33.7,33.7,2.4,4.4,2.79,-0.22837887705241128,-0.05940317945874216,0.924762848667752,-0.051831277342113805,-0.422284,-22.065436
11.185,2.0,1.0,1.0,33.6,33.7,33.7,2.4,4.4,2.7925,-0.24519212215378502,-0.06022850959665424,0.918880300850179,-0.054654826831888804,-0.436105,-21.794949
11.185,2.0,1.0,1.0,33.6,33.7,33.7,2.4,4.4,2.795,-0.26212349484031433,-0.06103265590841758,0.9125350256931242,-0.05763400503522138,-0.450685,-21.520165
11.185,2.0,1.0,1.0,33.6,33.7,33.7,2.4,4.4,2.7975,-0.2791656676335725,-0.06181047184227885,0.9057068713416307,-0.06077903689066749,-0.466084,-21.240926
11.185,2.0,1.0,1.0,33.6,33.7,33.7,2.4,4.4,2.8,-0.296310309502433,-0.06255606348905138,0.8983745690158963,-0.0641009395775937,-0.482368,-20.95707
11.185,2.0,1.0,1.0,33.6,33.7,33.7,2.4,4.4,2.8025,-0.3135479570945232,-0.06326267792445943,0.8905156536061786,-0.06761158919571786,-0.499613,-20.668422
11.185,2.0,1.0,1.0,33.6,33.7,33.7,2.4,4.4,2.805,-0.33086786647662075,-0.06392257331901219,0.8821063785866367,-0.07132379233738097,-0.517899,-20.374801
11.185,2.0,1.0,1.0,33.6,33.7,33.7,2.4,4.4,2.8075,-0.34825784200226734,-0.06452686756553169,0.873121625237403,-0.07525136248847772,-0.537321,-20.076018
11.185,2.0,1.0,1.0,33.6,33.7,33.7,2.4,4.4,2.81,-0.36570403828418613,-0.06506536155340209,0.8635348063554948,-0.07940920099547594,-0.557978,-19.771873
11.185,2.0,1.0,1.0,33.6,33.7,33.7,2.4,4.4,2.8125,-0.383190730481456,-0.0655263324741576,0.853317764912144,-0.0838133820516769,-0.579987,-19.462156
11.185,2.0,1.0,1.0,33.6,33.7,33.7,2.4,4.4,2.815,-0.4007000471921879,-0.06589629165114426,0.8424406685080251,-0.08848124075466589,-0.603476,-19.146648
11.185,2.0,1.0,1.0,33.6,33.7,33.7,2.4,4.4,2.8175,-0.41821165914277003,-0.06615970031874634,0.8308719010313323,-0.09343146272657757,-0.628588,-18.825118
11.185,2.0,1.0,1.0,33.6,33.7,33.7,2.4,4.4,2.82,-0.43570241555187333,-0.06629863550218443,0.8185779536941081,-0.09868417301246649,-0.655488,-18.497326
11.185,2.0,1.0,1.0,33.6,33.7,33.7,2.4,4.4,2.8225,-0.4531459184846915,-0.06629239663171457,0.8055233186873768,-0.10426102090278609,-0.684358,-18.16302
11.185,2.0,1.0,1.0,33.6,33.7,33.7,2.4,4.4,2.825,-0.4705120236611647,-0.06611704172733121,0.7916703901604857,-0.11018525585989827,-0.715409,-17.821936
11.185,2.0,1.0,1.0,33.6,33.7,33.7,2.4,4.4,2.8275,-0.48776625400195245,-0.06574483987406032,0.7769793792363786,-0.11648178772549286,-0.748876,-17.473802
