1,w,sub_t,h,l1,l2,l3,g1,g2,Freq,S11_re,S21_re,S11_img,S21_img,S11_dB,S21_dB
11.185,2.0,1.0,1.0,34.6,34.3,34.3,3.8,1.9,2.5,0.682769587045216,-0.0145823174703015,0.719269848831894,0.00649310966824034,-0.072153,-35.93793
11.185,2.0,1.0,1.0,34.6,34.3,34.3,3.8,1.9,2.5025,0.676794165572696,-0.014849864206732349,0.7247644527755455,0.006456351856971319,-0.07299,-35.813624
11.185,2.0,1.0,1.0,34.6,34.3,34.3,3.8,1.9,2.505,0.6707410142274367,-0.015122135387086743,0.7302376480193793,0.006416501366924484,-0.073844,-35.688768
11.185,2.0,1.0,1.0,34.6,34.3,34.3,3.8,1.9,2.5075,0.6646093731280305,-0.015399227423312156,0.7356886120532085,0.006373443349785357,-0.074715,-35.56335
11.185,2.0,1.0,1.0,34.6,34.3,34.3,3.8,1.9,2.51,0.6583984745951229,-0.01568123917700521,0.7411164992520152,0.006327058513173603,-0.075604,-35.437358
11.185,2.0,1.0,1.0,34.6,34.3,34.3,3.8,1.9,2.5125,0.6521075431871698,-0.01596827203682137,0.7465204401952902,0.006277222922860596,-0.076511,-35.310781
11.185,2.0,1.0,1.0,34.6,34.3,34.3,3.8,1.9,2.515,0.6457357957431761,-0.016260429998954072,0.7518995409649574,0.006223807794649019,-0.077436,-35.183605
11.185,2.0,1.0,1.0,34.6,34.3,34.3,3.8,1.9,2.5175,0.6392824414327792,-0.016557819750832977,0.7572528824210576,0.006166679275277221,-0.078381,-35.055819
11.185,2.0,1.0,1.0,34.6,34.3,34.3,3.8,1.9,2.52,0.6327466818140103,-0.01686055075819991,0.7625795194543643,0.006105698211665384,-0.079346,-34.927411
11.185,2.0,1.0,1.0,34.6,34.3,34.3,3.8,1.9,2.5225,0.6261277108991283,-0.01716873535572938,0.7678784802150129,0.006040719907770645,-0.08033,-34.798365
11.185,2.0,1.0,1.0,34.6,34.3,34.3,3.8,1.9,2.525,0.6194247152288848,-0.017482488841369166,0.7731487653162228,0.005971593868264145,-0.081336,-34.668671
11.185,2.0,1.0,1.0,34.6,34.3,34.3,3.8,1.9,2.5275,0.6126368739556178,-0.017801929574589658,0.7783893470121068,0.0058981635281857405,-0.082363,-34.538313
11.185,2.0,1.0,1.0,34.6,34.3,34.3,3.8,1.9,2.53,0.6057633589355862,-0.0181271790787358,0.783599168348514,0.005820265967667609,-0.083412,-34.407278
11.185,2.0,1.0,1.0,34.6,34.3,34.3,3.8,1.9,2.5325,0.5988033348309542,-0.01845836214769208,0.7887771422857955,0.0057377316107503915,-0.084484,-34.275551
11.185,2.0,1.0,1.0,34.6,34.3,34.3,3.8,1.9,2.535,0.5917559592218571,-0.018795606957079308,0.7939221507923169,0.00565038390724018,-0.085579,-34.143118
11.185,2.0,1.0,1.0,34.6,34.3,34.3,3.8,1.9,2.5375,0.5846203827289956,-0.019139045180214913,0.7990330439074522,0.005558038996474156,-0.086699,-34.009964
11.185,2.0,1.0,1.0,34.6,34.3,34.3,3.8,1.9,2.54,0.5773957491472073,-0.01948881210908275,0.8041086387727385,0.005460505351773838,-0.087843,-33.876073
11.185,2.0,1.0,1.0,34.6,34.3,34.3,3.8,1.9,2.5425,0.5700811955904881,-0.01984504678057084,0.8091477186297727,0.00535758340426942,-0.089013,-33.741429
11.185,2.0,1.0,1.0,34.6,34.3,34.3,3.8,1.9,2.545,0.5626758526489386,-0.02020789210825043,0.8141490317833388,0.005249065144673302,-0.090209,-33.606016
11.185,2.0,1.0,1.0,34.6,34.3,34.3,3.8,1.9,2.5475,0.5551788445581436,-0.020577495019984078,0.8191112905281484,0.005134733701467426,-0.091433,-33.469817
11.185,2.0,1.0,1.0,34.6,34.3,34.3,3.8,1.9,2.55,0.5475892893814652,-0.020954006601668962,0.8240331700374877,0.005014362893843185,-0.092685,-33.332816
11.185,2.0,1.0,1.0,34.6,34.3,34.3,3.8,1.9,2.5525,0.5399062992058048,-0.021337582247433345,0.8289133072119088,0.004887716757598185,-0.093965,-33.194993
11.185,2.0,1.0,1.0,34.6,34.3,34.3,3.8,1.9,2.555,0.5321289803513344,-0.021728381816627104,0.833750299486001,0.004754549042042855,-0.095276,-33.056332
11.185,2.0,1.0,1.0,34.6,34.3,34.3,3.8,1.9,2.5575,0.5242564335957561,-0.022126569797960873,0.8385427035911236,0.00461460267580877,-0.096617,-32.916814
11.185,2.0,1.0,1.0,34.6,34.3,34.3,3.8,1.9,2.56,0.5162877544136522,-0.022532315481168925,0.8432890342718079,0.004467609199270798,-0.097991,-32.776419
11.185,2.0,1.0,1.0,34.6,34.3,34.3,3.8,1.9,2.5625,0.508222033231492,-0.0229457931365895,0.847987762953381,0.0043132881610997,-0.099397,-32.635128
11.185,2.0,1.0,1.0,34.6,34.3,34.3,3.8,1.9,2.565,0.5000583556988726,-0.023367182203077173,0.8526373163581656,0.004151346476246419,-0.100838,-32.49292
11.185,2.0,1.0,1.0,34.6,34.3,34.3,3.8,1.9,2.5675,0.4917958029766124,-0.023796667484680074,0.8572360750673856,0.003981477742423946,-0.102313,-32.349774
11.185,2.0,1.0,1.0,34.6,34.3,34.3,3.8,1.9,2.57,0.48343345204228416,-0.02423443935653756,0.8617823720256909,0.0038033615118919003,-0.103826,-32.205669
11.185,2.0,1.0,1.0,34.6,34.3,34.3,3.8,1.9,2.5725,0.47497037601382724,-0.024680693980472755,0.8662744909849501,0.003616662515063968,-0.105376,-32.060582
11.185,2.0,1.0,1.0,34.6,34.3,34.3,3.8,1.9,2.575,0.4664056444918749,-0.025135633530776455,0.8707106648836691,0.0034210298321434096,-0.106965,-31.914491
11.185,2.0,1.0,1.0,34.6,34.3,34.3,3.8,1.9,2.5775,0.45773832392144814,-0.025599466430697965,0.8750890741580869,0.0032160960086443685,-0.108594,-31.767371
11.185,2.0,1.0,1.0,34.6,34.3,34.3,3.8,1.9,2.58,0.44896747797369607,-0.02607240760017887,0.8794078449806407,0.0030014761102739877,-0.110266,-31.619199
11.185,2.0,1.0,1.0,34.6,34.3,34.3,3.8,1.9,2.5825,0.44009216794835804,-0.026554678715383945,0.8836650474211171,0.0027767667122263274,-0.111981,-31.469949
11.185,2.0,1.0,1.0,34.6,34.3,34.3,3.8,1.9,2.585,0.43111145319766664,-0.02704650848060043,0.8878586935253668,0.0025415448174712315,-0.113741,-31.319595
11.185,2.0,1.0,1.0,34.6,34.3,34.3,3.8,1.9,2.5875,0.42202439157241023,-0.02754813291309176,0.8919867353059883,0.0022953666981024873,-0.115548,-31.16811
11.185,2.0,1.0,1.0,34.6,34.3,34.3,3.8,1.9,2.59,0.41283003989092354,-0.028059795641502527,0.8960470626388372,0.00203776665323437,-0.117403,-31.015465
11.185,2.0,1.0,1.0,34.6,34.3,34.3,3.8,1.9,2.5925,0.4035274544317675,-0.028581748218421524,0.9000375010586672,0.0017682556762982607,-0.119309,-30.861633
11.185,2.0,1.0,1.0,34.6,34.3,34.3,3.8,1.9,2.595,0.3941156914509442,-0.029114250447708184,0.903955809446485,0.001486320023882145,-0.121268,-30.706584
11.185,2.0,1.0,1.0,34.6,34.3,34.3,3.8,1.9,2.5975,0.3845938077244744,-0.02965757072718921,0.9077996776005287,0.0011914196774662723,-0.123281,-30.550285
11.185,2.0,1.0,1.0,34.6,34.3,34.3,3.8,1.9,2.6,0.3749608611172507,-0.030211986407314637,0.9115667236819138,0.0008829866885323257,-0.12535,-30.392706
11.185,2.0,1.0,1.0,34.6,34.3,34.3,3.8,1.9,2.6025,0.36521591117914215,-0.03077778416634345,0.9152544915250735,0.0005604233965431332,-0.127479,-30.233813
11.185,2.0,1.0,1.0,34.6,34.3,34.3,3.8,1.9,2.605,0.35535801976935366,-0.031355260402591206,0.9188604478021065,0.00022310050819762908,-0.129669,-30.073572
11.185,2.0,1.0,1.0,34.6,34.3,34.3,3.8,1.9,2.6075,0.3453862517101719,-0.03194472164422346,0.9223819790289657,-0.0001296449748544162,-0.131924,-29.911946
11.185,2.0,1.0,1.0,34.6,34.3,34.3,3.8,1.9,2.61,0.33529967547131345,-0.03254648497700246,0.925816388400133,-0.0004985119940207995,-0.134245,-29.748899
11.185,2.0,1.0,1.0,34.6,34.3,34.3,3.8,1.9,2.6125,0.3250973638862143,-0.033160878490306016,0.9291608924369427,-0.0008842378532117793,-0.136636,-29.584393
11.185,2.0,1.0,1.0,34.6,34.3,34.3,3.8,1.9,2.615,0.3147783949017409,-0.03378824174160506,0.9324126174331112,-0.0012876008371532953,-0.139099,-29.418386
11.185,2.0,1.0,1.0,34.6,34.3,34.3,3.8,1.9,2.6175,0.30434185236304084,-0.03442892623943133,0.93556859567911,-0.0017094230479287418,-0.141639,-29.250837
11.185,2.0,1.0,1.0,34.6,34.3,34.3,3.8,1.9,2.62,0.2937868268354066,-0.03508329594465549,0.9386257614449961,-0.002150573481282198,-0.144258,-29.081704
11.185,2.0,1.0,1.0,34.6,34.3,34.3,3.8,1.9,2.6225,0.28311241646536583,-0.03575172778964026,0.94158094669888,-0.0026119713666615425,-0.14696,-28.91094
11.185,2.0,1.0,1.0,34.6,34.3,34.3,3.8,1.9,2.625,0.272317727883542,-0.0364346122145029,0.944430876535587,-0.00309458979773774,-0.149749,-28.738499
11.185,2.0,1.0,1.0,34.6,34.3,34.3,3.8,1.9,2.6275,0.26140187715222085,-0.0371323537193195,0.9471721642869917,-0.0035994596832569898,-0.15263,-28.564332
11.185,2.0,1.0,1.0,34.6,34.3,34.3,3.8,1.9,2.63,0.2503639907611152,-0.03784537143059538,0.9498013062820913,-0.004127674051607525,-0.155606,-28.388388
11.185,2.0,1.0,1.0,34.6,34.3,34.3,3.8,1.9,2.6325,0.23920320667541894,-0.03857409967970389,0.9523146762209621,-0.004680392746482076,-0.158683,-28.210612
11.185,2.0,1.0,1.0,34.6,34.3,34.3,3.8,1.9,2.635,0.2279186754410287,-0.03931898859022819,0.9547085191222772,-0.005258847555553652,-0.161865,-28.030951
11.185,2.0,1.0,1.0,34.6,34.3,34.3,3.8,1.9,2.6375,0.21650956135275948,-0.040080504670190926,0.9569789447990241,-0.005864347819239297,-0.165158,-27.849344
11.185,2.0,1.0,1.0,34.6,34.3,34.3,3.8,1.9,2.64,0.20497504369249103,-0.040859131404002394,0.9591219208112477,-0.006498286572501831,-0.168567,-27.665733
11.185,2.0,1.0,1.0,34.6,34.3,34.3,3.8,1.9,2.6425,0.19331431804565702,-0.04165536983752372,0.9611332648380451,-0.007162147279334176,-0.172099,-27.480052
11.185,2.0,1.0,1.0,34.6,34.3,34.3,3.8,1.9,2.645,0.18152659770615573,-0.04246973914790431,0.9630086364034599,-0.007857511227224815,-0.175761,-27.292236
11.185,2.0,1.0,1.0,34.6,34.3,34.3,3.8,1.9,2.6475,0.16961111518190009,-0.043302777187707246,0.9647435278822635,-0.008586065657657873,-0.179559,-27.102214
11.185,2.0,1.0,1.0,34.6,34.3,34.3,3.8,1.9,2.65,0.15756712381578053,-0.04415504099022152,0.9663332547016233,-0.009349612718741674,-0.183502,-26.909913
11.185,2.0,1.0,1.0,34.6,34.3,34.3,3.8,1.9,2.6525,0.14539389954003612,-0.04502710721964433,0.9677729446432058,-0.010150079337582597,-0.187597,-26.715257
11.185,2.0,1.0,1.0,34.6,34.3,34.3,3.8,1.9,2.655,0.13309074278580893,-0.045919572545890845,0.9690575261370719,-0.01098952812328979,-0.191854,-26.518165
11.185,2.0,1.0,1.0,34.6,34.3,34.3,3.8,1.9,2.6575,0.12065698057451311,-0.046833053918959276,0.9701817154234426,-0.011870169426778182,-0.196281,-26.318553
11.185,2.0,1.0,1.0,34.6,34.3,34.3,3.8,1.9,2.66,0.10809196882341963,-0.04776818871186524,0.9711400024408304,-0.012794374701193349,-0.200891,-26.116331
11.185,2.0,1.0,1.0,34.6,34.3,34.3,3.8,1.9,2.6625,0.09539509490508681,-0.04872563469388464,0.9719266352785771,-0.013764691327204074,-0.205693,-25.911406
11.185,2.0,1.0,1.0,34.6,34.3,34.3,3.8,1.9,2.665,0.08256578050907322,-0.04970606978690504,0.9725356030081723,-0.014783859091089386,-0.2107,-25.703679
11.185,2.0,1.0,1.0,34.6,34.3,34.3,3.8,1.9,2.6675,0.06960348486531306,-0.050710191546663445,0.9729606166801678,-0.015854828531043343,-0.215926,-25.493046
11.185,2.0,1.0,1.0,34.6,34.3,34.3,3.8,1.9,2.67,0.05650770840196642,-0.051738716297065515,0.9731950882414119,-0.016980781399133924,-0.221384,-25.279399
11.185,2.0,1.0,1.0,34.6,34.3,34.3,3.8,1.9,2.6725,0.0432779969272297,-0.0527923778289809,0.9732321070898757,-0.01816515352367533,-0.227092,-25.062621
11.185,2.0,1.0,1.0,34.6,34.3,34.3,3.8,1.9,2.675,0.029913946445256266,-0.05387192555411425,0.9730644139405423,-0.019411660400391377,-0.233066,-24.84259
11.185,2.0,1.0,1.0,34.6,34.3,34.3,3.8,1.9,2.6775,0.016415208741970052,-0.054978121978749656,0.9726843716245025,-0.020724325891821452,-0.239325,-24.619177
11.185,2.0,1.0,1.0,34.6,34.3,34.3,3.8,1.9,2.68,0.0027814979084721525,-0.056111739330075114,0.9720839323831444,-0.022107514474343743,-0.245889,-24.392245
11.185,2.0,1.0,1.0,34.6,34.3,34.3,3.8,1.9,2.6825,-0.010987401990381,-0.05727355512779242,0.9712546011484466,-0.02356596754264027,-0.252782,-24.16165
11.185,2.0,1.0,1.0,34.6,34.3,34.3,3.8,1.9,2.685,-0.024891627844871405,-0.05846434644372826,0.9701873942168061,-0.025104844364426265,-0.26003,-23.927238
11.185,2.0,1.0,1.0,34.6,34.3,34.3,3.8,1.9,2.6875,-0.0389312267069253,-0.0596848825295146,0.968872792625214,-0.0267297683762279,-0.267658,-23.688845
11.185,2.0,1.0,1.0,34.6,34.3,34.3,3.8,1.9,2.69,-0.05310614287570673,-0.060935915413670445,0.9673006894217726,-0.02844687962684591,-0.275699,-23.4463
11.185,2.0,1.0,1.0,34.6,34.3,34.3,3.8,1.9,2.6925,-0.06741620236477636,-0.06221816797018192,0.9654603298842546,-0.030262894312413698,-0.284187,-23.199417
11.185,2.0,1.0,1.0,34.6,34.3,34.3,3.8,1.9,2.695,-0.08186109412763161,-0.06353231883515802,0.9633402435760198,-0.03218517250985906,-0.293158,-22.948001
11.185,2.0,1.0,1.0,34.6,34.3,34.3,3.8,1.9,2.6975,-0.0964403472593893,-0.0648789833889182,0.9609281669332991,-0.034221795409250653,-0.302656,-22.691843
11.185,2.0,1.0,1.0,34.6,34.3,34.3,3.8,1.9,2.7,-0.11115330318924649,-0.06625868981809857,0.9582109548451196,-0.03638165357601493,-0.312728,-22.43072
11.185,2.0,1.0,1.0,34.6,34.3,34.3,3.8,1.9,2.7025,-0.1259990816190705,-0.06767184901327264,0.9551744794098326,-0.03867454804873356,-0.323425,-22.164394
11.185,2.0,1.0,1.0,34.6,34.3,34.3,3.8,1.9,2.705,-0.14097653863040066,-0.0691187167252076,0.9518035137212635,-0.041111306405836934,-0.334808,-21.892611
11.185,2.0,1.0,1.0,34.6,34.3,34.3,3.8,1.9,2.7075,-0.1560842149531454,-0.0705993459748032,0.9480815981425733,-0.043703916325355203,-0.346943,-21.615098
11.185,2.0,1.0,1.0,34.6,34.3,34.3,3.8,1.9,2.71,-0.17132027183419987,-0.0721135271581798,0.9439908860547734,-0.04646567962798845,-0.359906,-21.331564
11.185,2.0,1.0,1.0,34.6,34.3,34.3,3.8,1.9,2.7125,-0.18668241122303347,-0.07366071256939148,0.9395119655052501,-0.049411390349012374,-0.373783,-21.041695
11.185,2.0,1.0,1.0,34.6,34.3,34.3,3.8,1.9,2.715,-0.20216777605012654,-0.07523992112529508,0.9346236525139217,-0.05255754104447165,-0.38867,-20.745156
11.185,2.0,1.0,1.0,34.6,34.3,34.3,3.8,1.9,2.7175,-0.2177728251403839,-0.07684961784795244,0.9293027510034473,-0.05592256231853196,-0.40468,-20.441585
11.185,2.0,1.0,1.0,34.6,34.3,34.3,3.8,1.9,2.72,-0.2334931756786885,-0.0784875610415655,0.9235237733880991,-0.05952710147859326,-0.421939,-20.130594
11.185,2.0,1.0,1.0,34.6,34.3,34.3,3.8,1.9,2.7225,-0.24932340399432149,-0.08015060795992132,0.9172586147679672,-0.06339434729750111,-0.440596,-19.811763
11.185,2.0,1.0,1.0,34.6,34.3,34.3,3.8,1.9,2.725,-0.26525679257127366,-0.08183446691399518,0.910476172422459,-0.06755040909610911,-0.460819,-19.48464
11.185,2.0,1.0,1.0,34.6,34.3,34.3,3.8,1.9,2.7275,-0.2812850073700843,-0.08353337996683621,0.9031419008841889,-0.07202475974876134,-0.482806,-19.148739
11.185,2.0,1.0,1.0,34.6,34.3,34.3,3.8,1.9,2.73,-0.2973976844147652,-0.08523971525783955,0.8952172913337809,-0.0768507537256375,-0.506786,-18.803533
11.185,2.0,1.0,1.0,34.6,34.3,34.3,3.8,1.9,2.7325,-0.313581897673499,-0.08694344111180166,0.8866592624700235,-0.08206623283577638,-0.53303,-18.448454
11.185,2.0,1.0,1.0,34.6,34.3,34.3,3.8,1.9,2.735,-0.3298214708732968,-0.0886314447544257,0.8774194485503193,-0.08771423374957876,-0.561855,-18.082886
11.185,2.0,1.0,1.0,34.6,34.3,34.3,3.8,1.9,2.7375,-0.34609608310519324,-0.09028664575053177,0.867443369291567,-0.0938438123301421,-0.593638,-17.706167
11.185,2.0,1.0,1.0,34.6,34.3,34.3,3.8,1.9,2.74,-0.36238010060194475,-0.09188683691899151,0.8566694663696253,-0.10051099969002114,-0.628825,-17.317579
11.185,2.0,1.0,1.0,34.6,34.3,34.3,3.8,1.9,2.7425,-0.3786410431081193,-0.09340316167833602,0.8450279934152928,-0.10777990265501525,-0.667956,-16.91635
11.185,2.0,1.0,1.0,34.6,34.3,34.3,3.8,1.9,2.745,-0.3948375603380487,-0.09479810408704548,0.8324397525211948,-0.11572395511733029,-0.711677,-16.501649
11.185,2.0,1.0,1.0,34.6,34.3,34.3,3.8,1.9,2.7475,-0.41091674876384837,-0.09602282292942779,0.8188146835259478,-0.12442731342617841,-0.760776,-16.072584
11.185,2.0,1.0,1.0,34.6,34.3,34.3,3.8,1.9,2.75,-0.426810576916014,-0.0970135996334613,0.80405033816943,-0.133986363073153,-0.816214,-15.628207
11.185,2.0,1.0,1.0,34.6,34.3,34.3,3.8,1.9,2.7525,-0.44243110279868086,-0.09768708594727216,0.7880303188795724,-0.14451125625765357,-0.879177,-15.167513
11.185,2.0,1.0,1.0,34.6,34.3,34.3,3.8,1.9,2.755,-0.4576640531850209,-0.09793392451243406,0.7706228471617073,-0.15612731483573752,-0.951136,-14.689455
11.185,2.0,1.0,1.0,34.6,34.3,34.3,3.8,1.9,2.7575,-0.4723601848668698,-0.09761016729605661,0.7516797757987442,-0.1689759843281051,-1.03393,-14.192959
11.185,2.0,1.0,1.0,34.6,34.3,34.3,3.8,1.9,2.76,-0.48632365936050037,-0.09652573043718359,0.7310366166227933,-0.18321476807551057,-1.129877,-13.676959
11.185,2.0,1.0,1.0,34.6,34.3,34.3,3.8,1.9,2.7625,-0.4992964442989423,-0.0944289088170595,0.7085145945272863,-0.1990151337469728,-1.241925,-13.140448
11.185,2.0,1.0,1.0,34.6,34.3,34.3,3.8,1.9,2.765,-0.510937548093999,-0.09098577106873207,0.683926476209624,-0.21655665058244775,-1.373841,-12.582561
11.185,2.0,1.0,1.0,34.6,34.3,34.3,3.8,1.9,2.7675,-0.5207958164278447,-0.08575318271062427,0.6570891398829295,-0.2360144055718984,-1.530481,-12.002708
11.185,2.0,1.0,1.0,34.6,34.3,34.3,3.8,1.9,2.77,-0.5282753526753711,-0.07814454367960769,0.6278478055747377,-0.2575348072286793,-1.718122,-11.40077
11.185,2.0,1.0,1.0,34.6,34.3,34.3,3.8,1.9,2.7725,-0.5325939939120505,-0.06738869825792658,0.5961198302324686,-0.28119192532755555,-1.944888,-10.777411
11.185,2.0,1.0,1.0,34.6,34.3,34.3,3.8,1.9,2.775,-0.5327389535930352,-0.05248614641153319,0.5619701330192304,-0.306912394248999,-2.22123,-10.134521
11.185,2.0,1.0,1.0,34.6,34.3,34.3,3.8,1.9,2.7775,-0.527432088876837,-0.032174995951074495,0.5257350349207907,-0.33435225009711494,-2.560343,-9.475883
11.185,2.0,1.0,1.0,34.6,34.3,34.3,3.8,1.9,2.78,-0.515133964378115,-0.004935709295592756,0.48821360498389405,-0.36270684013944365,-2.978147,-8.808081
11.185,2.0,1.0,1.0,34.6,34.3,34.3,3.8,1.9,2.7825,-0.49414478999874356,0.030907614450292047,0.4509368889232671,-0.39044371006271217,-3.491845,-8.141702
11.185,2.0,1.0,1.0,34.6,34.3,34.3,3.8,1.9,2.785,-0.4628990215128618,0.07689336319941682,0.41648675587697986,-0.41498690765518437,-4.114631,-7.492709
11.185,2.0,1.0,1.0,34.6,34.3,34.3,3.8,1.9,2.7875,-0.42057253744692524,0.1338182591872687,0.3887389805377252,-0.43247771383501765,-4.841271,-6.883642
11.185,2.0,1.0,1.0,34.6,34.3,34.3,3.8,1.9,2.79,-0.3680480554530858,0.20077863302192037,0.37274028320357894,-0.4379003696231806,-5.616243,-6.343833
11.185,2.0,1.0,1.0,34.6,34.3,34.3,3.8,1.9,2.7925,-0.3089923528930392,0.2741035221659972,0.37379732434487,-0.4259911629189678,-6.285614,-5.907413
11.185,2.0,1.0,1.0,34.6,34.3,34.3,3.8,1.9,2.795,-0.2502935922109811,0.3469272039417821,0.39556716396426433,-0.39313722999390044,-6.593175,-5.60801
11.185,2.0,1.0,1.0,34.6,34.3,34.3,3.8,1.9,2.7975,-0.20087626817460177,0.4103749194404907,0.43779060185348406,-0.3396241874732423,-6.344898,-5.470608
11.185,2.0,1.0,1.0,34.6,34.3,34.3,3.8,1.9,2.8,-0.16878339864321906,0.4564654780081482,0.49529006228317196,-0.2706210298616705,-5.625664,-5.503728
11.185,2.0,1.0,1.0,34.6,34.3,34.3,3.8,1.9,2.8025,-0.15813941496707562,0.4811231608578186,0.5594765987537484,-0.19467172015722323,-4.710549,-5.696402
11.185,2.0,1.0,1.0,34.6,34.3,34.3,3.8,1.9,2.805,-0.1681280328311489,0.4851814361274769,0.6215610011806881,-0.1205011210133369,-3.823653,-6.021963
11.185,2.0,1.0,1.0,34.6,34.3,34.3,3.8,1.9,2.8075,-0.19439286709904766,0.47298154700731493,0.6752414654518336,-0.05434986529674319,-3.06502,-6.446147
11.185,2.0,1.0,1.0,34.6,34.3,34.3,3.8,1.9,2.81,-0.23138400152009064,0.4500381099714669,0.7175269886977271,0.0008351073054281539,-2.453585,-6.934999
11.185,2.0,1.0,1.0,34.6,34.3,34.3,3.8,1.9,2.8125,-0.274124178145508,0.421286804987214,0.748067902855611,0.0447289487668721,-1.973975,-7.459761
11.185,2.0,1.0,1.0,34.6,34.3,34.3,3.8,1.9,2.815,-0.31894161990121545,0.3903604504748921,0.7680197638033588,0.07849746418007414,-1.601588,-7.998526
11.185,2.0,1.0,1.0,34.6,34.3,34.3,3.8,1.9,2.8175,-0.36347543663490467,0.35958702770890255,0.779114443145579,0.10387419934121403,-1.31277,-8.535846
11.185,2.0,1.0,1.0,34.6,34.3,34.3,3.8,1.9,2.82,-0.4063803887057855,0.33028500993581755,0.7831116132477074,0.12261656281008462,-1.087923,-9.061477
11.185,2.0,1.0,1.0,34.6,34.3,34.3,3.8,1.9,2.8225,-0.44699552213674576,0.30309348153830173,0.7815519705214822,0.13626186954686778,-0.911781,-9.569013
11.185,2.0,1.0,1.0,34.6,34.3,34.3,3.8,1.9,2.825,-0.4850795935114386,0.27823525217374684,0.7756870598477738,0.14605860273961757,-0.772784,-10.054718
11.185,2.0,1.0,1.0,34.6,34.3,34.3,3.8,1.9,2.8275,-0.5206291829037538,0.25569751076330643,0.7664925207721225,0.15298025946899937,-0.662266,-10.516644
11.185,2.0,1.0,1.0,34.6,34.3,34.3,3.8,1.9,2.83,-0.5537639583459212,0.23534564923975004,0.7547116240445991,0.15776904968420263,-0.573749,-10.954
