1,w,sub_t,h,l1,l2,l3,g1,g2,Freq,S11_re,S21_re,S11_img,S21_img,S11_dB,S21_dB
11.185,2.0,1.0,1.0,33.7,34.4,34.4,3.8,3.6,2.5,0.824614023475161,-0.00662566628826131,0.554315811223855,0.00407286288817553,-0.05571,-42.183332
11.185,2.0,1.0,1.0,33.7,34.4,34.4,3.8,3.6,2.5025,0.8207553059843372,-0.0067546364014313435,0.5599018998107446,0.004079263273954135,-0.056259,-42.057525
11.185,2.0,1.0,1.0,33.7,34.4,34.4,3.8,3.6,2.505,0.81684105046958,-0.0068859560004474515,0.5654846595428965,0.004084803490430056,-0.056819,-41.931284
11.185,2.0,1.0,1.0,33.7,34.4,34.4,3.8,3.6,2.5075,0.8128707019421297,-0.007019677822274617,0.5710637850222073,0.004089450305929238,-0.057389,-41.804595
11.185,2.0,1.0,1.0,33.7,34.4,34.4,3.8,3.6,2.51,0.808843696562657,-0.007155856218351102,0.576638961800049,0.004093169195548323,-0.05797,-41.677446
11.185,2.0,1.0,1.0,33.7,34.4,34.4,3.8,3.6,2.5125,0.8047594614873668,-0.007294547218210816,0.582209866085125,0.00409592428203655,-0.058562,-41.549825
11.185,2.0,1.0,1.0,33.7,34.4,34.4,3.8,3.6,2.515,0.8006174147108375,-0.0074358085962032685,0.5877761644412811,0.0040976782734902534,-0.059165,-41.421719
11.185,2.0,1.0,1.0,33.7,34.4,34.4,3.8,3.6,2.5175,0.7964169649054826,-0.00757969994149044,0.5933375134748463,0.004098392397658231,-0.05978,-41.293113
11.185,2.0,1.0,1.0,33.7,34.4,34.4,3.8,3.6,2.52,0.7921575112574973,-0.0077262827315124835,0.5988935595110925,0.004098026332641859,-0.060407,-41.163995
11.185,2.0,1.0,1.0,33.7,34.4,34.4,3.8,3.6,2.5225,0.7878384432991652,-0.007875620409126654,0.6044439382593362,0.004096538133757665,-0.061046,-41.034351
11.185,2.0,1.0,1.0,33.7,34.4,34.4,3.8,3.6,2.525,0.7834591407373667,-0.00802777846363805,0.6099882744662284,0.00409388415631299,-0.061698,-40.904166
11.185,2.0,1.0,1.0,33.7,34.4,34.4,3.8,3.6,2.5275,0.779018973278135,-0.008182824515955629,0.6155261815567226,0.004090018974026486,-0.062363,-40.773427
11.185,2.0,1.0,1.0,33.7,34.4,34.4,3.8,3.6,2.53,0.7745173004470925,-0.008340828408123073,0.621057261262185,0.00408489529280502,-0.063041,-40.642118
11.185,2.0,1.0,1.0,33.7,34.4,34.4,3.8,3.6,2.5325,0.769953471405584,-0.008501862297491194,0.6265811032350956,0.004078463859566456,-0.063732,-40.510224
11.185,2.0,1.0,1.0,33.7,34.4,34.4,3.8,3.6,2.535,0.7653268247623053,-0.008666000755817811,0.6320972846497533,0.00407067336577377,-0.064438,-40.37773
11.185,2.0,1.0,1.0,33.7,34.4,34.4,3.8,3.6,2.5375,0.7606366883802275,-0.008833320873600886,0.6376053697883444,0.004061470345319935,-0.065158,-40.24462
11.185,2.0,1.0,1.0,33.7,34.4,34.4,3.8,3.6,2.54,0.7558823791785771,-0.00900390236997228,0.64310490961173,0.0040507990663747415,-0.065893,-40.110879
11.185,2.0,1.0,1.0,33.7,34.4,34.4,3.8,3.6,2.5425,0.7510632029296327,-0.009177827708503858,0.6485954413142458,0.004038601416773586,-0.066643,-39.976489
11.185,2.0,1.0,1.0,33.7,34.4,34.4,3.8,3.6,2.545,0.7461784540500677,-0.00935518221930227,0.6540764878617722,0.004024816782494862,-0.067409,-39.841434
11.185,2.0,1.0,1.0,33.7,34.4,34.4,3.8,3.6,2.5475,0.7412274153865605,-0.00953605422779598,0.6595475575122771,0.004009381918735743,-0.068191,-39.705697
11.185,2.0,1.0,1.0,33.7,34.4,34.4,3.8,3.6,2.55,0.7362093579953446,-0.009720535190650291,0.665008143318019,0.003992230813055893,-0.06899,-39.569259
11.185,2.0,1.0,1.0,33.7,34.4,34.4,3.8,3.6,2.5525,0.7311235409153841,-0.009908719839274098,0.6704577226084821,0.00397329454001526,-0.069805,-39.432102
11.185,2.0,1.0,1.0,33.7,34.4,34.4,3.8,3.6,2.555,0.7259692109347857,-0.010100706331421495,0.6758957564531277,0.003952501106683628,-0.070639,-39.294209
11.185,2.0,1.0,1.0,33.7,34.4,34.4,3.8,3.6,2.5575,0.7207456023500667,-0.010296596411426452,0.6813216891029353,0.003929775288347685,-0.07149,-39.155559
11.185,2.0,1.0,1.0,33.7,34.4,34.4,3.8,3.6,2.56,0.7154519367178384,-0.010496495579650409,0.6867349474096514,0.003905038453683608,-0.072361,-39.016133
11.185,2.0,1.0,1.0,33.7,34.4,34.4,3.8,3.6,2.5625,0.7100874225984453,-0.010700513271767204,0.6921349402215992,0.0038782083786004255,-0.07325,-38.875911
11.185,2.0,1.0,1.0,33.7,34.4,34.4,3.8,3.6,2.565,0.7046512552910402,-0.010908763048559558,0.6975210577548132,0.0038491990478899765,-0.07416,-38.734873
11.185,2.0,1.0,1.0,33.7,34.4,34.4,3.8,3.6,2.5675,0.699142616559551,-0.011121362796950965,0.7028926709381705,0.0038179204437439234,-0.07509,-38.592996
11.185,2.0,1.0,1.0,33.7,34.4,34.4,3.8,3.6,2.57,0.6935606743489295,-0.011338434943056957,0.7082491307311108,0.0037842783201142895,-0.076041,-38.450259
11.185,2.0,1.0,1.0,33.7,34.4,34.4,3.8,3.6,2.5725,0.6879045824910226,-0.011560106678100554,0.7135897674124203,0.00374817396180254,-0.077014,-38.30664
11.185,2.0,1.0,1.0,33.7,34.4,34.4,3.8,3.6,2.575,0.682173480399353,-0.011786510198104184,0.7189138898384353,0.003709503927060998,-0.07801,-38.162115
11.185,2.0,1.0,1.0,33.7,34.4,34.4,3.8,3.6,2.5775,0.676366492752021,-0.012017782958345423,0.7242207846689172,0.003668159772378858,-0.079029,-38.01666
11.185,2.0,1.0,1.0,33.7,34.4,34.4,3.8,3.6,2.58,0.6704827291618788,-0.01225406794364259,0.7295097155586859,0.0036240277580020914,-0.080073,-37.870251
11.185,2.0,1.0,1.0,33.7,34.4,34.4,3.8,3.6,2.5825,0.6645212838330321,-0.012495513955626604,0.734779922312976,0.003576988532600458,-0.081141,-37.722862
11.185,2.0,1.0,1.0,33.7,34.4,34.4,3.8,3.6,2.585,0.6584812352026594,-0.012742275918248665,0.7400306200042837,0.003526916795344665,-0.082235,-37.574468
11.185,2.0,1.0,1.0,33.7,34.4,34.4,3.8,3.6,2.5875,0.6523616455670159,-0.012994515202880039,0.7452609980483259,0.0034736809334901596,-0.083356,-37.425041
11.185,2.0,1.0,1.0,33.7,34.4,34.4,3.8,3.6,2.59,0.6461615606904139,-0.013252399974473974,0.7504702192364932,0.0034171426333796263,-0.084504,-37.274553
11.185,2.0,1.0,1.0,33.7,34.4,34.4,3.8,3.6,2.5925,0.6398800093958238,-0.013516105560385572,0.7556574187219894,0.003357156462571524,-0.085681,-37.122977
11.185,2.0,1.0,1.0,33.7,34.4,34.4,3.8,3.6,2.595,0.6335160031356446,-0.013785814843581736,0.7608217029565734,0.003293569420574853,-0.086888,-36.970281
11.185,2.0,1.0,1.0,33.7,34.4,34.4,3.8,3.6,2.5975,0.6270685355410104,-0.0140617186821255,0.7659621485745836,0.003226220455417173,-0.088125,-36.816436
11.185,2.0,1.0,1.0,33.7,34.4,34.4,3.8,3.6,2.6,0.6205365819478824,-0.014344016356981652,0.7710778012205856,0.003154939942991838,-0.089394,-36.661409
11.185,2.0,1.0,1.0,33.7,34.4,34.4,3.8,3.6,2.6025,0.6139190988979842,-0.014632916050373285,0.7761676743166706,0.003079549125816512,-0.090696,-36.505168
11.185,2.0,1.0,1.0,33.7,34.4,34.4,3.8,3.6,2.605,0.6072150236124364,-0.014928635357116785,0.7812307477650591,0.002999859507484622,-0.092033,-36.34768
11.185,2.0,1.0,1.0,33.7,34.4,34.4,3.8,3.6,2.6075,0.6004232734357635,-0.01523140183158155,0.7862659665812407,0.002915672198700573,-0.093405,-36.188908
11.185,2.0,1.0,1.0,33.7,34.4,34.4,3.8,3.6,2.61,0.5935427452476917,-0.015541453573159484,0.7912722394524105,0.002826777210351467,-0.094814,-36.028817
11.185,2.0,1.0,1.0,33.7,34.4,34.4,3.8,3.6,2.6125,0.5865723148399014,-0.01585903985339538,0.7962484372154743,0.002732952688577686,-0.096262,-35.867368
11.185,2.0,1.0,1.0,33.7,34.4,34.4,3.8,3.6,2.615,0.5795108362546146,-0.016184421788218068,0.8011933912482823,0.0026339640862544245,-0.09775,-35.704524
11.185,2.0,1.0,1.0,33.7,34.4,34.4,3.8,3.6,2.6175,0.5723571410815895,-0.01651787305903511,0.80610589176712,0.002529563264678041,-0.099279,-35.540242
11.185,2.0,1.0,1.0,33.7,34.4,34.4,3.8,3.6,2.62,0.5651100377097311,-0.016859680686803963,0.8109846860227539,0.0024194875185561725,-0.100852,-35.374482
11.185,2.0,1.0,1.0,33.7,34.4,34.4,3.8,3.6,2.6225,0.557768310529135,-0.01721014586358635,0.8158284763865125,0.002303458516616283,-0.10247,-35.207198
11.185,2.0,1.0,1.0,33.7,34.4,34.4,3.8,3.6,2.625,0.550330719078984,-0.0175695848465185,0.820635918316948,0.00218118114926486,-0.104135,-35.038347
11.185,2.0,1.0,1.0,33.7,34.4,34.4,3.8,3.6,2.6275,0.5427959971361879,-0.017938329919610665,0.8254056181966041,0.0020523422737292437,-0.105849,-34.86788
11.185,2.0,1.0,1.0,33.7,34.4,34.4,3.8,3.6,2.63,0.5351628517391703,-0.01831673042931053,0.8301361310272357,0.0019166093459853646,-0.107615,-34.695749
11.185,2.0,1.0,1.0,33.7,34.4,34.4,3.8,3.6,2.6325,0.527429962140594,-0.018705153900349877,0.8348259579704788,0.0017736289274928481,-0.109434,-34.521902
11.185,2.0,1.0,1.0,33.7,34.4,34.4,3.8,3.6,2.635,0.5195959786821734,-0.019103987239035315,0.8394735437194936,0.0016230250533052638,-0.111309,-34.346286
11.185,2.0,1.0,1.0,33.7,34.4,34.4,3.8,3.6,2.6375,0.5116595215839961,-0.019513638031858262,0.8440772736853556,0.0014643974464694884,-0.113243,-34.168845
11.185,2.0,1.0,1.0,33.7,34.4,34.4,3.8,3.6,2.64,0.5036191796399475,-0.01993453594808801,0.8486354709800653,0.0012973195617444276,-0.115238,-33.989523
11.185,2.0,1.0,1.0,33.7,34.4,34.4,3.8,3.6,2.6425,0.4954735088099728,-0.020367134255886342,0.8531463931757979,0.0011213364395202346,-0.117297,-33.808257
11.185,2.0,1.0,1.0,33.7,34.4,34.4,3.8,3.6,2.645,0.48722103069887385,-0.02081191146245192,0.8576082288174807,0.000935962348362206,-0.119424,-33.624986
11.185,2.0,1.0,1.0,33.7,34.4,34.4,3.8,3.6,2.6475,0.4788602309102572,-0.02126937308977852,0.8620190936629186,0.0007406781917895946,-0.121622,-33.439643
11.185,2.0,1.0,1.0,33.7,34.4,34.4,3.8,3.6,2.65,0.4703895572629832,-0.021740053598801205,0.8663770266213399,0.0005349286516716763,-0.123894,-33.252159
11.185,2.0,1.0,1.0,33.7,34.4,34.4,3.8,3.6,2.6525,0.46180741785614304,-0.022224518476028382,0.8706799853574111,0.00031811903691181086,-0.126244,-33.062463
11.185,2.0,1.0,1.0,33.7,34.4,34.4,3.8,3.6,2.655,0.45311217896699807,-0.02272336649822066,0.8749258415234252,8.961180181549542e-05,-0.128676,-32.870479
11.185,2.0,1.0,1.0,33.7,34.4,34.4,3.8,3.6,2.6575,0.44430216276468215,-0.023237232192300415,0.8791123755772432,-0.00015127730639538956,-0.131195,-32.676128
11.185,2.0,1.0,1.0,33.7,34.4,34.4,3.8,3.6,2.66,0.435375644820534,-0.023766788509475088,0.8832372711377758,-0.0004052835171676562,-0.133805,-32.479327
11.185,2.0,1.0,1.0,33.7,34.4,34.4,3.8,3.6,2.6625,0.42633085139388127,-0.024312749734540885,0.887298108822956,-0.0006731977761604507,-0.136512,-32.27999
11.185,2.0,1.0,1.0,33.7,34.4,34.4,3.8,3.6,2.665,0.4171659564697315,-0.024875874653536304,0.8912923595073344,-0.0009558720152938217,-0.13932,-32.078025
11.185,2.0,1.0,1.0,33.7,34.4,34.4,3.8,3.6,2.6675,0.4078790785223125,-0.025456970005328133,0.8952173769272307,-0.0012542250227930173,-0.142236,-31.873337
11.185,2.0,1.0,1.0,33.7,34.4,34.4,3.8,3.6,2.67,0.39846827697553727,-0.026056894245387766,0.8990703895507085,-0.0015692489931658274,-0.145266,-31.665824
11.185,2.0,1.0,1.0,33.7,34.4,34.4,3.8,3.6,2.6725,0.38893154832835847,-0.026676561652931002,0.9028484916171521,-0.0019020168492640695,-0.148417,-31.455381
11.185,2.0,1.0,1.0,33.7,34.4,34.4,3.8,3.6,2.675,0.37926682190957545,-0.027316946815794812,0.9065486332365649,-0.0022536904429099783,-0.151696,-31.241897
11.185,2.0,1.0,1.0,33.7,34.4,34.4,3.8,3.6,2.6775,0.3694719552228971,-0.027979089530897873,0.9101676094214971,-0.0026255297574146476,-0.155111,-31.025253
11.185,2.0,1.0,1.0,33.7,34.4,34.4,3.8,3.6,2.68,0.3595447288390047,-0.028664100161882144,0.9137020479042456,-0.003018903255175542,-0.158672,-30.805326
11.185,2.0,1.0,1.0,33.7,34.4,34.4,3.8,3.6,2.6825,0.3494828407870057,-0.029373165499554724,0.9171483955679719,-0.003435299537017122,-0.162387,-30.581984
11.185,2.0,1.0,1.0,33.7,34.4,34.4,3.8,3.6,2.685,0.33928390039295714,-0.030107555174999922,0.9205029032920083,-0.0038763405077672486,-0.166267,-30.35509
11.185,2.0,1.0,1.0,33.7,34.4,34.4,3.8,3.6,2.6875,0.328945421508267,-0.0308686286796591,0.923761608977832,-0.00434379627564308,-0.170324,-30.124496
11.185,2.0,1.0,1.0,33.7,34.4,34.4,3.8,3.6,2.69,0.31846481506566754,-0.03165784305118689,0.9269203184819876,-0.0048396020524641425,-0.174569,-29.890047
11.185,2.0,1.0,1.0,33.7,34.4,34.4,3.8,3.6,2.6925,0.3078393808953678,-0.032476761288326286,0.9299745841341057,-0.005365877368882213,-0.179017,-29.65158
11.185,2.0,1.0,1.0,33.7,34.4,34.4,3.8,3.6,2.695,0.2970662987290998,-0.03332706156217173,0.932919680460463,-0.005924947975404736,-0.183682,-29.408919
11.185,2.0,1.0,1.0,33.7,34.4,34.4,3.8,3.6,2.6975,0.28614261831534293,-0.034210547294688864,0.9357505766640987,-0.006519370868102902,-0.188582,-29.16188
11.185,2.0,1.0,1.0,33.7,34.4,34.4,3.8,3.6,2.7,0.2750652485656526,-0.03512915817768566,0.9384619053286511,-0.0071519629601331835,-0.193733,-28.910265
11.185,2.0,1.0,1.0,33.7,34.4,34.4,3.8,3.6,2.7025,0.263830945650235,-0.03608498220593368,0.9410479267115343,-0.007825834019861597,-0.199157,-28.653864
11.185,2.0,1.0,1.0,33.7,34.4,34.4,3.8,3.6,2.705,0.2524362999619133,-0.03708026879572276,0.9435024878685369,-0.008544424617546757,-0.204876,-28.392454
11.185,2.0,1.0,1.0,33.7,34.4,34.4,3.8,3.6,2.7075,0.24087772187263057,-0.03811744305339691,0.94581897570126,-0.009311549970411285,-0.210914,-28.125796
11.185,2.0,1.0,1.0,33.7,34.4,34.4,3.8,3.6,2.71,0.22915142621783677,-0.03919912124524251,0.9479902628342218,-0.01013145075704606,-0.2173,-27.853634
11.185,2.0,1.0,1.0,33.7,34.4,34.4,3.8,3.6,2.7125,0.21725341546426938,-0.04032812749757811,0.9500086450015175,-0.011008852194781635,-0.224065,-27.575697
11.185,2.0,1.0,1.0,33.7,34.4,34.4,3.8,3.6,2.715,0.20517946155000588,-0.041507511719821345,0.9518657683427844,-0.011949032948517417,-0.231243,-27.291691
11.185,2.0,1.0,1.0,33.7,34.4,34.4,3.8,3.6,2.7175,0.19292508643794964,-0.04274056868780378,0.9535525446610804,-0.012957905780109892,-0.238874,-27.001304
11.185,2.0,1.0,1.0,33.7,34.4,34.4,3.8,3.6,2.72,0.1804855415036005,-0.04403085814122277,0.9550590522632701,-0.014042112271208827,-0.247002,-26.704196
11.185,2.0,1.0,1.0,33.7,34.4,34.4,3.8,3.6,2.7225,0.16785578599679882,-0.0453822256259165,0.9563744194637301,-0.015209134481892954,-0.255677,-26.400007
11.185,2.0,1.0,1.0,33.7,34.4,34.4,3.8,3.6,2.725,0.15503046499241202,-0.04679882363146264,0.9574866871548434,-0.01646742707167407,-0.264957,-26.088344
11.185,2.0,1.0,1.0,33.7,34.4,34.4,3.8,3.6,2.7275,0.14200388750084617,-0.0482851323129029,0.9583826459942876,-0.017826574246212288,-0.274906,-25.768786
11.185,2.0,1.0,1.0,33.7,34.4,34.4,3.8,3.6,2.73,0.12877000578158435,-0.04984597870675432,0.9590476426791216,-0.019297476951595786,-0.285599,-25.440876
11.185,2.0,1.0,1.0,33.7,34.4,34.4,3.8,3.6,2.7325,0.11532239744264146,-0.05148655280463517,0.9594653484044089,-0.020892577082552724,-0.297122,-25.10412
11.185,2.0,1.0,1.0,33.7,34.4,34.4,3.8,3.6,2.735,0.1016542526910026,-0.05321241805818147,0.9596174808534421,-0.022626127185500902,-0.309574,-24.757983
11.185,2.0,1.0,1.0,33.7,34.4,34.4,3.8,3.6,2.7375,0.0877583702332541,-0.05502951274715676,0.9594834688247127,-0.02451451633192768,-0.323069,-24.40188
11.185,2.0,1.0,1.0,33.7,34.4,34.4,3.8,3.6,2.74,0.07362716697384185,-0.056944136987726574,0.959040045719643,-0.02657666565615221,-0.337743,-24.035179
11.185,2.0,1.0,1.0,33.7,34.4,34.4,3.8,3.6,2.7425,0.0592527090608954,-0.05896291775083831,0.9582607544017997,-0.028834510681834374,-0.353753,-23.657188
11.185,2.0,1.0,1.0,33.7,34.4,34.4,3.8,3.6,2.745,0.04462677534617587,-0.061092740744611254,0.9571153411414964,-0.031313592247179785,-0.371283,-23.267151
11.185,2.0,1.0,1.0,33.7,34.4,34.4,3.8,3.6,2.7475,0.02974096949806814,-0.06334063285240175,0.9555690101567658,-0.034043783891975925,-0.390554,-22.864242
11.185,2.0,1.0,1.0,33.7,34.4,34.4,3.8,3.6,2.75,0.0145869046569816,-0.0657135711953272,0.953581502244883,-0.037060191383365,-0.411828,-22.447556
11.185,2.0,1.0,1.0,33.7,34.4,34.4,3.8,3.6,2.7525,-0.0008435040910674185,-0.06821818356003964,0.951105950669332,-0.04040427010956595,-0.435419,-22.0161
11.185,2.0,1.0,1.0,33.7,34.4,34.4,3.8,3.6,2.755,-0.016557587086186855,-0.07086028798366512,0.9480874542506488,-0.04412521890744654,-0.461708,-21.568784
11.185,2.0,1.0,1.0,33.7,34.4,34.4,3.8,3.6,2.7575,-0.03256122923110378,-0.07364419374716591,0.9444612909210517,-0.04828172505566227,-0.491158,-21.10441
11.185,2.0,1.0,1.0,33.7,34.4,34.4,3.8,3.6,2.76,-0.048857823681000064,-0.07657164725806634,0.9401506744278477,-0.05294415501865458,-0.524338,-20.621662
11.185,2.0,1.0,1.0,33.7,34.4,34.4,3.8,3.6,2.7625,-0.06544669296712184,-0.07964024702347043,0.9350639325964943,-0.05819730880647855,-0.56195,-20.119097
11.185,2.0,1.0,1.0,33.7,34.4,34.4,3.8,3.6,2.765,-0.08232070808985856,-0.08284106065645223,0.9290909593355953,-0.06414388067990084,-0.604874,-19.595132
11.185,2.0,1.0,1.0,33.7,34.4,34.4,3.8,3.6,2.7675,-0.09946269293829367,-0.08615503555318493,0.9220987697409511,-0.0709087899080822,-0.654213,-19.048046
11.185,2.0,1.0,1.0,33.7,34.4,34.4,3.8,3.6,2.77,-0.11683997849154515,-0.08954757520181299,0.9139259815334623,-0.07864454897198772,-0.711372,-18.475975
11.185,2.0,1.0,1.0,33.7,34.4,34.4,3.8,3.6,2.7725,-0.1343961239217607,-0.0929603113033497,0.90437608689049,-0.08753779273490898,-0.778153,-17.876929
11.185,2.0,1.0,1.0,33.7,34.4,34.4,3.8,3.6,2.775,-0.15203828293863778,-0.09629857266706118,0.8932095322261405,-0.09781693521785101,-0.856892,-17.24883
11.185,2.0,1.0,1.0,33.7,34.4,34.4,3.8,3.6,2.7775,-0.16961786979850654,-0.09941224433362099,0.8801350285153536,-0.10976051292101696,-0.950639,-16.589581
11.185,2.0,1.0,1.0,33.7,34.4,34.4,3.8,3.6,2.78,-0.18690095979929044,-0.10206651866823681,0.8648014582814946,-0.12370483126501176,-1.063417,-15.897213
11.185,2.0,1.0,1.0,33.7,34.4,34.4,3.8,3.6,2.7825,-0.20352317802324096,-0.10389740550216671,0.8467938053410663,-0.1400474835777338,-1.20055,-15.170126
11.185,2.0,1.0,1.0,33.7,34.4,34.4,3.8,3.6,2.785,-0.21892188567269819,-0.10434499767016307,0.8256408286992288,-0.15923905986341005,-1.369095,-14.407524
11.185,2.0,1.0,1.0,33.7,34.4,34.4,3.8,3.6,2.7875,-0.23223737586790413,-0.10255649641561347,0.8008507423244031,-0.18174693699209302,-1.578302,-13.61014
11.185,2.0,1.0,1.0,33.7,34.4,34.4,3.8,3.6,2.79,-0.24217825463671908,-0.09725457949286084,0.7720069956948876,-0.20795947911572527,-1.839941,-12.781433
11.185,2.0,1.0,1.0,33.7,34.4,34.4,3.8,3.6,2.7925,-0.2468643021749365,-0.0865848150239643,0.7389819352877425,-0.23797386133979437,-2.167853,-11.92949
11.185,2.0,1.0,1.0,33.7,34.4,34.4,3.8,3.6,2.795,-0.24371541040439704,-0.06801061550579349,0.7023555952276254,-0.27118227643065157,-2.575101,-11.069862
11.185,2.0,1.0,1.0,33.7,34.4,34.4,3.8,3.6,2.7975,-0.22958264128539418,-0.03844970971757791,0.6641193057149447,-0.30558006626210094,-3.064818,-10.229281
11.185,2.0,1.0,1.0,33.7,34.4,34.4,3.8,3.6,2.8,-0.20151766472960292,0.004958424666275887,0.6285732317395375,-0.3368894668145513,-3.607988,-9.449311
11.185,2.0,1.0,1.0,33.7,34.4,34.4,3.8,3.6,2.8025,-0.15863389452301466,0.06301411389541309,0.6027916130413693,-0.35812066727630865,-4.105839,-8.786989
11.185,2.0,1.0,1.0,33.7,34.4,34.4,3.8,3.6,2.805,-0.10476448847983501,0.13185301215035583,0.5952679106302198,-0.3609343394452057,-4.373272,-8.307406
11.185,2.0,1.0,1.0,33.7,34.4,34.4,3.8,3.6,2.8075,-0.0496811168662808,0.20178864305120836,0.6117762177392541,-0.33973161945552127,-4.239602,-8.064963
11.185,2.0,1.0,1.0,33.7,34.4,34.4,3.8,3.6,2.81,-0.005878943984220327,0.26052804574252,0.6507542846162304,-0.29616905495346857,-3.731305,-8.080156
11.185,2.0,1.0,1.0,33.7,34.4,34.4,3.8,3.6,2.8125,0.0178760194823965,0.299529789802042,0.703216047096208,-0.239177339829276,-3.055419,-8.329076
11.185,2.0,1.0,1.0,33.7,34.4,34.4,3.8,3.6,2.815,0.02026367500323098,0.31761107028978675,0.7579894901614179,-0.17976214773336988,-2.403634,-8.755244
11.185,2.0,1.0,1.0,33.7,34.4,34.4,3.8,3.6,2.8175,0.005615380204218648,0.31912509988769716,0.8069674396112546,-0.12584968421464285,-1.862669,-9.293011
11.185,2.0,1.0,1.0,33.7,34.4,34.4,3.8,3.6,2.82,-0.020050495619002472,0.31004022814250615,0.8465613430065733,-0.08089561041728081,-1.444396,-9.885605
11.185,2.0,1.0,1.0,33.7,34.4,34.4,3.8,3.6,2.8225,-0.05163581376687098,0.2953846209066594,0.8764241632363042,-0.045170259081386596,-1.130664,-10.491854
11.185,2.0,1.0,1.0,33.7,34.4,34.4,3.8,3.6,2.825,-0.0856965182995894,0.2785411056421545,0.897741216395304,-0.017449974509001098,-0.897582,-11.085203
11.185,2.0,1.0,1.0,33.7,34.4,34.4,3.8,3.6,2.8275,-0.12020956722498032,0.26148850335499063,0.9121099867520301,0.0038819103826648075,-0.724269,-11.649991
