1,w,sub_t,h,l1,l2,l3,g1,g2,Freq,S11_re,S21_re,S11_img,S21_img,S11_dB,S21_dB
11.185,2.0,1.0,1.0,33.9,33.3,33.3,3.9,3.1,2.5,0.800680711952531,-0.00698666518527899,0.588324304227712,0.00404864259432143,-0.055882,-41.857191
11.185,2.0,1.0,1.0,33.9,33.3,33.3,3.9,3.1,2.5025,0.7964572491306314,-0.007111056137088607,0.5939324712853736,0.0040437322334108215,-0.056389,-41.744513
11.185,2.0,1.0,1.0,33.9,33.3,33.3,3.9,3.1,2.505,0.7921750181086699,-0.007237296737198389,0.599534527818296,0.004037669777918015,-0.056904,-41.631619
11.185,2.0,1.0,1.0,33.9,33.3,33.3,3.9,3.1,2.5075,0.7878334612928365,-0.007365414521234621,0.6051300912847032,0.004030418433712277,-0.057427,-41.518503
11.185,2.0,1.0,1.0,33.9,33.3,33.3,3.9,3.1,2.51,0.7834320138780447,-0.007495437454263796,0.610718768407026,0.004021940272016584,-0.057959,-41.405159
11.185,2.0,1.0,1.0,33.9,33.3,33.3,3.9,3.1,2.5125,0.7789701037965392,-0.007627393935381283,0.6163001548590429,0.00401219619127017,-0.0585,-41.291582
11.185,2.0,1.0,1.0,33.9,33.3,33.3,3.9,3.1,2.515,0.774447151668709,-0.007761312802181403,0.6218738349441292,0.0040011458775958695,-0.059049,-41.177764
11.185,2.0,1.0,1.0,33.9,33.3,33.3,3.9,3.1,2.5175,0.7698625707563003,-0.007897223335094464,0.6274393812643442,0.003988747763816003,-0.059608,-41.0637
11.185,2.0,1.0,1.0,33.9,33.3,33.3,3.9,3.1,2.52,0.7652157669181945,-0.008035155261576098,0.6329963543801228,0.003974958986958367,-0.060176,-40.949384
11.185,2.0,1.0,1.0,33.9,33.3,33.3,3.9,3.1,2.5225,0.7605061385689809,-0.00817513876013218,0.6385443024602832,0.003959735344190698,-0.060753,-40.834808
11.185,2.0,1.0,1.0,33.9,33.3,33.3,3.9,3.1,2.525,0.7557330766405072,-0.0083172044641627,0.6440827609221025,0.003943031247119561,-0.061341,-40.719967
11.185,2.0,1.0,1.0,33.9,33.3,33.3,3.9,3.1,2.5275,0.7508959645466401,-0.008461383465606266,0.6496112520611755,0.003924799674386671,-0.061938,-40.604854
11.185,2.0,1.0,1.0,33.9,33.3,33.3,3.9,3.1,2.53,0.7459941781514677,-0.008607707318365208,0.6551292846707715,0.0039049921224924345,-0.062545,-40.489463
11.185,2.0,1.0,1.0,33.9,33.3,33.3,3.9,3.1,2.5325,0.7410270857411879,-0.008756208041490925,0.6606363536503993,0.003883558554773151,-0.063163,-40.373788
11.185,2.0,1.0,1.0,33.9,33.3,33.3,3.9,3.1,2.535,0.7359940479999317,-0.00890691812210731,0.6661319396032898,0.003860447348455317,-0.063791,-40.25782
11.185,2.0,1.0,1.0,33.9,33.3,33.3,3.9,3.1,2.5375,0.7308944179898068,-0.009059870518047988,0.6716155084224789,0.0038356052397063595,-0.06443,-40.141555
11.185,2.0,1.0,1.0,33.9,33.3,33.3,3.9,3.1,2.54,0.7257275411354285,-0.009215098660182873,0.6770865108651895,0.0038089772665976175,-0.06508,-40.024985
11.185,2.0,1.0,1.0,33.9,33.3,33.3,3.9,3.1,2.5425,0.7204927552132485,-0.009372636454406552,0.6825443821151866,0.0037805067098914545,-0.065741,-39.908103
11.185,2.0,1.0,1.0,33.9,33.3,33.3,3.9,3.1,2.545,0.7151893903459849,-0.009532518283260495,0.6879885413327839,0.0037501350315597977,-0.066413,-39.790903
11.185,2.0,1.0,1.0,33.9,33.3,33.3,3.9,3.1,2.5475,0.7098167690024961,-0.009694779007157643,0.6934183911921521,0.00371780181093748,-0.067098,-39.673378
11.185,2.0,1.0,1.0,33.9,33.3,33.3,3.9,3.1,2.55,0.7043742060034253,-0.009859453965178098,0.6988333174056123,0.0036834446784083656,-0.067794,-39.55552
11.185,2.0,1.0,1.0,33.9,33.3,33.3,3.9,3.1,2.5525,0.6988610085330007,-0.010026578975399958,0.7042326882345297,0.003646999246518193,-0.068503,-39.437322
11.185,2.0,1.0,1.0,33.9,33.3,33.3,3.9,3.1,2.555,0.6932764761573563,-0.010196190334729575,0.7096158539864766,0.0036083990384018234,-0.069224,-39.318778
11.185,2.0,1.0,1.0,33.9,33.3,33.3,3.9,3.1,2.5575,0.6876199008497758,-0.01036832481819131,0.7149821464982847,0.003567575413407629,-0.069958,-39.19988
11.185,2.0,1.0,1.0,33.9,33.3,33.3,3.9,3.1,2.56,0.6818905670232891,-0.01054301967763503,0.7203308786046123,0.0035244574897960548,-0.070705,-39.080621
11.185,2.0,1.0,1.0,33.9,33.3,33.3,3.9,3.1,2.5625,0.6760877515710513,-0.010720312639817165,0.7256613435916398,0.0034789720643824814,-0.071466,-38.960993
11.185,2.0,1.0,1.0,33.9,33.3,33.3,3.9,3.1,2.565,0.6702107239149704,-0.010900241903807355,0.7309728146355121,0.003431043528988654,-0.07224,-38.840989
11.185,2.0,1.0,1.0,33.9,33.3,33.3,3.9,3.1,2.5675,0.6642587460630731,-0.011082846137670677,0.7362645442251112,0.0033805937835595487,-0.073028,-38.720602
11.185,2.0,1.0,1.0,33.9,33.3,33.3,3.9,3.1,2.57,0.6582310726761096,-0.01126816447437131,0.7415357635687617,0.003327542145795389,-0.073831,-38.599823
11.185,2.0,1.0,1.0,33.9,33.3,33.3,3.9,3.1,2.5725,0.6521269511439358,-0.011456236506840354,0.7467856819844484,0.0032718052571406074,-0.074649,-38.478644
11.185,2.0,1.0,1.0,33.9,33.3,33.3,3.9,3.1,2.575,0.6459456216722279,-0.01164710228214703,0.7520134862731154,0.0032132969849633,-0.075481,-38.357058
11.185,2.0,1.0,1.0,33.9,33.3,33.3,3.9,3.1,2.5775,0.639686317380119,-0.01184080229470795,0.7572183400746176,0.003151928320749752,-0.076329,-38.235058
11.185,2.0,1.0,1.0,33.9,33.3,33.3,3.9,3.1,2.58,0.6333482644093732,-0.012037377478465046,0.7623993832058724,0.0030876072741298196,-0.077192,-38.112633
11.185,2.0,1.0,1.0,33.9,33.3,33.3,3.9,3.1,2.5825,0.6269306820457313,-0.012236869197958817,0.7675557309807666,0.0030202387625380476,-0.078072,-37.989778
11.185,2.0,1.0,1.0,33.9,33.3,33.3,3.9,3.1,2.585,0.6204327828531143,-0.01243931923821753,0.7726864735113507,0.002949724496305912,-0.078968,-37.866482
11.185,2.0,1.0,1.0,33.9,33.3,33.3,3.9,3.1,2.5875,0.6138537728213781,-0.012644769793379218,0.7777906749898558,0.0028759628589685097,-0.079881,-37.742738
11.185,2.0,1.0,1.0,33.9,33.3,33.3,3.9,3.1,2.59,0.6071928515283709,-0.012853263453956276,0.782867372951045,0.002798848782557507,-0.080812,-37.618537
11.185,2.0,1.0,1.0,33.9,33.3,33.3,3.9,3.1,2.5925,0.6004492123170518,-0.013064843192647837,0.7879155775144214,0.0027182736176393713,-0.08176,-37.49387
11.185,2.0,1.0,1.0,33.9,33.3,33.3,3.9,3.1,2.595,0.5936220424885036,-0.013279552348597925,0.792934270605781,0.0026341249978440867,-0.082726,-37.368728
11.185,2.0,1.0,1.0,33.9,33.3,33.3,3.9,3.1,2.5975,0.5867105235116616,-0.013497434609990774,0.797922405157619,0.0025462866986154463,-0.083711,-37.243102
11.185,2.0,1.0,1.0,33.9,33.3,33.3,3.9,3.1,2.6,0.5797138312506621,-0.013718533994867946,0.8028789042878653,0.002454638489898004,-0.084715,-37.116984
11.185,2.0,1.0,1.0,33.9,33.3,33.3,3.9,3.1,2.6025,0.5726311362107394,-0.013942894830042714,0.8078026604564222,0.002359055982460274,-0.085739,-36.990363
11.185,2.0,1.0,1.0,33.9,33.3,33.3,3.9,3.1,2.605,0.5654616038036336,-0.014170561727980579,0.812692534598979,0.0022594104675346845,-0.086782,-36.863231
11.185,2.0,1.0,1.0,33.9,33.3,33.3,3.9,3.1,2.6075,0.5582043946335313,-0.014401579561504261,0.817547355237552,0.002155568749437383,-0.087846,-36.735577
11.185,2.0,1.0,1.0,33.9,33.3,33.3,3.9,3.1,2.61,0.550858664804607,-0.01463599343617251,0.8223659175672025,0.0020473929708098647,-0.088932,-36.607392
11.185,2.0,1.0,1.0,33.9,33.3,33.3,3.9,3.1,2.6125,0.5434235662512656,-0.014873848660171768,0.8271469825183675,0.0019347404301032953,-0.090038,-36.478665
11.185,2.0,1.0,1.0,33.9,33.3,33.3,3.9,3.1,2.615,0.5358982470922555,-0.015115190711548227,0.8318892757942394,0.0018174633909027128,-0.091168,-36.349387
11.185,2.0,1.0,1.0,33.9,33.3,33.3,3.9,3.1,2.6175,0.5282818520098671,-0.015360065202595826,0.8365914868826052,0.0016954088826644188,-0.092319,-36.219547
11.185,2.0,1.0,1.0,33.9,33.3,33.3,3.9,3.1,2.62,0.520573522655487,-0.015608517841202913,0.8412522680415581,0.0015684184924121744,-0.093494,-36.089135
11.185,2.0,1.0,1.0,33.9,33.3,33.3,3.9,3.1,2.6225,0.5127723980828273,-0.015860594388946242,0.8458702332584881,0.0014363281469099555,-0.094694,-35.958139
11.185,2.0,1.0,1.0,33.9,33.3,33.3,3.9,3.1,2.625,0.504877615210238,-0.0161163406157053,0.850443957181728,0.00129896788479814,-0.095917,-35.82655
11.185,2.0,1.0,1.0,33.9,33.3,33.3,3.9,3.1,2.6275,0.4968883093135258,-0.016375802250555346,0.854971974024248,0.0011561616181467642,-0.097166,-35.694354
11.185,2.0,1.0,1.0,33.9,33.3,33.3,3.9,3.1,2.63,0.4888036145508151,-0.016639024928677183,0.8594527764387578,0.0010077268828442409,-0.098441,-35.561542
11.185,2.0,1.0,1.0,33.9,33.3,33.3,3.9,3.1,2.6325,0.4806226645210217,-0.016906054134005612,0.8638848143635801,0.0008534745772015093,-0.099743,-35.428101
11.185,2.0,1.0,1.0,33.9,33.3,33.3,3.9,3.1,2.635,0.4723445928575993,-0.017176935137315285,0.8682664938386369,0.0006932086881103553,-0.101072,-35.294019
11.185,2.0,1.0,1.0,33.9,33.3,33.3,3.9,3.1,2.6375,0.46396853385928816,-0.01745171292942201,0.8725961757908788,0.0005267260040502778,-0.102429,-35.159284
11.185,2.0,1.0,1.0,33.9,33.3,33.3,3.9,3.1,2.64,0.4554936231596567,-0.017730432149152344,0.8768721747884887,0.0003538158141900658,-0.103815,-35.023885
11.185,2.0,1.0,1.0,33.9,33.3,33.3,3.9,3.1,2.6425,0.4469189984373354,-0.01801313700570855,0.8810927577631521,0.00017425959277861026,-0.10523,-34.887807
11.185,2.0,1.0,1.0,33.9,33.3,33.3,3.9,3.1,2.645,0.4382438001689033,-0.018299871195026185,0.885256142699692,-1.2169332036672825e-05,-0.106676,-34.751037
11.185,2.0,1.0,1.0,33.9,33.3,33.3,3.9,3.1,2.6475,0.42946717242648713,-0.018590677809692174,0.8893604972923385,-0.0002057061258857914,-0.108154,-34.613564
11.185,2.0,1.0,1.0,33.9,33.3,33.3,3.9,3.1,2.65,0.42058826372220703,-0.018885599241955413,0.8934039375668933,-0.00040659481333511955,-0.109664,-34.475372
11.185,2.0,1.0,1.0,33.9,33.3,33.3,3.9,3.1,2.6525,0.41160622790173634,-0.019184677079325575,0.897384526468014,-0.0006150886615870308,-0.111207,-34.336448
11.185,2.0,1.0,1.0,33.9,33.3,33.3,3.9,3.1,2.655,0.40252022508928986,-0.019487951992215605,0.9013002724108415,-0.0008314505838576475,-0.112785,-34.196778
11.185,2.0,1.0,1.0,33.9,33.3,33.3,3.9,3.1,2.6575,0.393329422686507,-0.01979546361303846,0.9051491277961529,-0.0010559535636514067,-0.114397,-34.056346
11.185,2.0,1.0,1.0,33.9,33.3,33.3,3.9,3.1,2.66,0.3840329964277721,-0.02010725040612096,0.9089289874882005,-0.0012888811012439826,-0.116046,-33.915138
11.185,2.0,1.0,1.0,33.9,33.3,33.3,3.9,3.1,2.6625,0.37463013149466,-0.02042334952774294,0.9126376872543621,-0.0015305276837820903,-0.117732,-33.773139
11.185,2.0,1.0,1.0,33.9,33.3,33.3,3.9,3.1,2.665,0.3651200236922745,-0.02074379667555408,0.9162730021657042,-0.0017811992805180257,-0.119457,-33.630332
11.185,2.0,1.0,1.0,33.9,33.3,33.3,3.9,3.1,2.6675,0.35550188069042316,-0.02106862592655429,0.9198326449575005,-0.00204121386481206,-0.121221,-33.486701
11.185,2.0,1.0,1.0,33.9,33.3,33.3,3.9,3.1,2.67,0.3457749233326626,-0.021397869562754614,0.9233142643487194,-0.0023109019646644696,-0.123027,-33.342229
11.185,2.0,1.0,1.0,33.9,33.3,33.3,3.9,3.1,2.6725,0.3359383870164054,-0.02173155788355836,0.9267154433194386,-0.0025906072436778075,-0.124874,-33.1969
11.185,2.0,1.0,1.0,33.9,33.3,33.3,3.9,3.1,2.675,0.3259915231474418,-0.022069719003814995,0.9300336973450756,-0.00288068711450091,-0.126765,-33.050695
11.185,2.0,1.0,1.0,33.9,33.3,33.3,3.9,3.1,2.6775,0.3159336006723581,-0.022412378636407607,0.9332664725862757,-0.0031815133869732386,-0.128701,-32.903597
11.185,2.0,1.0,1.0,33.9,33.3,33.3,3.9,3.1,2.68,0.3057639076925188,-0.02275955985812801,0.9364111440332015,-0.0034934729533681506,-0.130683,-32.755587
11.185,2.0,1.0,1.0,33.9,33.3,33.3,3.9,3.1,2.6825,0.2954817531634551,-0.023111282857480073,0.9394650136028981,-0.003816968513332443,-0.132713,-32.606645
11.185,2.0,1.0,1.0,33.9,33.3,33.3,3.9,3.1,2.685,0.285086468683676,-0.023467564662923067,0.9424253081883003,-0.0041524193413369544,-0.134792,-32.456752
11.185,2.0,1.0,1.0,33.9,33.3,33.3,3.9,3.1,2.6875,0.274577410377129,-0.0238284188499257,0.945289177657335,-0.00450026209968988,-0.136922,-32.305888
11.185,2.0,1.0,1.0,33.9,33.3,33.3,3.9,3.1,2.69,0.2639539608737619,-0.02419385522504282,0.9480536928004475,-0.004860951700426686,-0.139105,-32.15403
11.185,2.0,1.0,1.0,33.9,33.3,33.3,3.9,3.1,2.6925,0.25321553139282277,-0.02456387948505327,0.9507158432247282,-0.005234962219676269,-0.141342,-32.001159
11.185,2.0,1.0,1.0,33.9,33.3,33.3,3.9,3.1,2.695,0.2423615639338571,-0.024938492848999703,0.9532725351926463,-0.005622787868417585,-0.143635,-31.847251
11.185,2.0,1.0,1.0,33.9,33.3,33.3,3.9,3.1,2.6975,0.2313915335805285,-0.02531769166075599,0.9557205894032156,-0.006024944023888783,-0.145987,-31.692282
11.185,2.0,1.0,1.0,33.9,33.3,33.3,3.9,3.1,2.7,0.22030495092277938,-0.02570146695950132,0.9580567387131804,-0.006441968326289453,-0.148399,-31.536231
11.185,2.0,1.0,1.0,33.9,33.3,33.3,3.9,3.1,2.7025,0.20910136460307216,-0.026089804015210702,0.9602776257955804,-0.006874421845839168,-0.150874,-31.379071
11.185,2.0,1.0,1.0,33.9,33.3,33.3,3.9,3.1,2.705,0.19778036399285773,-0.026482681825964197,0.9623798007327464,-0.007322890325716921,-0.153413,-31.220777
11.185,2.0,1.0,1.0,33.9,33.3,33.3,3.9,3.1,2.7075,0.18634158200574352,-0.026880072573535797,0.9643597185404752,-0.007787985506917119,-0.156019,-31.061323
11.185,2.0,1.0,1.0,33.9,33.3,33.3,3.9,3.1,2.71,0.17478469805427696,-0.027281941033337937,0.9662137366197413,-0.008270346541622953,-0.158695,-30.900682
11.185,2.0,1.0,1.0,33.9,33.3,33.3,3.9,3.1,2.7125,0.16310944115768047,-0.02768824393436504,0.9679381121319011,-0.00877064150232177,-0.161443,-30.738825
11.185,2.0,1.0,1.0,33.9,33.3,33.3,3.9,3.1,2.715,0.15131559320839233,-0.02809892926429058,0.9695289992928511,-0.009289568994577757,-0.164265,-30.575723
11.185,2.0,1.0,1.0,33.9,33.3,33.3,3.9,3.1,2.7175,0.13940299240580617,-0.028513935514324,0.9709824465810601,-0.009827859882142019,-0.167165,-30.411346
11.185,2.0,1.0,1.0,33.9,33.3,33.3,3.9,3.1,2.72,0.12737153686623495,-0.02893319085780804,0.9722943938537749,-0.01038627913392876,-0.170146,-30.245662
11.185,2.0,1.0,1.0,33.9,33.3,33.3,3.9,3.1,2.7225,0.11522118841876969,-0.029356612255837217,0.973460669364996,-0.010965627803328054,-0.173211,-30.078639
11.185,2.0,1.0,1.0,33.9,33.3,33.3,3.9,3.1,2.725,0.1029519765975426,-0.029784104482375163,0.9744769866780045,-0.011566745151368511,-0.176363,-29.910243
11.185,2.0,1.0,1.0,33.9,33.3,33.3,3.9,3.1,2.7275,0.09056400284167998,-0.0302155590604467,0.9753389414643232,-0.012190510926410747,-0.179605,-29.740438
11.185,2.0,1.0,1.0,33.9,33.3,33.3,3.9,3.1,2.73,0.07805744491529973,-0.030650853099945925,0.9760420081799449,-0.012837847814339418,-0.182942,-29.569188
11.185,2.0,1.0,1.0,33.9,33.3,33.3,3.9,3.1,2.7325,0.06543256156093293,-0.031089848026430732,0.976581536608484,-0.013509724074668874,-0.186377,-29.396455
11.185,2.0,1.0,1.0,33.9,33.3,33.3,3.9,3.1,2.735,0.05268969740107524,-0.03153238818893225,0.976952748259575,-0.014207156379578716,-0.189915,-29.222199
11.185,2.0,1.0,1.0,33.9,33.3,33.3,3.9,3.1,2.7375,0.03982928810394528,-0.031978299333280946,0.9771507326093053,-0.014931212874692753,-0.193559,-29.046379
11.185,2.0,1.0,1.0,33.9,33.3,33.3,3.9,3.1,2.74,0.026851865831215037,-0.0324273869256963,0.9771704431677463,-0.015683016482413846,-0.197315,-28.868952
11.185,2.0,1.0,1.0,33.9,33.3,33.3,3.9,3.1,2.7425,0.013758064987310683,-0.032879434309383025,0.9770066933566878,-0.016463748470869823,-0.201188,-28.689873
11.185,2.0,1.0,1.0,33.9,33.3,33.3,3.9,3.1,2.745,0.0005486282920567705,-0.03333420067456826,0.9766541521784318,-0.017274652314029935,-0.205183,-28.509095
11.185,2.0,1.0,1.0,33.9,33.3,33.3,3.9,3.1,2.7475,-0.012775586799081142,-0.03379141881976543,0.9761073396539839,-0.018117037871360046,-0.209305,-28.326569
11.185,2.0,1.0,1.0,33.9,33.3,33.3,3.9,3.1,2.75,-0.0262136013000594,-0.0342507926789915,0.975360622006082,-0.0189922859185337,-0.21356,-28.142245
11.185,2.0,1.0,1.0,33.9,33.3,33.3,3.9,3.1,2.7525,-0.039764307494191915,-0.034711994586139217,0.9744082065592431,-0.01990185306425009,-0.217955,-27.95607
11.185,2.0,1.0,1.0,33.9,33.3,33.3,3.9,3.1,2.755,-0.05342646129468591,-0.035174662243623256,0.9732441363252744,-0.020847277092179185,-0.222496,-27.767986
11.185,2.0,1.0,1.0,33.9,33.3,33.3,3.9,3.1,2.7575,-0.06719867412707631,-0.035638395357694204,0.9718622842384851,-0.02183018277152221,-0.227192,-27.577936
11.185,2.0,1.0,1.0,33.9,33.3,33.3,3.9,3.1,2.76,-0.08107940428958224,-0.036102751897322836,0.9702563470000102,-0.022852288184695622,-0.232048,-27.385859
11.185,2.0,1.0,1.0,33.9,33.3,33.3,3.9,3.1,2.7625,-0.0950669477414058,-0.0365672439271744,0.9684198384852174,-0.023915411626311302,-0.237075,-27.19169
11.185,2.0,1.0,1.0,33.9,33.3,33.3,3.9,3.1,2.765,-0.10915942826183504,-0.03703133295775135,0.9663460826619429,-0.025021479134002905,-0.24228,-26.995363
11.185,2.0,1.0,1.0,33.9,33.3,33.3,3.9,3.1,2.7675,-0.12335478691468017,-0.037494424747090783,0.9640282059602596,-0.026172532718848684,-0.247673,-26.796806
11.185,2.0,1.0,1.0,33.9,33.3,33.3,3.9,3.1,2.77,-0.13765077074280913,-0.03795586347823274,0.9614591290264377,-0.02737073937127033,-0.253265,-26.595946
11.185,2.0,1.0,1.0,33.9,33.3,33.3,3.9,3.1,2.7725,-0.15204492060596483,-0.03841492522474397,0.9586315577846503,-0.028618400927467195,-0.259066,-26.392704
11.185,2.0,1.0,1.0,33.9,33.3,33.3,3.9,3.1,2.775,-0.16653455806146336,-0.038870810602559126,0.9555379737195862,-0.029917964891826968,-0.265089,-26.186999
11.185,2.0,1.0,1.0,33.9,33.3,33.3,3.9,3.1,2.7775,-0.1811167711712578,-0.039322636489878174,0.9521706232813345,-0.03127203632249299,-0.271346,-25.978745
11.185,2.0,1.0,1.0,33.9,33.3,33.3,3.9,3.1,2.78,-0.19578839909978843,-0.039769426677350485,0.9485215063004961,-0.032683390900547886,-0.277851,-25.76785
11.185,2.0,1.0,1.0,33.9,33.3,33.3,3.9,3.1,2.7825,-0.21054601534432396,-0.04021010128767896,0.944582363286225,-0.03415498931829732,-0.284619,-25.55422
11.185,2.0,1.0,1.0,33.9,33.3,33.3,3.9,3.1,2.785,-0.22538590941260817,-0.04064346477637892,0.9403446614625688,-0.03568999313914246,-0.291666,-25.337751
11.185,2.0,1.0,1.0,33.9,33.3,33.3,3.9,3.1,2.7875,-0.24030406673031132,-0.04106819229282557,0.9357995793788338,-0.037291782300752634,-0.299011,-25.118339
11.185,2.0,1.0,1.0,33.9,33.3,33.3,3.9,3.1,2.79,-0.2552961465223813,-0.041482814141851704,0.9309379899073605,-0.0389639744549924,-0.306672,-24.89587
11.185,2.0,1.0,1.0,33.9,33.3,33.3,3.9,3.1,2.7925,-0.2703574573661256,-0.04188569803966715,0.9257504414168402,-0.04071044636259845,-0.314671,-24.670225
11.185,2.0,1.0,1.0,33.9,33.3,33.3,3.9,3.1,2.795,-0.2854829300584286,-0.04227502880213811,0.9202271368806874,-0.04253535758828992,-0.32303,-24.441278
11.185,2.0,1.0,1.0,33.9,33.3,33.3,3.9,3.1,2.7975,-0.3006670873725213,-0.04264878503644314,0.9143579106477524,-0.04444317677313732,-0.331775,-24.208895
11.185,2.0,1.0,1.0,33.9,33.3,33.3,3.9,3.1,2.8,-0.3159040101989986,-0.04300471232631799,0.9081322025663034,-0.046438710795977216,-0.340933,-23.972935
11.185,2.0,1.0,1.0,33.9,33.3,33.3,3.9,3.1,2.8025,-0.3311872994677636,-0.043340292303377145,0.9015390291115452,-0.048527137174722026,-0.350536,-23.733246
11.185,2.0,1.0,1.0,33.9,33.3,33.3,3.9,3.1,2.805,-0.3465100331286075,-0.04365270687846596,0.894566951121555,-0.05071404010185241,-0.360615,-23.489671
11.185,2.0,1.0,1.0,33.9,33.3,33.3,3.9,3.1,2.8075,-0.3618647173231248,-0.043938796762781174,0.8872040376962522,-0.053005450556328736,-0.371209,-23.242037
11.185,2.0,1.0,1.0,33.9,33.3,33.3,3.9,3.1,2.81,-0.3772432307034409,-0.04419501323248177,0.879437825758887,-0.05540789098658008,-0.382357,-22.990166
11.185,2.0,1.0,1.0,33.9,33.3,33.3,3.9,3.1,2.8125,-0.392636760635893,-0.0444173618749918,0.871255274719835,-0.0579284251157454,-0.394106,-22.733865
11.185,2.0,1.0,1.0,33.9,33.3,33.3,3.9,3.1,2.815,-0.40803572976065855,-0.0446013367904577,0.8626427156189327,-0.060574713480152274,-0.406506,-22.472929
11.185,2.0,1.0,1.0,33.9,33.3,33.3,3.9,3.1,2.8175,-0.42342971104859606,-0.04474184339551955,0.8535857940567866,-0.06335507537347392,-0.419613,-22.20714
11.185,2.0,1.0,1.0,33.9,33.3,33.3,3.9,3.1,2.82,-0.438807329088516,-0.0448331075730442,0.8440694061600624,-0.06627855792941649,-0.43349,-21.936263
11.185,2.0,1.0,1.0,33.9,33.3,33.3,3.9,3.1,2.8225,-0.454156144831332,-0.04486856841075739,0.8340776267650157,-0.0693550131306848,-0.448208,-21.660051
11.185,2.0,1.0,1.0,33.9,33.3,33.3,3.9,3.1,2.825,-0.4694625203861119,-0.04484075114827654,0.8235936289544732,-0.07259518357436934,-0.463845,-21.378237
11.185,2.0,1.0,1.0,33.9,33.3,33.3,3.9,3.1,2.8275,-0.4847114596736608,-0.04474111617313592,0.8125995940566954,-0.07601079784301483,-0.480492,-21.090534
