1,w,sub_t,h,l1,l2,l3,g1,g2,Freq,S11_re,S21_re,S11_img,S21_img,S11_dB,S21_dB
11.185,2.0,1.0,1.0,33.6,34.6,34.6,2.0,2.8,2.5,0.829787641950258,-0.0129277607847449,0.543580394249245,0.0111802611956399,-0.069929,-35.344309
11.185,2.0,1.0,1.0,33.6,34.6,34.6,2.0,2.8,2.5025,0.8258596720709157,-0.01322096677802592,0.5493561604432357,0.01125548830877473,-0.070771,-35.207415
11.185,2.0,1.0,1.0,33.6,34.6,34.6,2.0,2.8,2.505,0.8218700662083935,-0.013520870426422414,0.5551314790293218,0.011330105898429558,-0.071632,-35.06981
11.185,2.0,1.0,1.0,33.6,34.6,34.6,2.0,2.8,2.5075,0.8178180558069403,-0.013827660272908021,0.5609060528471701,0.011404056157737185,-0.072513,-34.931478
11.185,2.0,1.0,1.0,33.6,34.6,34.6,2.0,2.8,2.51,0.8137028555520437,-0.014141531642303603,0.5666795738407565,0.011477278031559948,-0.073413,-34.792404
11.185,2.0,1.0,1.0,33.6,34.6,34.6,2.0,2.8,2.5125,0.8095236628832033,-0.014462686938735099,0.5724517226079788,0.011549707024805957,-0.074334,-34.65257
11.185,2.0,1.0,1.0,33.6,34.6,34.6,2.0,2.8,2.515,0.8052796574873261,-0.014791335958500474,0.5782221679287768,0.011621274998188456,-0.075277,-34.51196
11.185,2.0,1.0,1.0,33.6,34.6,34.6,2.0,2.8,2.5175,0.8009700007717395,-0.015127696219264774,0.5839905662704636,0.011691909950502991,-0.076242,-34.370556
11.185,2.0,1.0,1.0,33.6,34.6,34.6,2.0,2.8,2.52,0.7965938353157291,-0.015471993306565842,0.5897565612689457,0.011761535786425994,-0.077229,-34.228343
11.185,2.0,1.0,1.0,33.6,34.6,34.6,2.0,2.8,2.5225,0.7921502842994692,-0.015824461238677166,0.5955197831843396,0.011830072068749165,-0.07824,-34.0853
11.185,2.0,1.0,1.0,33.6,34.6,34.6,2.0,2.8,2.525,0.7876384509091111,-0.01618534285094901,0.6012798483294659,0.011897433753879836,-0.079275,-33.941411
11.185,2.0,1.0,1.0,33.6,34.6,34.6,2.0,2.8,2.5275,0.7830574177167247,-0.016554890200823017,0.6070363584695081,0.011963530909334795,-0.080336,-33.796656
11.185,2.0,1.0,1.0,33.6,34.6,34.6,2.0,2.8,2.53,0.7784062460337127,-0.01693336499479927,0.6127889001910609,0.012028268411847289,-0.081422,-33.651016
11.185,2.0,1.0,1.0,33.6,34.6,34.6,2.0,2.8,2.5325,0.77368397523621,-0.01732103903872368,0.6185370442386083,0.012091545624590784,-0.082535,-33.504472
11.185,2.0,1.0,1.0,33.6,34.6,34.6,2.0,2.8,2.535,0.7688896220608827,-0.017718194712859257,0.6242803448163611,0.012153256051889497,-0.083677,-33.357003
11.185,2.0,1.0,1.0,33.6,34.6,34.6,2.0,2.8,2.5375,0.7640221798694463,-0.01812512547330694,0.630018338853174,0.012213286969648199,-0.084846,-33.208588
11.185,2.0,1.0,1.0,33.6,34.6,34.6,2.0,2.8,2.54,0.7590806178800925,-0.01854213638145395,0.6357505452281492,0.01227151902957366,-0.086046,-33.059207
11.185,2.0,1.0,1.0,33.6,34.6,34.6,2.0,2.8,2.5425,0.7540638803638969,-0.018969544663246518,0.6414764639542658,0.012327825835091956,-0.087277,-32.908837
11.185,2.0,1.0,1.0,33.6,34.6,34.6,2.0,2.8,2.545,0.7489708858041443,-0.01940768030021264,0.6471955753172227,0.012382073486675462,-0.088539,-32.757456
11.185,2.0,1.0,1.0,33.6,34.6,34.6,2.0,2.8,2.5475,0.7438005260163728,-0.019856886654299376,0.6529073389664086,0.012434120094089101,-0.089835,-32.605042
11.185,2.0,1.0,1.0,33.6,34.6,34.6,2.0,2.8,2.55,0.7385516652267556,-0.020317521128740523,0.6586111929546905,0.012483815252834374,-0.091165,-32.45157
11.185,2.0,1.0,1.0,33.6,34.6,34.6,2.0,2.8,2.5525,0.7332231391063201,-0.020789955867329676,0.6643065527233951,0.012530999481822225,-0.092531,-32.297017
11.185,2.0,1.0,1.0,33.6,34.6,34.6,2.0,2.8,2.555,0.7278137537582632,-0.02127457849465111,0.6699928100285926,0.012575503619026563,-0.093934,-32.141358
11.185,2.0,1.0,1.0,33.6,34.6,34.6,2.0,2.8,2.5575,0.7223222846554735,-0.021771792900008108,0.6756693318044197,0.012617148171567817,-0.095375,-31.984568
11.185,2.0,1.0,1.0,33.6,34.6,34.6,2.0,2.8,2.56,0.7167474755251435,-0.022282020067991397,0.6813354589588304,0.012655742616335312,-0.096856,-31.826619
11.185,2.0,1.0,1.0,33.6,34.6,34.6,2.0,2.8,2.5625,0.711088037177121,-0.0228056989588518,0.686990505096737,0.0126910846468888,-0.098379,-31.667486
11.185,2.0,1.0,1.0,33.6,34.6,34.6,2.0,2.8,2.565,0.705342646272412,-0.023343287442078114,0.6926337551650792,0.012722959361963167,-0.099944,-31.507141
11.185,2.0,1.0,1.0,33.6,34.6,34.6,2.0,2.8,2.5675,0.6995099440279818,-0.023895263286837193,0.6982644640138146,0.012751138390447005,-0.101555,-31.345554
11.185,2.0,1.0,1.0,33.6,34.6,34.6,2.0,2.8,2.57,0.6935885348537127,-0.02446212521321282,0.7038818548663475,0.012775378947196764,-0.103212,-31.182697
11.185,2.0,1.0,1.0,33.6,34.6,34.6,2.0,2.8,2.5725,0.6875769849170554,-0.025044394008477966,0.70948511769222,0.012795422813488368,-0.104918,-31.01854
11.185,2.0,1.0,1.0,33.6,34.6,34.6,2.0,2.8,2.575,0.6814738206305999,-0.025642613712960557,0.7150734074742958,0.012810995235282507,-0.106674,-30.853051
11.185,2.0,1.0,1.0,33.6,34.6,34.6,2.0,2.8,2.5775,0.6752775270574066,-0.026257352880412668,0.7206458423618598,0.012821803731786317,-0.108483,-30.686198
11.185,2.0,1.0,1.0,33.6,34.6,34.6,2.0,2.8,2.58,0.6689865462285652,-0.026889205918171944,0.7262015017002722,0.012827536806021674,-0.110348,-30.517949
11.185,2.0,1.0,1.0,33.6,34.6,34.6,2.0,2.8,2.5825,0.6625992753670067,-0.027538794512814404,0.7317394239268696,0.012827862548248404,-0.112269,-30.348269
11.185,2.0,1.0,1.0,33.6,34.6,34.6,2.0,2.8,2.585,0.6561140650111591,-0.028206769147438616,0.7372586043217992,0.012822427122130962,-0.11425,-30.177123
11.185,2.0,1.0,1.0,33.6,34.6,34.6,2.0,2.8,2.5875,0.6495292170315231,-0.028893810717200402,0.7427579926013256,0.012810853122464683,-0.116294,-30.004474
11.185,2.0,1.0,1.0,33.6,34.6,34.6,2.0,2.8,2.59,0.6428429825327312,-0.02960063225023155,0.748236490339876,0.01279273779207585,-0.118403,-29.830286
11.185,2.0,1.0,1.0,33.6,34.6,34.6,2.0,2.8,2.5925,0.6360535596330552,-0.030327980741634678,0.75369294820569,0.012767651084171163,-0.120581,-29.65452
11.185,2.0,1.0,1.0,33.6,34.6,34.6,2.0,2.8,2.595,0.6291590911127439,-0.031076639108843354,0.7591261629933247,0.012735133554904252,-0.122829,-29.477136
11.185,2.0,1.0,1.0,33.6,34.6,34.6,2.0,2.8,2.5975,0.6221576619218526,-0.03184742827728699,0.7645348744345228,0.012694694069240677,-0.125153,-29.298092
11.185,2.0,1.0,1.0,33.6,34.6,34.6,2.0,2.8,2.6,0.61504729653756,-0.03264120940599278,0.769917761766949,0.012645807301306692,-0.127555,-29.117345
11.185,2.0,1.0,1.0,33.6,34.6,34.6,2.0,2.8,2.6025,0.6078259561601617,-0.03345888626350559,0.7752734400380571,0.012587911008274052,-0.130039,-28.934853
11.185,2.0,1.0,1.0,33.6,34.6,34.6,2.0,2.8,2.605,0.600491535736109,-0.03430140776531027,0.780600456118872,0.012520403054431391,-0.132609,-28.750568
11.185,2.0,1.0,1.0,33.6,34.6,34.6,2.0,2.8,2.6075,0.5930418607955769,-0.03516977068479893,0.7858972843996148,0.012442638159386885,-0.135269,-28.564444
11.185,2.0,1.0,1.0,33.6,34.6,34.6,2.0,2.8,2.61,0.5854746840910883,-0.03606502255074399,0.791162322135949,0.012353924341288285,-0.138024,-28.376431
11.185,2.0,1.0,1.0,33.6,34.6,34.6,2.0,2.8,2.6125,0.5777876820227137,-0.03698826474521769,0.7963938844110197,0.012253519022490968,-0.140879,-28.18648
11.185,2.0,1.0,1.0,33.6,34.6,34.6,2.0,2.8,2.615,0.5699784508342758,-0.03794065581693604,0.8015901986744148,0.01214062476119408,-0.143839,-27.994537
11.185,2.0,1.0,1.0,33.6,34.6,34.6,2.0,2.8,2.6175,0.5620445025638695,-0.03892341502610335,0.8067493988145745,0.012014384568129283,-0.146909,-27.800548
11.185,2.0,1.0,1.0,33.6,34.6,34.6,2.0,2.8,2.62,0.5539832607307904,-0.039937826137989296,0.8118695187159973,0.011873876762354154,-0.150096,-27.604455
11.185,2.0,1.0,1.0,33.6,34.6,34.6,2.0,2.8,2.6225,0.545792055739702,-0.04098524148367773,0.8169484852466712,0.01171810931447963,-0.153405,-27.406202
11.185,2.0,1.0,1.0,33.6,34.6,34.6,2.0,2.8,2.625,0.537468119981602,-0.0420670863076738,0.821984110614456,0.0115460136191496,-0.156843,-27.205726
11.185,2.0,1.0,1.0,33.6,34.6,34.6,2.0,2.8,2.6275,0.5290085826097514,-0.04318486342334367,0.826974084023517,0.011356437631163176,-0.160418,-27.002964
11.185,2.0,1.0,1.0,33.6,34.6,34.6,2.0,2.8,2.63,0.5204104639674153,-0.04434015819845251,0.83191596255318,0.011148138291153856,-0.164138,-26.79785
11.185,2.0,1.0,1.0,33.6,34.6,34.6,2.0,2.8,2.6325,0.5116706696428805,-0.045534643894357796,0.8368071611716632,0.010919773157045391,-0.16801,-26.590316
11.185,2.0,1.0,1.0,33.6,34.6,34.6,2.0,2.8,2.635,0.5027859841258926,-0.04677008738365738,0.8416449417857419,0.0106698911464027,-0.172043,-26.380291
11.185,2.0,1.0,1.0,33.6,34.6,34.6,2.0,2.8,2.6375,0.4937530640384265,-0.048048355272250376,0.8464264012143813,0.010396922282062406,-0.176248,-26.1677
11.185,2.0,1.0,1.0,33.6,34.6,34.6,2.0,2.8,2.64,0.48456843091155805,-0.04937142045278487,0.851148457959429,0.010099166318799063,-0.180635,-25.952466
11.185,2.0,1.0,1.0,33.6,34.6,34.6,2.0,2.8,2.6425,0.4752284634793617,-0.05074136911725018,0.8558078376292537,0.0097747801119512,-0.185216,-25.734509
11.185,2.0,1.0,1.0,33.6,34.6,34.6,2.0,2.8,2.645,0.465729389460129,-0.052160408256941404,0.8604010568514364,0.00942176356953337,-0.190001,-25.513744
11.185,2.0,1.0,1.0,33.6,34.6,34.6,2.0,2.8,2.6475,0.4560672767951092,-0.05363087367802395,0.8649244054877941,0.009037944006963635,-0.195005,-25.290084
11.185,2.0,1.0,1.0,33.6,34.6,34.6,2.0,2.8,2.65,0.4462380243154195,-0.0551552385603058,0.8693739269386543,0.0086209586976456,-0.200242,-25.063438
11.185,2.0,1.0,1.0,33.6,34.6,34.6,2.0,2.8,2.6525,0.4362373518091591,-0.05673612258532948,0.8737453962927667,0.008168235382652515,-0.205727,-24.833711
11.185,2.0,1.0,1.0,33.6,34.6,34.6,2.0,2.8,2.655,0.4260607894631514,-0.0583763016572763,0.878034296043897,0.00767697046796754,-0.211478,-24.600802
11.185,2.0,1.0,1.0,33.6,34.6,34.6,2.0,2.8,2.6575,0.415703666657775,-0.06007871823600234,0.8822357890540392,0.007144104597305954,-0.217512,-24.364607
11.185,2.0,1.0,1.0,33.6,34.6,34.6,2.0,2.8,2.66,0.4051611000992713,-0.061846492295359344,0.8863446883954319,0.006566295241482175,-0.22385,-24.125018
11.185,2.0,1.0,1.0,33.6,34.6,34.6,2.0,2.8,2.6625,0.39442798128253237,-0.06368293291112988,0.890355423647881,0.005939885890416563,-0.230514,-23.881919
11.185,2.0,1.0,1.0,33.6,34.6,34.6,2.0,2.8,2.665,0.383498963289366,-0.0655915504706351,0.8942620031629261,0.0052608713697982964,-0.237528,-23.635193
11.185,2.0,1.0,1.0,33.6,34.6,34.6,2.0,2.8,2.6675,0.37236844694379256,-0.06757606947927822,0.8980579717304217,0.004524858729469647,-0.244917,-23.384713
11.185,2.0,1.0,1.0,33.6,34.6,34.6,2.0,2.8,2.67,0.3610305663682354,-0.06964044191663765,0.9017363629941828,0.003727023062788182,-0.252712,-23.130348
11.185,2.0,1.0,1.0,33.6,34.6,34.6,2.0,2.8,2.6725,0.3494791740144521,-0.07178886106442979,0.9052896458590199,0.0028620575131960957,-0.260943,-22.871961
11.185,2.0,1.0,1.0,33.6,34.6,34.6,2.0,2.8,2.675,0.3377078252829007,-0.0740257756884576,0.9087096640089977,0.0019241166031712523,-0.269646,-22.609408
11.185,2.0,1.0,1.0,33.6,34.6,34.6,2.0,2.8,2.6775,0.32570976289690745,-0.07635590440358478,0.9119875675126591,0.0009067518783010832,-0.27886,-22.342535
11.185,2.0,1.0,1.0,33.6,34.6,34.6,2.0,2.8,2.68,0.31347790126739616,-0.07878424998096935,0.9151137353213012,-0.00019716130857235151,-0.288627,-22.071185
11.185,2.0,1.0,1.0,33.6,34.6,34.6,2.0,2.8,2.6825,0.3010048111750498,-0.08131611326524721,0.9180776872663353,-0.0013955072460479384,-0.298994,-21.795189
11.185,2.0,1.0,1.0,33.6,34.6,34.6,2.0,2.8,2.685,0.28828270521608884,-0.08395710624954633,0.9208679839257594,-0.0026970251521732332,-0.310015,-21.514371
11.185,2.0,1.0,1.0,33.6,34.6,34.6,2.0,2.8,2.6875,0.275303424614031,-0.086713163699577,0.923472112451051,-0.00411141818405305,-0.321747,-21.228547
11.185,2.0,1.0,1.0,33.6,34.6,34.6,2.0,2.8,2.69,0.2620584282039469,-0.08959055251340971,0.9258763561165994,-0.005649478377205262,-0.334258,-20.937521
11.185,2.0,1.0,1.0,33.6,34.6,34.6,2.0,2.8,2.6925,0.2485387846625464,-0.09259587773624565,0.9280656449650044,-0.007323230107724558,-0.347619,-20.641087
11.185,2.0,1.0,1.0,33.6,34.6,34.6,2.0,2.8,2.695,0.23473516940639655,-0.09573608380016925,0.9300233844626198,-0.009146095124689193,-0.361914,-20.339029
11.185,2.0,1.0,1.0,33.6,34.6,34.6,2.0,2.8,2.6975,0.2206378680369132,-0.09901844910216608,0.9317312585387032,-0.011133082735921358,-0.377234,-20.03112
11.185,2.0,1.0,1.0,33.6,34.6,34.6,2.0,2.8,2.7,0.20623678880848692,-0.1024505714359182,0.9331690027450861,-0.013301009360301295,-0.393685,-19.71712
11.185,2.0,1.0,1.0,33.6,34.6,34.6,2.0,2.8,2.7025,0.19152148737941935,-0.10604034100967936,0.9343141425271303,-0.01566875239849729,-0.411384,-19.396776
11.185,2.0,1.0,1.0,33.6,34.6,34.6,2.0,2.8,2.705,0.17648120813366627,-0.10979589675486795,0.9351416907262033,-0.018257544235537677,-0.430465,-19.069821
11.185,2.0,1.0,1.0,33.6,34.6,34.6,2.0,2.8,2.7075,0.1611049477129051,-0.11372556027970392,0.9356237974255037,-0.021091313186363925,-0.451081,-18.735976
11.185,2.0,1.0,1.0,33.6,34.6,34.6,2.0,2.8,2.71,0.1453815481777974,-0.11783774004515465,0.9357293440948147,-0.024197079338919292,-0.473406,-18.394945
11.185,2.0,1.0,1.0,33.6,34.6,34.6,2.0,2.8,2.7125,0.12929982956314967,-0.12214079599824876,0.9354234726835273,-0.027605414540152088,-0.497639,-18.046419
11.185,2.0,1.0,1.0,33.6,34.6,34.6,2.0,2.8,2.715,0.11284877468910913,-0.12664285180617074,0.9346670388676704,-0.03135097719531469,-0.52401,-17.690074
11.185,2.0,1.0,1.0,33.6,34.6,34.6,2.0,2.8,2.7175,0.09601778318534698,-0.1313515377484943,0.9334159771146406,-0.03547313407061112,-0.552781,-17.325568
11.185,2.0,1.0,1.0,33.6,34.6,34.6,2.0,2.8,2.72,0.07879701710405196,-0.13627364191917515,0.9316205636722711,-0.040016682819311984,-0.58426,-16.952545
11.185,2.0,1.0,1.0,33.6,34.6,34.6,2.0,2.8,2.7225,0.06117786767236182,-0.14141464023444353,0.9292245621741709,-0.04503269033381698,-0.618802,-16.570635
11.185,2.0,1.0,1.0,33.6,34.6,34.6,2.0,2.8,2.725,0.04315358223405184,-0.1467780662719185,0.9261642355581567,-0.05057946298259339,-0.656822,-16.179454
11.185,2.0,1.0,1.0,33.6,34.6,34.6,2.0,2.8,2.7275,0.024720102993917487,-0.15236466944363397,0.9223672078887857,-0.05672366485112784,-0.698805,-15.778607
11.185,2.0,1.0,1.0,33.6,34.6,34.6,2.0,2.8,2.73,0.005877185757975997,-0.15817129348536696,0.9177511612332709,-0.06354159849474228,-0.745323,-15.367688
11.185,2.0,1.0,1.0,33.6,34.6,34.6,2.0,2.8,2.7325,-0.01337011134716721,-0.16418938553948703,0.9122223572164363,-0.0711206581748576,-0.797053,-14.946288
11.185,2.0,1.0,1.0,33.6,34.6,34.6,2.0,2.8,2.735,-0.033009450742448036,-0.17040301778031172,0.9056739822749441,-0.07956095609108786,-0.854797,-14.514001
11.185,2.0,1.0,1.0,33.6,34.6,34.6,2.0,2.8,2.7375,-0.053018594656780584,-0.17678626694197971,0.8979843330927789,-0.08897710459577161,-0.919512,-14.07043
11.185,2.0,1.0,1.0,33.6,34.6,34.6,2.0,2.8,2.74,-0.07336193883636097,-0.1832997506048413,0.8890148891255389,-0.09950010689953827,-0.992346,-13.6152
11.185,2.0,1.0,1.0,33.6,34.6,34.6,2.0,2.8,2.7425,-0.09398594077939638,-0.18988606145792924,0.8786083700200356,-0.11127925785756251,-1.07468,-13.147978
11.185,2.0,1.0,1.0,33.6,34.6,34.6,2.0,2.8,2.745,-0.11481311350929141,-0.1964637721635133,0.8665869584314438,-0.12448387378034484,-1.168185,-12.668489
11.185,2.0,1.0,1.0,33.6,34.6,34.6,2.0,2.8,2.7475,-0.13573417921223152,-0.20291960740253878,0.8527509999215243,-0.1393045392163294,-1.274894,-12.176555
11.185,2.0,1.0,1.0,33.6,34.6,34.6,2.0,2.8,2.75,-0.15659790312696,-0.209098306585278,0.836878695086396,-0.155953355616929,-1.397286,-11.67213
11.185,2.0,1.0,1.0,33.6,34.6,34.6,2.0,2.8,2.7525,-0.1771980806210924,-0.21478965432184768,0.8187276070440811,-0.17466236966028037,-1.538398,-11.155358
11.185,2.0,1.0,1.0,33.6,34.6,34.6,2.0,2.8,2.755,-0.19725717748527094,-0.21971218408666549,0.7980392598511311,-0.1956789081104132,-1.701966,-10.626643
11.185,2.0,1.0,1.0,33.6,34.6,34.6,2.0,2.8,2.7575,-0.21640631495003615,-0.22349325322915387,0.7745487414358662,-0.2192559107010673,-1.892586,-10.086747
11.185,2.0,1.0,1.0,33.6,34.6,34.6,2.0,2.8,2.76,-0.23416180330415914,-0.2256457006511612,0.7480020705289018,-0.24563451089522417,-2.11592,-9.53691
11.185,2.0,1.0,1.0,33.6,34.6,34.6,2.0,2.8,2.7625,-0.2498995134999253,-0.22554238335621846,0.7181850967663991,-0.2750151111496009,-2.378922,-8.979003
11.185,2.0,1.0,1.0,33.6,34.6,34.6,2.0,2.8,2.765,-0.2628303992296564,-0.22239190731782318,0.6849686692780448,-0.3075122422487368,-2.690064,-8.415713
11.185,2.0,1.0,1.0,33.6,34.6,34.6,2.0,2.8,2.7675,-0.2719838765023613,-0.21522225253668578,0.6483751906326553,-0.3430881258579367,-3.059517,-7.850765
11.185,2.0,1.0,1.0,33.6,34.6,34.6,2.0,2.8,2.77,-0.2762108322882022,-0.2028840360368836,0.6086703530970766,-0.3814611897389579,-3.49914,-7.289148
11.185,2.0,1.0,1.0,33.6,34.6,34.6,2.0,2.8,2.7725,-0.2742243935276546,-0.18409148075530724,0.5664789317200105,-0.42199070969013897,-4.02198,-6.737341
11.185,2.0,1.0,1.0,33.6,34.6,34.6,2.0,2.8,2.775,-0.26470215760049315,-0.157524677320424,0.5229124868949377,-0.46354975365254064,-4.640673,-6.203457
11.185,2.0,1.0,1.0,33.6,34.6,34.6,2.0,2.8,2.7775,-0.2464732048622023,-0.12201629139179777,0.4796779711126752,-0.5044173973124623,-5.363459,-5.697235
11.185,2.0,1.0,1.0,33.6,34.6,34.6,2.0,2.8,2.78,-0.21879820046205595,-0.07683083523807956,0.43911202445167763,-0.5422452659506601,-6.185383,-5.229759
11.185,2.0,1.0,1.0,33.6,34.6,34.6,2.0,2.8,2.7825,-0.18171252680521716,-0.022006332948783153,0.40406805969985476,-0.5741709698089341,-7.071009,-4.8128
11.185,2.0,1.0,1.0,33.6,34.6,34.6,2.0,2.8,2.785,-0.1363426133285387,0.041331330592987,0.3775954509278695,-0.5971386538370846,-7.927222,-4.45774
11.185,2.0,1.0,1.0,33.6,34.6,34.6,2.0,2.8,2.7875,-0.08505168242142536,0.11082466303332084,0.3624158750801622,-0.6084212097498134,-8.583024,-4.174157
11.185,2.0,1.0,1.0,33.6,34.6,34.6,2.0,2.8,2.79,-0.03127568725549104,0.18304983587474788,0.36031510758749086,-0.6062258388784817,-8.833752,-3.968372
11.185,2.0,1.0,1.0,33.6,34.6,34.6,2.0,2.8,2.7925,0.020986329477111567,0.25402599604827897,0.37166754149801373,-0.5901663162599218,-8.583083,-3.842335
11.185,2.0,1.0,1.0,33.6,34.6,34.6,2.0,2.8,2.795,0.06789329847686813,0.3199342980388873,0.39530454444749424,-0.5613919312077512,-7.935109,-3.793239
11.185,2.0,1.0,1.0,33.6,34.6,34.6,2.0,2.8,2.7975,0.10643704022201282,0.3777897501596218,0.42879498398050897,-0.5223057404972021,-7.095336,-3.813993
11.185,2.0,1.0,1.0,33.6,34.6,34.6,2.0,2.8,2.8,0.13483687495360971,0.4258328544331714,0.4690126714599351,-0.47599763529101763,-6.231424,-3.894384
11.185,2.0,1.0,1.0,33.6,34.6,34.6,2.0,2.8,2.8025,0.1525724328312089,0.4635604865419541,0.5127569469546396,-0.42562544985170325,-5.433334,-4.022551
11.185,2.0,1.0,1.0,33.6,34.6,34.6,2.0,2.8,2.805,0.16013730999574008,0.4914789569758975,0.5572262463490675,-0.3739433630693343,-4.734733,-4.186362
11.185,2.0,1.0,1.0,33.6,34.6,34.6,2.0,2.8,2.8075,0.15867209570389645,0.510737483915549,0.6002622958241357,-0.3230592148523998,-4.13985,-4.374454
11.185,2.0,1.0,1.0,33.6,34.6,34.6,2.0,2.8,2.81,0.14961432912831793,0.5227791018475553,0.6403908423440645,-0.27439451484116806,-3.640291,-4.576847
11.185,2.0,1.0,1.0,33.6,34.6,34.6,2.0,2.8,2.8125,0.134437740157978,0.529080897823476,0.676735074765822,-0.228771026331516,-3.22353,-4.785183
11.185,2.0,1.0,1.0,33.6,34.6,34.6,2.0,2.8,2.815,0.11449432552902902,0.5309968611257204,0.7088766808502235,-0.18654917960667405,-2.876744,-4.99272
11.185,2.0,1.0,1.0,33.6,34.6,34.6,2.0,2.8,2.8175,0.09094046514719262,0.529684460566892,0.7367149519909334,-0.1477681114873721,-2.588334,-5.194167
11.185,2.0,1.0,1.0,33.6,34.6,34.6,2.0,2.8,2.82,0.06471909177579957,0.5260869730225776,0.7603486249294688,-0.11226278956784602,-2.348393,-5.385458
11.185,2.0,1.0,1.0,33.6,34.6,34.6,2.0,2.8,2.8225,0.03657328079931643,0.5209469764975325,0.7799874034213713,-0.07975135536300085,-2.14871,-5.563521
11.185,2.0,1.0,1.0,33.6,34.6,34.6,2.0,2.8,2.825,0.007073966031303541,0.5148337581617105,0.79589084186132,-0.049895027248390275,-1.982587,-5.726059
11.185,2.0,1.0,1.0,33.6,34.6,34.6,2.0,2.8,2.8275,-0.023348620556009166,0.5081742610962955,0.808328850491451,-0.02233629218454982,-1.844616,-5.871364
11.185,2.0,1.0,1.0,33.6,34.6,34.6,2.0,2.8,2.83,-0.05437518658915452,0.5012821711514216,0.8175577740355277,0.003278596170306947,-1.730462,-5.998169
