1,w,sub_t,h,l1,l2,l3,g1,g2,Freq,S11_re,S21_re,S11_img,S21_img,S11_dB,S21_dB
11.185,2.0,1.0,1.0,33.9,33.8,33.8,1.5,2.0,2.5,0.787383174781667,-0.0201879598737662,0.602192284644931,0.0172494366405208,-0.076198,-31.517513
11.185,2.0,1.0,1.0,33.9,33.8,33.8,1.5,2.0,2.5025,0.7827219503057072,-0.02062769604689059,0.6080601426596599,0.01733737621026543,-0.077157,-31.390117
11.185,2.0,1.0,1.0,33.9,33.8,33.8,1.5,2.0,2.505,0.7779897215578128,-0.02107668059859931,0.6139227650282283,0.01742328423267754,-0.078137,-31.262161
11.185,2.0,1.0,1.0,33.9,33.8,33.8,1.5,2.0,2.5075,0.7731856097726466,-0.021535134762365904,0.6197796602657,0.01750703405122151,-0.079138,-31.133636
11.185,2.0,1.0,1.0,33.9,33.8,33.8,1.5,2.0,2.51,0.76830872019632,-0.022003285974979553,0.6256303194158045,0.017588493014379536,-0.080161,-31.004532
11.185,2.0,1.0,1.0,33.9,33.8,33.8,1.5,2.0,2.5125,0.7633581417726775,-0.022481368070075117,0.6314742153940186,0.017667522181426788,-0.081206,-30.87484
11.185,2.0,1.0,1.0,33.9,33.8,33.8,1.5,2.0,2.515,0.7583329468237809,-0.022969621477953093,0.6373108023034264,0.017743976012560145,-0.082274,-30.744547
11.185,2.0,1.0,1.0,33.9,33.8,33.8,1.5,2.0,2.5175,0.7532321907245851,-0.02346829343187364,0.6431395147220533,0.017817702042468016,-0.083367,-30.613646
11.185,2.0,1.0,1.0,33.9,33.8,33.8,1.5,2.0,2.52,0.7480549115717684,-0.023977638181011098,0.648959766960334,0.017888540536368396,-0.084484,-30.482124
11.185,2.0,1.0,1.0,33.9,33.8,33.8,1.5,2.0,2.5225,0.7428001298467273,-0.02449791721025396,0.6547709522872454,0.017956324127483787,-0.085626,-30.349971
11.185,2.0,1.0,1.0,33.9,33.8,33.8,1.5,2.0,2.525,0.73746684807273,-0.02502939946704126,0.660572442123623,0.018020877434850084,-0.086794,-30.217177
11.185,2.0,1.0,1.0,33.9,33.8,33.8,1.5,2.0,2.5275,0.7320540504662421,-0.025572361595418477,0.6663635852010391,0.018082016660288396,-0.087989,-30.08373
11.185,2.0,1.0,1.0,33.9,33.8,33.8,1.5,2.0,2.53,0.7265607025824665,-0.02612708817750268,0.6721437066845535,0.0181395491632888,-0.089212,-29.94962
11.185,2.0,1.0,1.0,33.9,33.8,33.8,1.5,2.0,2.5325,0.7209857509551426,-0.02669387198253834,0.6779121072575514,0.018193273012477335,-0.090464,-29.814834
11.185,2.0,1.0,1.0,33.9,33.8,33.8,1.5,2.0,2.535,0.7153281227306634,-0.02727301422372491,0.6836680621667812,0.018242976512241632,-0.091746,-29.679361
11.185,2.0,1.0,1.0,33.9,33.8,33.8,1.5,2.0,2.5375,0.7095867252966129,-0.027864824822993163,0.6894108202255795,0.018288437703005634,-0.093058,-29.54319
11.185,2.0,1.0,1.0,33.9,33.8,33.8,1.5,2.0,2.54,0.7037604459048243,-0.02846962268389868,0.6951396027731775,0.01832942383353214,-0.094401,-29.406308
11.185,2.0,1.0,1.0,33.9,33.8,33.8,1.5,2.0,2.5425,0.6978481512890956,-0.029087735972794963,0.7008536025878412,0.018365690803531686,-0.095778,-29.268703
11.185,2.0,1.0,1.0,33.9,33.8,33.8,1.5,2.0,2.545,0.6918486872777326,-0.029719502408439003,0.706551982751471,0.018396982574732434,-0.097187,-29.130362
11.185,2.0,1.0,1.0,33.9,33.8,33.8,1.5,2.0,2.5475,0.6857608784011193,-0.030365269560167562,0.7122338754631361,0.018423030548443898,-0.098632,-28.991273
11.185,2.0,1.0,1.0,33.9,33.8,33.8,1.5,2.0,2.55,0.6795835274945349,-0.03102539515477163,0.7178983807988889,0.01844355290751032,-0.100113,-28.851423
11.185,2.0,1.0,1.0,33.9,33.8,33.8,1.5,2.0,2.5525,0.6733154152965156,-0.031700247392173975,0.7235445654150015,0.01845825392040469,-0.101631,-28.710799
11.185,2.0,1.0,1.0,33.9,33.8,33.8,1.5,2.0,2.555,0.6669553000430559,-0.032390205269999243,0.7291714611916379,0.018466823205057284,-0.103187,-28.569387
11.185,2.0,1.0,1.0,33.9,33.8,33.8,1.5,2.0,2.5575,0.6605019170580274,-0.033095658917097454,0.7347780638137612,0.01846893494984581,-0.104783,-28.427173
11.185,2.0,1.0,1.0,33.9,33.8,33.8,1.5,2.0,2.56,0.6539539783402424,-0.03381700993605364,0.7403633312858734,0.01846424708899053,-0.10642,-28.284144
11.185,2.0,1.0,1.0,33.9,33.8,33.8,1.5,2.0,2.5625,0.6473101721476402,-0.034554671754683464,0.7459261823769849,0.018452400429405536,-0.1081,-28.140285
11.185,2.0,1.0,1.0,33.9,33.8,33.8,1.5,2.0,2.565,0.6405691625791503,-0.03530906998647581,0.7514654949919788,0.018433017725844214,-0.109824,-27.995581
11.185,2.0,1.0,1.0,33.9,33.8,33.8,1.5,2.0,2.5675,0.6337295891548712,-0.03608064279989534,0.7569801044652714,0.018405702700952684,-0.111593,-27.850019
11.185,2.0,1.0,1.0,33.9,33.8,33.8,1.5,2.0,2.57,0.6267900663952722,-0.03686984129640759,0.7624688017724286,0.01837003900659887,-0.11341,-27.703582
11.185,2.0,1.0,1.0,33.9,33.8,33.8,1.5,2.0,2.5725,0.6197491834002289,-0.03767712989703037,0.7679303316550992,0.01832558912258226,-0.115275,-27.556256
11.185,2.0,1.0,1.0,33.9,33.8,33.8,1.5,2.0,2.575,0.6126055034288144,-0.038502986737141184,0.7733633906543216,0.01827189318854442,-0.117192,-27.408024
11.185,2.0,1.0,1.0,33.9,33.8,33.8,1.5,2.0,2.5775,0.6053575634808797,-0.03934790406919531,0.7787666250469352,0.018208467764592767,-0.119161,-27.25887
11.185,2.0,1.0,1.0,33.9,33.8,33.8,1.5,2.0,2.58,0.5980038738815922,-0.040212388672914164,0.7841386286794644,0.018134804515819416,-0.121184,-27.108778
11.185,2.0,1.0,1.0,33.9,33.8,33.8,1.5,2.0,2.5825,0.5905429178702409,-0.041096962272405946,0.789477940693481,0.018050368815536715,-0.123264,-26.957732
11.185,2.0,1.0,1.0,33.9,33.8,33.8,1.5,2.0,2.585,0.582973151194797,-0.04200216195955212,0.7947830431360132,0.017954598261664758,-0.125403,-26.805714
11.185,2.0,1.0,1.0,33.9,33.8,33.8,1.5,2.0,2.5875,0.5752930017138803,-0.04292854062286799,0.8000523584481514,0.017846901100285882,-0.127603,-26.652706
11.185,2.0,1.0,1.0,33.9,33.8,33.8,1.5,2.0,2.59,0.5675008690080124,-0.043876667380883784,0.8052842468245077,0.017726654549928687,-0.129866,-26.498691
11.185,2.0,1.0,1.0,33.9,33.8,33.8,1.5,2.0,2.5925,0.5595951240022413,-0.044847128018922246,0.8104770034356767,0.017593203019651102,-0.132195,-26.34365
11.185,2.0,1.0,1.0,33.9,33.8,33.8,1.5,2.0,2.595,0.5515741086025047,-0.04584052542794477,0.8156288555052856,0.017445856213463173,-0.134592,-26.187564
11.185,2.0,1.0,1.0,33.9,33.8,33.8,1.5,2.0,2.5975,0.5434361353483546,-0.046857480043917044,0.820737959232632,0.017283887113050532,-0.13706,-26.030415
11.185,2.0,1.0,1.0,33.9,33.8,33.8,1.5,2.0,2.6,0.535179487085016,-0.047898630285881184,0.8258023965512366,0.017106529830140403,-0.139602,-25.872183
11.185,2.0,1.0,1.0,33.9,33.8,33.8,1.5,2.0,2.6025,0.5268024166581023,-0.04896463299063202,0.830820171712961,0.01691297731916858,-0.14222,-25.712848
11.185,2.0,1.0,1.0,33.9,33.8,33.8,1.5,2.0,2.605,0.5183031466346986,-0.05005616384156483,0.8357892076865625,0.01670237894017912,-0.144919,-25.552389
11.185,2.0,1.0,1.0,33.9,33.8,33.8,1.5,2.0,2.6075,0.5096798690549951,-0.05117391778887977,0.8407073423587501,0.016473837861086606,-0.147701,-25.390785
11.185,2.0,1.0,1.0,33.9,33.8,33.8,1.5,2.0,2.61,0.5009307452191585,-0.052318609457903925,0.8455723245248984,0.016226408287570507,-0.15057,-25.228016
11.185,2.0,1.0,1.0,33.9,33.8,33.8,1.5,2.0,2.6125,0.4920539055146806,-0.053490973541804265,0.8503818096556358,0.015959092507930508,-0.153529,-25.064058
11.185,2.0,1.0,1.0,33.9,33.8,33.8,1.5,2.0,2.615,0.48304744929009547,-0.054691765174417234,0.8551333554244638,0.0156708377392149,-0.156582,-24.898889
11.185,2.0,1.0,1.0,33.9,33.8,33.8,1.5,2.0,2.6175,0.47390944478168084,-0.05592176027828699,0.8598244169804312,0.01536053275982637,-0.159733,-24.732487
11.185,2.0,1.0,1.0,33.9,33.8,33.8,1.5,2.0,2.62,0.46463792910055873,-0.05718175588230366,0.8644523419486634,0.01502700431260861,-0.162987,-24.564827
11.185,2.0,1.0,1.0,33.9,33.8,33.8,1.5,2.0,2.6225,0.4552309082885063,-0.05847257040251996,0.8690143651402313,0.0146690132611076,-0.166348,-24.395886
11.185,2.0,1.0,1.0,33.9,33.8,33.8,1.5,2.0,2.625,0.445686357451861,-0.0597950438788105,0.873507602951358,0.0142852504802847,-0.169821,-24.225639
11.185,2.0,1.0,1.0,33.9,33.8,33.8,1.5,2.0,2.6275,0.4360022209839894,-0.061150038159001316,0.8779290474304472,0.01387433246141073,-0.173411,-24.054059
11.185,2.0,1.0,1.0,33.9,33.8,33.8,1.5,2.0,2.63,0.4261764128881581,-0.06253843702091172,0.8822755599896677,0.013434796609193698,-0.177123,-23.881122
11.185,2.0,1.0,1.0,33.9,33.8,33.8,1.5,2.0,2.6325,0.41620681721407776,-0.06396114622140874,0.8865438647360082,0.012965096207363325,-0.180962,-23.706799
11.185,2.0,1.0,1.0,33.9,33.8,33.8,1.5,2.0,2.635,0.4060912886230719,-0.06541909346005145,0.8907305413946977,0.012463595026952911,-0.184935,-23.531065
11.185,2.0,1.0,1.0,33.9,33.8,33.8,1.5,2.0,2.6375,0.39582765309869805,-0.06691322824315982,0.8948320177957111,0.011928561549355168,-0.189048,-23.35389
11.185,2.0,1.0,1.0,33.9,33.8,33.8,1.5,2.0,2.64,0.38541370882177195,-0.06844452163217492,0.8988445618917071,0.011358162773883983,-0.193308,-23.175246
11.185,2.0,1.0,1.0,33.9,33.8,33.8,1.5,2.0,2.6425,0.37484722723117436,-0.07001396585792094,0.90276427327318,0.010750457577013279,-0.197721,-22.995102
11.185,2.0,1.0,1.0,33.9,33.8,33.8,1.5,2.0,2.645,0.3641259542945362,-0.07162257377982212,0.9065870741438032,0.010103389587698493,-0.202296,-22.813429
11.185,2.0,1.0,1.0,33.9,33.8,33.8,1.5,2.0,2.6475,0.3532476120160102,-0.07327137816620762,0.9103086997159459,0.009414779540156421,-0.20704,-22.630196
11.185,2.0,1.0,1.0,33.9,33.8,33.8,1.5,2.0,2.65,0.3422099002118427,-0.0749614307685092,0.9139246879829984,0.008682317062213696,-0.211961,-22.445369
11.185,2.0,1.0,1.0,33.9,33.8,33.8,1.5,2.0,2.6525,0.33101049858850645,-0.07669380115835465,0.9174303688216386,0.007903551853770872,-0.21707,-22.258916
11.185,2.0,1.0,1.0,33.9,33.8,33.8,1.5,2.0,2.655,0.319647069162641,-0.07846957529223411,0.9208208523732669,0.007075884206073965,-0.222374,-22.070803
11.185,2.0,1.0,1.0,33.9,33.8,33.8,1.5,2.0,2.6575,0.3081172590672912,-0.08028985376345356,0.924091016649669,0.006196554808300119,-0.227885,-21.880995
11.185,2.0,1.0,1.0,33.9,33.8,33.8,1.5,2.0,2.66,0.2964187037947978,-0.08215574969543983,0.927235494303451,0.005262633783442566,-0.233613,-21.689457
11.185,2.0,1.0,1.0,33.9,33.8,33.8,1.5,2.0,2.6625,0.28454903093347605,-0.08406838622397912,0.9302486584988784,0.004271008890583996,-0.239571,-21.496151
11.185,2.0,1.0,1.0,33.9,33.8,33.8,1.5,2.0,2.665,0.27250586446283753,-0.08602889350857168,0.9331246078135124,0.0032183728253639757,-0.245769,-21.301039
11.185,2.0,1.0,1.0,33.9,33.8,33.8,1.5,2.0,2.6675,0.26028682968097183,-0.08803840520459148,0.9358571500953436,0.0021012095447634524,-0.252223,-21.104083
11.185,2.0,1.0,1.0,33.9,33.8,33.8,1.5,2.0,2.67,0.24788955884767933,-0.09009805431822089,0.9384397851940511,0.0009157795362096394,-0.258945,-20.905243
11.185,2.0,1.0,1.0,33.9,33.8,33.8,1.5,2.0,2.6725,0.23531169763846976,-0.09220896835497978,0.9408656864784816,-0.0003418960555409591,-0.265951,-20.704477
11.185,2.0,1.0,1.0,33.9,33.8,33.8,1.5,2.0,2.675,0.22255091251770573,-0.09437226365986602,0.943127681045507,-0.0016760525372759055,-0.273257,-20.501743
11.185,2.0,1.0,1.0,33.9,33.8,33.8,1.5,2.0,2.6775,0.2096048991542243,-0.09658903883242813,0.9452182285180365,-0.0030912001129285286,-0.280882,-20.296997
11.185,2.0,1.0,1.0,33.9,33.8,33.8,1.5,2.0,2.68,0.19647139202011132,-0.0988603670832077,0.9471293983221313,-0.004592143774739334,-0.288842,-20.090195
11.185,2.0,1.0,1.0,33.9,33.8,33.8,1.5,2.0,2.6825,0.18314817533314506,-0.10118728737855315,0.9488528453250441,-0.006184004757067417,-0.297159,-19.88129
11.185,2.0,1.0,1.0,33.9,33.8,33.8,1.5,2.0,2.685,0.16963309552625566,-0.10357079419847313,0.9503797837074268,-0.007872243678554179,-0.305854,-19.670236
11.185,2.0,1.0,1.0,33.9,33.8,33.8,1.5,2.0,2.6875,0.155924075453614,-0.106011825706449,0.951700958934219,-0.0096626855072171,-0.314951,-19.456982
11.185,2.0,1.0,1.0,33.9,33.8,33.8,1.5,2.0,2.69,0.14201913057315105,-0.10851125010048276,0.9528066176798253,-0.0115615464920818,-0.324474,-19.24148
11.185,2.0,1.0,1.0,33.9,33.8,33.8,1.5,2.0,2.6925,0.12791638738008354,-0.1110698498804816,0.9536864755542986,-0.013575463213998155,-0.334451,-19.023678
11.185,2.0,1.0,1.0,33.9,33.8,33.8,1.5,2.0,2.695,0.11361410440611656,-0.11368830372764042,0.9543296824686494,-0.015711523917073145,-0.34491,-18.803522
11.185,2.0,1.0,1.0,33.9,33.8,33.8,1.5,2.0,2.6975,0.09911069614514512,-0.1163671656460135,0.954724785469343,-0.017977302290435423,-0.355884,-18.580958
11.185,2.0,1.0,1.0,33.9,33.8,33.8,1.5,2.0,2.7,0.08440476031961225,-0.11910684096392543,0.954859688864944,-0.020380893877376745,-0.367406,-18.35593
11.185,2.0,1.0,1.0,33.9,33.8,33.8,1.5,2.0,2.7025,0.06949510896307806,-0.12190755873224007,0.9547216114623438,-0.022930955294798033,-0.379514,-18.128381
11.185,2.0,1.0,1.0,33.9,33.8,33.8,1.5,2.0,2.705,0.05438080386558179,-0.1247693399864386,0.9542970407265907,-0.025636746449601507,-0.392248,-17.898252
11.185,2.0,1.0,1.0,33.9,33.8,33.8,1.5,2.0,2.7075,0.039061197010229774,-0.12769196125853882,0.9535716836781554,-0.028508175939324483,-0.405652,-17.665482
11.185,2.0,1.0,1.0,33.9,33.8,33.8,1.5,2.0,2.71,0.02353597672401401,-0.13067491263138645,0.952530414345555,-0.03155584982071956,-0.419772,-17.430009
11.185,2.0,1.0,1.0,33.9,33.8,33.8,1.5,2.0,2.7125,0.007805220375001003,-0.13371734951987113,0.9511572176011874,-0.03479112392064733,-0.434661,-17.19177
11.185,2.0,1.0,1.0,33.9,33.8,33.8,1.5,2.0,2.715,-0.008130545426004082,-0.13681803723893604,0.9494351292260014,-0.03822615984660179,-0.450376,-16.950699
11.185,2.0,1.0,1.0,33.9,33.8,33.8,1.5,2.0,2.7175,-0.0242702760159877,-0.13997528727436975,0.9473461720766954,-0.041873984826957644,-0.466976,-16.706731
11.185,2.0,1.0,1.0,33.9,33.8,33.8,1.5,2.0,2.72,-0.040612329991721534,-0.14318688400650176,0.9448712882707926,-0.045748555470431135,-0.484531,-16.459797
11.185,2.0,1.0,1.0,33.9,33.8,33.8,1.5,2.0,2.7225,-0.05715437917985579,-0.14645000044589063,0.9419902673641484,-0.049864825476225116,-0.503113,-16.209828
11.185,2.0,1.0,1.0,33.9,33.8,33.8,1.5,2.0,2.725,-0.07389330558027679,-0.14976110132047582,0.9386816705775054,-0.05423881724574301,-0.522804,-15.956755
11.185,2.0,1.0,1.0,33.9,33.8,33.8,1.5,2.0,2.7275,-0.09082508334410684,-0.15311583160169803,0.9349227512401528,-0.058887697237105414,-0.543691,-15.700505
11.185,2.0,1.0,1.0,33.9,33.8,33.8,1.5,2.0,2.73,-0.1079446435571887,-0.15650888826875245,0.9306893717678648,-0.06382985475668218,-0.565872,-15.441007
11.185,2.0,1.0,1.0,33.9,33.8,33.8,1.5,2.0,2.7325,-0.12524571926896685,-0.15993387278137822,0.9259559176895908,-0.06908498368713059,-0.589455,-15.178187
11.185,2.0,1.0,1.0,33.9,33.8,33.8,1.5,2.0,2.735,-0.1427206678310032,-0.16338312135833802,0.9206952094960686,-0.07467416639581323,-0.614558,-14.911973
11.185,2.0,1.0,1.0,33.9,33.8,33.8,1.5,2.0,2.7375,-0.1603602671855354,-0.16684750973737558,0.914878413420181,-0.08061995873458258,-0.641312,-14.642292
11.185,2.0,1.0,1.0,33.9,33.8,33.8,1.5,2.0,2.74,-0.17815348226954875,-0.17031622862017423,0.9084749526941994,-0.08694647461108333,-0.66986,-14.36907
11.185,2.0,1.0,1.0,33.9,33.8,33.8,1.5,2.0,2.7425,-0.19608719717298068,-0.17377652548151235,0.90145242138895,-0.09367946805732477,-0.700364,-14.092236
11.185,2.0,1.0,1.0,33.9,33.8,33.8,1.5,2.0,2.745,-0.21414590811187942,-0.17721340784671608,0.8937765036564709,-0.10084641001131918,-0.733001,-13.81172
11.185,2.0,1.0,1.0,33.9,33.8,33.8,1.5,2.0,2.7475,-0.23231137165482868,-0.18060930252121665,0.8854109021106128,-0.1084765561227125,-0.767969,-13.527453
11.185,2.0,1.0,1.0,33.9,33.8,33.8,1.5,2.0,2.75,-0.250562201984898,-0.18394366460206,0.876317280237887,-0.11660100074507,-0.805488,-13.239371
11.185,2.0,1.0,1.0,33.9,33.8,33.8,1.5,2.0,2.7525,-0.2688734103112448,-0.1871925294343367,0.8664552251930152,-0.125252710826901,-0.845803,-12.947413
11.185,2.0,1.0,1.0,33.9,33.8,33.8,1.5,2.0,2.755,-0.2872158788983634,-0.19032800002956082,0.8557822391716258,-0.1344665315894244,-0.88919,-12.651522
11.185,2.0,1.0,1.0,33.9,33.8,33.8,1.5,2.0,2.7575,-0.30555576160989006,-0.19331766189054625,0.8442537698512169,-0.1442791535969097,-0.935956,-12.351651
11.185,2.0,1.0,1.0,33.9,33.8,33.8,1.5,2.0,2.76,-0.3238538024473008,-0.19612391676704835,0.8318232932506677,-0.15472902798595148,-0.986445,-12.04776
11.185,2.0,1.0,1.0,33.9,33.8,33.8,1.5,2.0,2.7625,-0.3420645634180142,-0.1987032267133428,0.8184424658915352,-0.165856213110164,-1.041046,-11.739819
11.185,2.0,1.0,1.0,33.9,33.8,33.8,1.5,2.0,2.765,-0.36013555335750536,-0.20100526009728978,0.8040613674769761,-0.1777021315511328,-1.100195,-11.427811
11.185,2.0,1.0,1.0,33.9,33.8,33.8,1.5,2.0,2.7675,-0.3780062502891452,-0.2029719321510765,0.788628860567879,-0.19030921121358546,-1.164384,-11.111738
11.185,2.0,1.0,1.0,33.9,33.8,33.8,1.5,2.0,2.77,-0.39560701185383956,-0.20453633457519935,0.7720931000576627,-0.203720377935732,-1.234169,-10.791616
11.185,2.0,1.0,1.0,33.9,33.8,33.8,1.5,2.0,2.7725,-0.4128578717149386,-0.20562155204175003,0.7544022327292496,-0.21797835960183967,-1.310182,-10.467489
11.185,2.0,1.0,1.0,33.9,33.8,33.8,1.5,2.0,2.775,-0.42966722522210804,-0.20613936876731384,0.735505335865077,-0.23312475309705605,-1.393135,-10.139426
11.185,2.0,1.0,1.0,33.9,33.8,33.8,1.5,2.0,2.7775,-0.44593041575938325,-0.20598887639334265,0.7153536537104387,-0.2491987956550439,-1.483841,-9.80753
11.185,2.0,1.0,1.0,33.9,33.8,33.8,1.5,2.0,2.78,-0.46152824507382234,-0.20505500618439243,0.6939022013130358,-0.26623577146195593,-1.583224,-9.471944
11.185,2.0,1.0,1.0,33.9,33.8,33.8,1.5,2.0,2.7825,-0.47632544767837964,-0.20320702522226067,0.6711118163297298,-0.2842649733368008,-1.692337,-9.132855
11.185,2.0,1.0,1.0,33.9,33.8,33.8,1.5,2.0,2.785,-0.49016919256579805,-0.20029705925120536,0.6469517497990216,-0.30330712890445777,-1.812382,-8.790507
11.185,2.0,1.0,1.0,33.9,33.8,33.8,1.5,2.0,2.7875,-0.5028877065480432,-0.19615873569952852,0.6214028949467358,-0.3233711925771786,-1.944736,-8.445207
11.185,2.0,1.0,1.0,33.9,33.8,33.8,1.5,2.0,2.79,-0.5142891541600838,-0.19060608077502034,0.5944617561975525,-0.34445040146821093,-2.090972,-8.097334
11.185,2.0,1.0,1.0,33.9,33.8,33.8,1.5,2.0,2.7925,-0.5241609605806212,-0.18343285575201823,0.5661452548134507,-0.36651749894334307,-2.252895,-7.747355
11.185,2.0,1.0,1.0,33.9,33.8,33.8,1.5,2.0,2.795,-0.5322698269879897,-0.17441258020913097,0.5364964474748478,-0.3895190493347138,-2.432577,-7.395831
11.185,2.0,1.0,1.0,33.9,33.8,33.8,1.5,2.0,2.7975,-0.5383627611387731,-0.16329956301826923,0.5055911923054008,-0.41336880871106063,-2.632395,-7.043438
11.185,2.0,1.0,1.0,33.9,33.8,33.8,1.5,2.0,2.8,-0.5421695258472813,-0.14983134149200664,0.4735457240835737,-0.4379401887080303,-2.855082,-6.690973
11.185,2.0,1.0,1.0,33.9,33.8,33.8,1.5,2.0,2.8025,-0.5434069860637166,-0.1337330069556264,0.44052498607899454,-0.46305796383506204,-3.103774,-6.339373
11.185,2.0,1.0,1.0,33.9,33.8,33.8,1.5,2.0,2.805,-0.5417858964712221,-0.11472395631276702,0.40675139955532114,-0.48848953791301813,-3.382075,-5.989725
11.185,2.0,1.0,1.0,33.9,33.8,33.8,1.5,2.0,2.8075,-0.5370206924411264,-0.09252763057446517,0.3725135259039211,-0.5139363099677201,-3.694119,-5.643278
11.185,2.0,1.0,1.0,33.9,33.8,33.8,1.5,2.0,2.81,-0.5288427944454862,-0.06688474966190619,0.3381737908567374,-0.5390259638580357,-4.044639,-5.301448
11.185,2.0,1.0,1.0,33.9,33.8,33.8,1.5,2.0,2.8125,-0.517017767311427,-0.0375703859678069,0.304174110465833,-0.563306834164191,-4.439035,-4.965823
11.185,2.0,1.0,1.0,33.9,33.8,33.8,1.5,2.0,2.815,-0.5013663448437095,-0.004414891168448138,0.2710379234806579,-0.5862458348079758,-4.883442,-4.638158
11.185,2.0,1.0,1.0,33.9,33.8,33.8,1.5,2.0,2.8175,-0.4817887989975376,0.03267183669097014,0.23936686549575895,-0.607231705949984,-5.38476,-4.320357
11.185,2.0,1.0,1.0,33.9,33.8,33.8,1.5,2.0,2.82,-0.4582913903113959,0.07367399662710712,0.20983022358596234,-0.6255854327612994,-5.950642,-4.014448
11.185,2.0,1.0,1.0,33.9,33.8,33.8,1.5,2.0,2.8225,-0.43101272672534935,0.11844359421266636,0.18314552054216898,-0.640579482917796,-6.589331,-3.722543
11.185,2.0,1.0,1.0,33.9,33.8,33.8,1.5,2.0,2.825,-0.4002469073985226,0.16667731929688903,0.160049229989113,-0.6514668638424391,-7.309231,-3.446787
11.185,2.0,1.0,1.0,33.9,33.8,33.8,1.5,2.0,2.8275,-0.36645955926201934,0.21790046154498388,0.1412578016699978,-0.6575198316580526,-8.11785,-3.18928
11.185,2.0,1.0,1.0,33.9,33.8,33.8,1.5,2.0,2.83,-0.3302925869756052,0.27146202310622103,0.1274208449739786,-0.6580764255580037,-9.019475,-2.952009
