1,w,sub_t,h,l1,l2,l3,g1,g2,Freq,S11_re,S21_re,S11_img,S21_img,S11_dB,S21_dB
11.185,2.0,1.0,1.0,33.2,33.4,33.4,3.2,2.6,2.5,0.880578737549229,-0.00618692044716083,0.461410310132501,0.00594832360167506,-0.051031,-41.327651
11.185,2.0,1.0,1.0,33.2,33.4,33.4,3.2,2.6,2.5025,0.8776030398002599,-0.006315555584154032,0.4669372867795947,0.005982850021975243,-0.051474,-41.210146
11.185,2.0,1.0,1.0,33.2,33.4,33.4,3.2,2.6,2.505,0.8745805818776407,-0.00644647784833416,0.47246566155292674,0.006016963191191039,-0.051925,-41.092386
11.185,2.0,1.0,1.0,33.2,33.4,33.4,3.2,2.6,2.5075,0.8715109256105202,-0.00657973234321788,0.47799525851943286,0.006050641290201965,-0.052383,-40.974362
11.185,2.0,1.0,1.0,33.2,33.4,33.4,3.2,2.6,2.51,0.8683936257983326,-0.006715365295780428,0.4835258964837344,0.006083861677440355,-0.052849,-40.856066
11.185,2.0,1.0,1.0,33.2,33.4,33.4,3.2,2.6,2.5125,0.8652282300899379,-0.006853424090314458,0.48905738881507066,0.0061166008555414205,-0.053323,-40.73749
11.185,2.0,1.0,1.0,33.2,33.4,33.4,3.2,2.6,2.515,0.8620142788606774,-0.006993957303489036,0.49458954326854043,0.006148834436494046,-0.053805,-40.618627
11.185,2.0,1.0,1.0,33.2,33.4,33.4,3.2,2.6,2.5175,0.8587513050873166,-0.007137014740658242,0.5001221618004301,0.00618053710521823,-0.054295,-40.499468
11.185,2.0,1.0,1.0,33.2,33.4,33.4,3.2,2.6,2.52,0.8554388342208338,-0.007282647473471537,0.5056550403774362,0.006211682581488407,-0.054793,-40.380004
11.185,2.0,1.0,1.0,33.2,33.4,33.4,3.2,2.6,2.5225,0.8520763840570313,-0.007430907878839641,0.5111879687795323,0.006242243580119046,-0.055301,-40.260229
11.185,2.0,1.0,1.0,33.2,33.4,33.4,3.2,2.6,2.525,0.8486634646049249,-0.00758184967931355,0.516720730396276,0.006272191769323104,-0.055817,-40.140132
11.185,2.0,1.0,1.0,33.2,33.4,33.4,3.2,2.6,2.5275,0.8451995779528807,-0.007735527984935921,0.5222531020162993,0.006301497727149567,-0.056342,-40.019707
11.185,2.0,1.0,1.0,33.2,33.4,33.4,3.2,2.6,2.53,0.8416842181324656,-0.007891999336627528,0.5277848536097363,0.006330130895899856,-0.056876,-39.898943
11.185,2.0,1.0,1.0,33.2,33.4,33.4,3.2,2.6,2.5325,0.838116870979974,-0.008051321751174376,0.5333157481033215,0.006358059534418166,-0.05742,-39.777832
11.185,2.0,1.0,1.0,33.2,33.4,33.4,3.2,2.6,2.535,0.8344970139955914,-0.008213554767884497,0.5388455411478992,0.006385250668143696,-0.057974,-39.656367
11.185,2.0,1.0,1.0,33.2,33.4,33.4,3.2,2.6,2.5375,0.8308241162001673,-0.008378759496986242,0.5443739808780402,0.00641167003680673,-0.058537,-39.534536
11.185,2.0,1.0,1.0,33.2,33.4,33.4,3.2,2.6,2.54,0.8270976379895499,-0.00854699866984435,0.5499008076634846,0.006437282039643028,-0.059111,-39.412333
11.185,2.0,1.0,1.0,33.2,33.4,33.4,3.2,2.6,2.5425,0.8233170309864508,-0.008718336691073131,0.5554257538520968,0.006462049677993902,-0.059695,-39.289746
11.185,2.0,1.0,1.0,33.2,33.4,33.4,3.2,2.6,2.545,0.8194817378897992,-0.008892839692630434,0.5609485435040102,0.006485934495150915,-0.06029,-39.166768
11.185,2.0,1.0,1.0,33.2,33.4,33.4,3.2,2.6,2.5475,0.8155911923215522,-0.009070575589979897,0.5664688921166162,0.006508896513295836,-0.060896,-39.043388
11.185,2.0,1.0,1.0,33.2,33.4,33.4,3.2,2.6,2.55,0.8116448186709093,-0.009251614140414604,0.5719865063400652,0.006530894167377403,-0.061513,-38.919598
11.185,2.0,1.0,1.0,33.2,33.4,33.4,3.2,2.6,2.5525,0.8076420319359098,-0.009436027003637736,0.5775010836828833,0.006551884235756095,-0.062142,-38.795386
11.185,2.0,1.0,1.0,33.2,33.4,33.4,3.2,2.6,2.555,0.803582237562354,-0.009623887804703631,0.5830123122073465,0.006571821767438821,-0.062783,-38.670745
11.185,2.0,1.0,1.0,33.2,33.4,33.4,3.2,2.6,2.5575,0.7994648312800187,-0.009815272199425401,0.5885198702141979,0.006590660005712605,-0.063435,-38.545662
11.185,2.0,1.0,1.0,33.2,33.4,33.4,3.2,2.6,2.56,0.7952891989361189,-0.01001025794236239,0.5940234259162833,0.006608350307976028,-0.0641,-38.42013
11.185,2.0,1.0,1.0,33.2,33.4,33.4,3.2,2.6,2.5625,0.7910547163259791,-0.010208924957506022,0.5995226371006751,0.006624842061553309,-0.064778,-38.294136
11.185,2.0,1.0,1.0,33.2,33.4,33.4,3.2,2.6,2.565,0.7867607490208606,-0.010411355411789044,0.6050171507788168,0.006640082595262389,-0.065469,-38.167671
11.185,2.0,1.0,1.0,33.2,33.4,33.4,3.2,2.6,2.5675,0.7824066521929116,-0.010617633791549334,0.6105066028242052,0.0066540170864940115,-0.066174,-38.040724
11.185,2.0,1.0,1.0,33.2,33.4,33.4,3.2,2.6,2.57,0.7779917704371863,-0.010827846982087266,0.6159906175971063,0.006666588463542217,-0.066892,-37.913285
11.185,2.0,1.0,1.0,33.2,33.4,33.4,3.2,2.6,2.5725,0.7735154375906871,-0.011042084350462174,0.6214688075557757,0.006677737302911229,-0.067624,-37.785341
11.185,2.0,1.0,1.0,33.2,33.4,33.4,3.2,2.6,2.575,0.7689769765483853,-0.01126043783168176,0.6269407728536243,0.006687401721303456,-0.068371,-37.656883
11.185,2.0,1.0,1.0,33.2,33.4,33.4,3.2,2.6,2.5775,0.7643756990761661,-0.011483002018446717,0.632406100921746,0.006695517261975441,-0.069132,-37.527898
11.185,2.0,1.0,1.0,33.2,33.4,33.4,3.2,2.6,2.58,0.7597109056206544,-0.01170987425462074,0.6378643660361918,0.006702016775127164,-0.06991,-37.398375
11.185,2.0,1.0,1.0,33.2,33.4,33.4,3.2,2.6,2.5825,0.7549818851158591,-0.011941154732607217,0.6433151288693538,0.006706830291967234,-0.070702,-37.268303
11.185,2.0,1.0,1.0,33.2,33.4,33.4,3.2,2.6,2.585,0.7501879147865905,-0.012176946594821507,0.6487579360247692,0.006709884892072209,-0.071511,-37.137668
11.185,2.0,1.0,1.0,33.2,33.4,33.4,3.2,2.6,2.5875,0.7453282599485879,-0.012417356039460427,0.6541923195546482,0.0067111045636325814,-0.072337,-37.00646
11.185,2.0,1.0,1.0,33.2,33.4,33.4,3.2,2.6,2.59,0.740402173805306,-0.01266249243077986,0.659617796459359,0.006710410056149692,-0.073179,-36.874666
11.185,2.0,1.0,1.0,33.2,33.4,33.4,3.2,2.6,2.5925,0.7354088972412911,-0.01291246841410484,0.6650338681680975,0.006707718725117027,-0.074039,-36.742272
11.185,2.0,1.0,1.0,33.2,33.4,33.4,3.2,2.6,2.595,0.730347658612096,-0.013167400035807226,0.6704400199998899,0.006702944368187182,-0.074918,-36.609266
11.185,2.0,1.0,1.0,33.2,33.4,33.4,3.2,2.6,2.5975,0.725217673530655,-0.013427406868501374,0.6758357206040738,0.006695997052290008,-0.075814,-36.475635
11.185,2.0,1.0,1.0,33.2,33.4,33.4,3.2,2.6,2.6,0.7200181446500572,-0.013692612141720906,0.6812204213793173,0.006686782931130134,-0.07673,-36.341365
11.185,2.0,1.0,1.0,33.2,33.4,33.4,3.2,2.6,2.6025,0.7147482614426484,-0.01396314287835473,0.6865935558702004,0.006675204052449293,-0.077666,-36.206442
11.185,2.0,1.0,1.0,33.2,33.4,33.4,3.2,2.6,2.605,0.7094071999753789,-0.014239130037137785,0.6919545391403351,0.006661158154396718,-0.078621,-36.070853
11.185,2.0,1.0,1.0,33.2,33.4,33.4,3.2,2.6,2.6075,0.7039941226813219,-0.01452070866150686,0.6973027671209254,0.006644538450300065,-0.079598,-35.934583
11.185,2.0,1.0,1.0,33.2,33.4,33.4,3.2,2.6,2.61,0.6985081781272802,-0.014808018035151657,0.7026376159336142,0.006625233401079297,-0.080596,-35.797618
11.185,2.0,1.0,1.0,33.2,33.4,33.4,3.2,2.6,2.6125,0.6929485007773879,-0.015101201844609096,0.7079584411863941,0.006603126474488441,-0.081616,-35.659942
11.185,2.0,1.0,1.0,33.2,33.4,33.4,3.2,2.6,2.615,0.6873142107526138,-0.015400408349269944,0.7132645772412947,0.006578095890309087,-0.082658,-35.52154
11.185,2.0,1.0,1.0,33.2,33.4,33.4,3.2,2.6,2.6175,0.6816044135860693,-0.01570579055918792,0.7185553364524576,0.006550014350553407,-0.083725,-35.382396
11.185,2.0,1.0,1.0,33.2,33.4,33.4,3.2,2.6,2.62,0.675818199974015,-0.016017506421104305,0.7238300083731524,0.006518748753662144,-0.084815,-35.242495
11.185,2.0,1.0,1.0,33.2,33.4,33.4,3.2,2.6,2.6225,0.6699546455224434,-0.01633571901312612,0.7290878589301856,0.00648415989160444,-0.08593,-35.10182
11.185,2.0,1.0,1.0,33.2,33.4,33.4,3.2,2.6,2.625,0.664012810489138,-0.0166605967485202,0.73432812956404,0.00644610212870282,-0.087071,-34.960355
11.185,2.0,1.0,1.0,33.2,33.4,33.4,3.2,2.6,2.6275,0.6579917395210516,-0.016992313589114953,0.7395500363330131,0.006404423060911624,-0.088238,-34.818081
11.185,2.0,1.0,1.0,33.2,33.4,33.4,3.2,2.6,2.63,0.6518904613868941,-0.01733104926882886,0.7447527689794712,0.006358963154179109,-0.089433,-34.674983
11.185,2.0,1.0,1.0,33.2,33.4,33.4,3.2,2.6,2.6325,0.6457079887047591,-0.0176769895278769,0.7499354899562349,0.006309555360412029,-0.090656,-34.531041
11.185,2.0,1.0,1.0,33.2,33.4,33.4,3.2,2.6,2.635,0.6394433176646476,-0.018030326358238074,0.7550973334109744,0.006256024709442268,-0.091908,-34.386237
11.185,2.0,1.0,1.0,33.2,33.4,33.4,3.2,2.6,2.6375,0.6330954277457154,-0.018391258261002196,0.7602374041263339,0.006198187875265485,-0.09319,-34.240552
11.185,2.0,1.0,1.0,33.2,33.4,33.4,3.2,2.6,2.64,0.626663281428053,-0.01875999051625198,0.7653547764133768,0.006135852714678349,-0.094504,-34.093967
11.185,2.0,1.0,1.0,33.2,33.4,33.4,3.2,2.6,2.6425,0.6201458238988156,-0.019136735466173272,0.7704484929557388,0.006068817776285061,-0.095849,-33.946463
11.185,2.0,1.0,1.0,33.2,33.4,33.4,3.2,2.6,2.645,0.6135419827524858,-0.019521712812130224,0.7755175636017148,0.005996871777675674,-0.097228,-33.798017
11.185,2.0,1.0,1.0,33.2,33.4,33.4,3.2,2.6,2.6475,0.6068506676850494,-0.019915149926483983,0.7805609641012906,0.005919793048389076,-0.098641,-33.648611
11.185,2.0,1.0,1.0,33.2,33.4,33.4,3.2,2.6,2.65,0.6000707701818278,-0.02031728217998142,0.7855776347849239,0.005837348936073275,-0.100089,-33.498221
11.185,2.0,1.0,1.0,33.2,33.4,33.4,3.2,2.6,2.6525,0.5932011631987334,-0.02072835328558733,0.790566479180614,0.005749295173028611,-0.101575,-33.346826
11.185,2.0,1.0,1.0,33.2,33.4,33.4,3.2,2.6,2.655,0.5862407008366415,-0.021148615659687307,0.7955263625655726,0.005655375200075928,-0.103098,-33.194404
11.185,2.0,1.0,1.0,33.2,33.4,33.4,3.2,2.6,2.6575,0.5791882180085949,-0.02157833080164148,0.8004561104484879,0.005555319444421563,-0.104661,-33.040931
11.185,2.0,1.0,1.0,33.2,33.4,33.4,3.2,2.6,2.66,0.572042530099516,-0.022017769692726723,0.8053545069780857,0.00544884454789467,-0.106265,-32.886382
11.185,2.0,1.0,1.0,33.2,33.4,33.4,3.2,2.6,2.6625,0.5648024326180864,-0.022467213215564583,0.8102202932733272,0.005335652541606007,-0.107911,-32.730733
11.185,2.0,1.0,1.0,33.2,33.4,33.4,3.2,2.6,2.665,0.5574667008404159,-0.022926952595196518,0.8150521656702279,0.005215429962718285,-0.109601,-32.573959
11.185,2.0,1.0,1.0,33.2,33.4,33.4,3.2,2.6,2.6675,0.550034089445126,-0.02339728986303111,0.8198487738798446,0.005087846908623046,-0.111337,-32.416034
11.185,2.0,1.0,1.0,33.2,33.4,33.4,3.2,2.6,2.67,0.5425033321394171,-0.02387853834495861,0.8246087190515397,0.004952556023380417,-0.11312,-32.25693
11.185,2.0,1.0,1.0,33.2,33.4,33.4,3.2,2.6,2.6725,0.5348731412756764,-0.02437102317499779,0.8293305517351262,0.004809191410797126,-0.114952,-32.09662
11.185,2.0,1.0,1.0,33.2,33.4,33.4,3.2,2.6,2.675,0.5271422074581649,-0.024875081835913103,0.8340127697349365,0.004657367467984546,-0.116836,-31.935075
11.185,2.0,1.0,1.0,33.2,33.4,33.4,3.2,2.6,2.6775,0.5193091991392822,-0.02539106472831582,0.8386538158482535,0.004496677632646172,-0.118772,-31.772265
11.185,2.0,1.0,1.0,33.2,33.4,33.4,3.2,2.6,2.68,0.5113727622048867,-0.025919335769839187,0.8432520754798741,0.0043266930366930734,-0.120764,-31.60816
11.185,2.0,1.0,1.0,33.2,33.4,33.4,3.2,2.6,2.6825,0.5033315195481313,-0.026460273026054613,0.8478058741238156,0.004146961058057339,-0.122813,-31.442729
11.185,2.0,1.0,1.0,33.2,33.4,33.4,3.2,2.6,2.685,0.49518407063124414,-0.027014269374874177,0.8523134747023581,0.003957003761769334,-0.124921,-31.275939
11.185,2.0,1.0,1.0,33.2,33.4,33.4,3.2,2.6,2.6875,0.48692899103466875,-0.027581733206261012,0.8567730747517018,0.0037563162204700892,-0.127092,-31.107757
11.185,2.0,1.0,1.0,33.2,33.4,33.4,3.2,2.6,2.69,0.47856483199297545,-0.028163089159142275,0.8611828034424817,0.0035443647035318785,-0.129328,-30.938147
11.185,2.0,1.0,1.0,33.2,33.4,33.4,3.2,2.6,2.6925,0.4700901199169235,-0.028758778897492298,0.8655407184222794,0.0033205847228529022,-0.131631,-30.767075
11.185,2.0,1.0,1.0,33.2,33.4,33.4,3.2,2.6,2.695,0.46150335590109715,-0.029369261927613716,0.869844802465974,0.003084378922152267,-0.134005,-30.594502
11.185,2.0,1.0,1.0,33.2,33.4,33.4,3.2,2.6,2.6975,0.452803015216502,-0.02999501645870416,0.8740929599184019,0.0028351147952105226,-0.136453,-30.420391
11.185,2.0,1.0,1.0,33.2,33.4,33.4,3.2,2.6,2.7,0.44398754678758917,-0.030636540308835558,0.8782830129121979,0.002572122216956894,-0.138977,-30.244701
11.185,2.0,1.0,1.0,33.2,33.4,33.4,3.2,2.6,2.7025,0.43505537265318145,-0.031294351858503405,0.8824126973419536,0.00229469076957401,-0.141581,-30.067393
11.185,2.0,1.0,1.0,33.2,33.4,33.4,3.2,2.6,2.705,0.4260048874108803,-0.031968991053907075,0.8864796585738449,0.0020020668438544623,-0.14427,-29.888422
11.185,2.0,1.0,1.0,33.2,33.4,33.4,3.2,2.6,2.7075,0.41683445764461385,-0.03266102046210297,0.8904814468676976,0.001693450493868248,-0.147046,-29.707745
11.185,2.0,1.0,1.0,33.2,33.4,33.4,3.2,2.6,2.71,0.4075424213351502,-0.033371026380114494,0.8944155124859606,0.0013679920205599404,-0.149914,-29.525317
11.185,2.0,1.0,1.0,33.2,33.4,33.4,3.2,2.6,2.7125,0.39812708725356827,-0.034099619999983524,0.8982792004613033,0.001024788257142711,-0.152879,-29.341089
11.185,2.0,1.0,1.0,33.2,33.4,33.4,3.2,2.6,2.715,0.38858673433795754,-0.034847438631589955,0.902069744991396,0.0006628785260645992,-0.155945,-29.155012
11.185,2.0,1.0,1.0,33.2,33.4,33.4,3.2,2.6,2.7175,0.3789196110539152,-0.035615146984839995,0.9057842634259163,0.00028124023382828045,-0.159116,-28.967034
11.185,2.0,1.0,1.0,33.2,33.4,33.4,3.2,2.6,2.72,0.36912393473986504,-0.03640343851250692,0.9094197498068376,-0.00012121593399759161,-0.162399,-28.777104
11.185,2.0,1.0,1.0,33.2,33.4,33.4,3.2,2.6,2.7225,0.3591978909387069,-0.037213036814587194,0.912973067918542,-0.000545651259699472,-0.165799,-28.585164
11.185,2.0,1.0,1.0,33.2,33.4,33.4,3.2,2.6,2.725,0.34913963271804493,-0.03804469710446867,0.9164409437991994,-0.0009933047294492423,-0.169322,-28.391158
11.185,2.0,1.0,1.0,33.2,33.4,33.4,3.2,2.6,2.7275,0.3389472799820149,-0.038899207736485995,0.919819957659073,-0.0014654993113557744,-0.172974,-28.195025
11.185,2.0,1.0,1.0,33.2,33.4,33.4,3.2,2.6,2.73,0.32861891877887806,-0.03977739179349351,0.9231065351448173,-0.00196364883496074,-0.176763,-27.996703
11.185,2.0,1.0,1.0,33.2,33.4,33.4,3.2,2.6,2.7325,0.31815260060979855,-0.04068010873189735,0.9262969378813842,-0.0024892655390150067,-0.180695,-27.796127
11.185,2.0,1.0,1.0,33.2,33.4,33.4,3.2,2.6,2.735,0.30754634174594553,-0.0416082560800688,0.9293872532145987,-0.0030439683628150443,-0.184779,-27.593228
11.185,2.0,1.0,1.0,33.2,33.4,33.4,3.2,2.6,2.7375,0.29679812256306126,-0.04256277118415825,0.9323733830677705,-0.003629492066019606,-0.189024,-27.387936
11.185,2.0,1.0,1.0,33.2,33.4,33.4,3.2,2.6,2.74,0.28590588690523644,-0.04354463299293169,0.9352510318145731,-0.004247697272880335,-0.193438,-27.180177
11.185,2.0,1.0,1.0,33.2,33.4,33.4,3.2,2.6,2.7425,0.274867541492754,-0.04455486387026048,0.9380156930577069,-0.004900581549438186,-0.198031,-26.969873
11.185,2.0,1.0,1.0,33.2,33.4,33.4,3.2,2.6,2.745,0.26368095539281716,-0.04559453142015653,0.9406626351882751,-0.005590291636697556,-0.202815,-26.756944
11.185,2.0,1.0,1.0,33.2,33.4,33.4,3.2,2.6,2.7475,0.2523439595768048,-0.04666475030459106,0.943186885584034,-0.0063191369794050435,-0.2078,-26.541304
11.185,2.0,1.0,1.0,33.2,33.4,33.4,3.2,2.6,2.75,0.240854346593703,-0.0477666840285433,0.945583213285411,-0.00708960470917272,-0.212999,-26.322866
11.185,2.0,1.0,1.0,33.2,33.4,33.4,3.2,2.6,2.7525,0.22920987039679877,-0.04890154665952649,0.9478461099659734,-0.00790437626270734,-0.218426,-26.101537
11.185,2.0,1.0,1.0,33.2,33.4,33.4,3.2,2.6,2.755,0.21740824636991718,-0.05007060443988808,0.9499697689883698,-0.008766345841329367,-0.224095,-25.877219
11.185,2.0,1.0,1.0,33.2,33.4,33.4,3.2,2.6,2.7575,0.2054471516108581,-0.05127517723906714,0.9519480623071603,-0.009678640947354388,-0.230022,-25.649811
11.185,2.0,1.0,1.0,33.2,33.4,33.4,3.2,2.6,2.76,0.19332422554385917,-0.052516639779163744,0.953774514945585,-0.010644645266942261,-0.236225,-25.419205
11.185,2.0,1.0,1.0,33.2,33.4,33.4,3.2,2.6,2.7625,0.18103707095039429,-0.05379642254999266,0.9554422767335384,-0.011668024208496186,-0.242722,-25.18529
11.185,2.0,1.0,1.0,33.2,33.4,33.4,3.2,2.6,2.765,0.16858325552944178,-0.05511601230839211,0.9569440909477382,-0.012752753451556404,-0.249533,-24.947947
11.185,2.0,1.0,1.0,33.2,33.4,33.4,3.2,2.6,2.7675,0.15596031412543984,-0.05647695202990213,0.9582722594412623,-0.013903150914497167,-0.256683,-24.707052
11.185,2.0,1.0,1.0,33.2,33.4,33.4,3.2,2.6,2.77,0.1431657517959008,-0.05788084014766909,0.9594186037868999,-0.015123912611531254,-0.264194,-24.462475
11.185,2.0,1.0,1.0,33.2,33.4,33.4,3.2,2.6,2.7725,0.13019704793282644,-0.059329328871876794,0.9603744218855562,-0.01642015294210959,-0.272094,-24.214077
11.185,2.0,1.0,1.0,33.2,33.4,33.4,3.2,2.6,2.775,0.11705166170473576,-0.06082412133100672,0.9611304394053765,-0.017797450040635297,-0.280413,-23.961714
11.185,2.0,1.0,1.0,33.2,33.4,33.4,3.2,2.6,2.7775,0.10372703915213695,-0.06236696721103156,0.9616767553171635,-0.019261896913687987,-0.289184,-23.705232
11.185,2.0,1.0,1.0,33.2,33.4,33.4,3.2,2.6,2.78,0.09022062235214076,-0.06395965648674787,0.9620027806743339,-0.020820159208258946,-0.298442,-23.44447
11.185,2.0,1.0,1.0,33.2,33.4,33.4,3.2,2.6,2.7825,0.07652986117222021,-0.06560401073633722,0.9620971696481324,-0.022479540590885676,-0.308228,-23.179257
11.185,2.0,1.0,1.0,33.2,33.4,33.4,3.2,2.6,2.785,0.06265222826458991,-0.0673018714001387,0.961947741667401,-0.02424805687765071,-0.318587,-22.909413
11.185,2.0,1.0,1.0,33.2,33.4,33.4,3.2,2.6,2.7875,0.04858523811908298,-0.06905508418001245,0.9615413933226931,-0.026134520242930535,-0.329566,-22.634746
11.185,2.0,1.0,1.0,33.2,33.4,33.4,3.2,2.6,2.79,0.034326471203190885,-0.07086547856692811,0.9608639984720115,-0.02814863505546251,-0.341222,-22.355054
11.185,2.0,1.0,1.0,33.2,33.4,33.4,3.2,2.6,2.7925,0.019873604486132585,-0.07273484121891531,0.959900294724328,-0.030301107149293828,-0.353616,-22.070123
11.185,2.0,1.0,1.0,33.2,33.4,33.4,3.2,2.6,2.795,0.005224449985599215,-0.07466488157291609,0.9586337541708408,-0.03260376864087857,-0.366817,-21.779725
11.185,2.0,1.0,1.0,33.2,33.4,33.4,3.2,2.6,2.7975,-0.009622996586820327,-0.07665718764091689,0.9570464358756787,-0.03506972075900228,-0.380901,-21.48362
11.185,2.0,1.0,1.0,33.2,33.4,33.4,3.2,2.6,2.8,-0.02467049444470075,-0.07871316938495587,0.955118817219651,-0.03771349756899586,-0.395955,-21.18155
11.185,2.0,1.0,1.0,33.2,33.4,33.4,3.2,2.6,2.8025,-0.03991948025148111,-0.08083398635017063,0.9528296007050158,-0.040551253954580334,-0.412079,-20.873243
11.185,2.0,1.0,1.0,33.2,33.4,33.4,3.2,2.6,2.805,-0.055370970259788606,-0.08302045531118271,0.9501554922686737,-0.04360098177697353,-0.429382,-20.558411
11.185,2.0,1.0,1.0,33.2,33.4,33.4,3.2,2.6,2.8075,-0.0710254365668616,-0.085272932490159,0.9470709465101893,-0.04688275876713115,-0.447992,-20.236745
11.185,2.0,1.0,1.0,33.2,33.4,33.4,3.2,2.6,2.81,-0.08688265041804946,-0.08759116334901995,0.9435478735179563,-0.050419035424876336,-0.468053,-19.907918
11.185,2.0,1.0,1.0,33.2,33.4,33.4,3.2,2.6,2.8125,-0.10294148344383,-0.0899740909292589,0.939555301177411,-0.054234965992543,-0.48973,-19.571581
11.185,2.0,1.0,1.0,33.2,33.4,33.4,3.2,2.6,2.815,-0.11919965503871639,-0.09241961105839652,0.9350589859884949,-0.05835879042188527,-0.513211,-19.227363
11.185,2.0,1.0,1.0,33.2,33.4,33.4,3.2,2.6,2.8175,-0.13565341057769953,-0.09492425925879752,0.9300209645472292,-0.06282227512019352,-0.538717,-18.874871
11.185,2.0,1.0,1.0,33.2,33.4,33.4,3.2,2.6,2.82,-0.15229711054372877,-0.09748280961073863,0.9243990370376675,-0.06766122106628762,-0.566499,-18.513684
11.185,2.0,1.0,1.0,33.2,33.4,33.4,3.2,2.6,2.8225,-0.16912270454265332,-0.1000877597744914,0.9181461734768522,-0.07291604848951365,-0.596853,-18.143358
11.185,2.0,1.0,1.0,33.2,33.4,33.4,3.2,2.6,2.825,-0.18611905612324298,-0.10272866838275749,0.911209833298211,-0.07863246746586564,-0.630122,-17.76342
11.185,2.0,1.0,1.0,33.2,33.4,33.4,3.2,2.6,2.8275,-0.20327107365459307,-0.1053913004350095,0.9035311895507718,-0.08486224310591735,-0.666708,-17.373371
