1,w,sub_t,h,l1,l2,l3,g1,g2,Freq,S11_re,S21_re,S11_img,S21_img,S11_dB,S21_dB
11.185,2.0,1.0,1.0,34.8,34.1,34.1,3.5,3.5,2.5,0.645455667217509,-0.0117852405795435,0.752664112807554,0.00338620569516952,-0.073951,-38.228726
11.185,2.0,1.0,1.0,34.8,34.1,34.1,3.5,3.5,2.5025,0.6389781283783502,-0.01197637481431139,0.7580499842899977,0.0033220102371085535,-0.074762,-38.111578
11.185,2.0,1.0,1.0,34.8,34.1,34.1,3.5,3.5,2.505,0.6324189707086111,-0.012170148221634503,0.7634084224320373,0.003254815855669064,-0.075586,-37.994057
11.185,2.0,1.0,1.0,34.8,34.1,34.1,3.5,3.5,2.5075,0.6257774634000797,-0.012366591654421015,0.7687384601396348,0.0031845308853450977,-0.076426,-37.876157
11.185,2.0,1.0,1.0,34.8,34.1,34.1,3.5,3.5,2.51,0.6190528716927393,-0.012565736014621165,0.7740391045935943,0.0031110607860759996,-0.07728,-37.757871
11.185,2.0,1.0,1.0,34.8,34.1,34.1,3.5,3.5,2.5125,0.6122444571153259,-0.012767612229921258,0.779309336582062,0.003034308044784746,-0.07815,-37.639191
11.185,2.0,1.0,1.0,34.8,34.1,34.1,3.5,3.5,2.515,0.605351477742348,-0.012972251228766815,0.7845481098174591,0.0029541720731832487,-0.079035,-37.520109
11.185,2.0,1.0,1.0,34.8,34.1,34.1,3.5,3.5,2.5175,0.5983731884683584,-0.013179683913617955,0.7897543502375718,0.0028705491016824563,-0.079936,-37.40062
11.185,2.0,1.0,1.0,34.8,34.1,34.1,3.5,3.5,2.52,0.5913088413002604,-0.013389941132334864,0.7949269552905595,0.0027833320692364767,-0.080854,-37.280714
11.185,2.0,1.0,1.0,34.8,34.1,34.1,3.5,3.5,2.5225,0.584157685668516,-0.013603053647584577,0.8000647932036045,0.002692410508940902,-0.081788,-37.160385
11.185,2.0,1.0,1.0,34.8,34.1,34.1,3.5,3.5,2.525,0.5769189687580967,-0.013819052104156175,0.80516670223497,0.002597670429195881,-0.082739,-37.039624
11.185,2.0,1.0,1.0,34.8,34.1,34.1,3.5,3.5,2.5275,0.5695919358600943,-0.0140379669940623,0.8102314899092098,0.002498994190234287,-0.083708,-36.918424
11.185,2.0,1.0,1.0,34.8,34.1,34.1,3.5,3.5,2.53,0.5621758307449403,-0.014259828619299,0.8152579322352889,0.002396260375804639,-0.084695,-36.796776
11.185,2.0,1.0,1.0,34.8,34.1,34.1,3.5,3.5,2.5325,0.5546698960581975,-0.014484667052128848,0.8202447729073726,0.0022893436597865996,-0.0857,-36.674673
11.185,2.0,1.0,1.0,34.8,34.1,34.1,3.5,3.5,2.535,0.5470733737399469,-0.01471251209274354,0.8251907224880646,0.002178114667504275,-0.086725,-36.552106
11.185,2.0,1.0,1.0,34.8,34.1,34.1,3.5,3.5,2.5375,0.5393855054688305,-0.014943393224153438,0.8300944575738475,0.0020624398314899373,-0.087768,-36.429066
11.185,2.0,1.0,1.0,34.8,34.1,34.1,3.5,3.5,2.54,0.5316055331318379,-0.015177339564143336,0.8349546199425256,0.001942181241435834,-0.088831,-36.305546
11.185,2.0,1.0,1.0,34.8,34.1,34.1,3.5,3.5,2.5425,0.5237326993209779,-0.015414379814123087,0.8397698156824489,0.001817196488057079,-0.089914,-36.181536
11.185,2.0,1.0,1.0,34.8,34.1,34.1,3.5,3.5,2.545,0.5157662478580182,-0.015654542204691757,0.8445386143033217,0.0016873385005722894,-0.091019,-36.057028
11.185,2.0,1.0,1.0,34.8,34.1,34.1,3.5,3.5,2.5475,0.507705424348528,-0.01589785443772269,0.8492595478283891,0.0015524553774910177,-0.092144,-35.932012
11.185,2.0,1.0,1.0,34.8,34.1,34.1,3.5,3.5,2.55,0.49954947676647177,-0.01614434362476545,0.8539311098678374,0.001412390210378425,-0.093291,-35.806479
11.185,2.0,1.0,1.0,34.8,34.1,34.1,3.5,3.5,2.5525,0.49129765607071507,-0.0163940362215458,0.8585517546732118,0.001266980900248184,-0.09446,-35.68042
11.185,2.0,1.0,1.0,34.8,34.1,34.1,3.5,3.5,2.555,0.48294921685477465,-0.016646957958335342,0.8631198961727058,0.0011160599662116749,-0.095653,-35.553826
11.185,2.0,1.0,1.0,34.8,34.1,34.1,3.5,3.5,2.5575,0.47450341803125023,-0.016903133765942553,0.8676339069871687,0.0009594543459900525,-0.096869,-35.426685
11.185,2.0,1.0,1.0,34.8,34.1,34.1,3.5,3.5,2.56,0.465959523552416,-0.017162587697065548,0.8720921174266817,0.0007969851878694576,-0.098108,-35.298989
11.185,2.0,1.0,1.0,34.8,34.1,34.1,3.5,3.5,2.5625,0.45731680316849066,-0.017425342842727,0.8764928144675879,0.0006284676336540624,-0.099373,-35.170728
11.185,2.0,1.0,1.0,34.8,34.1,34.1,3.5,3.5,2.565,0.4485745332251636,-0.017691421243495407,0.8808342407098674,0.0004537105921413796,-0.100663,-35.04189
11.185,2.0,1.0,1.0,34.8,34.1,34.1,3.5,3.5,2.5675,0.4397319975020356,-0.017960843795175523,0.8851145933147426,0.00027251650261454427,-0.101979,-34.912466
11.185,2.0,1.0,1.0,34.8,34.1,34.1,3.5,3.5,2.57,0.4307884880936529,-0.01823363014863008,0.8893320229224463,8.46810878118055e-05,-0.103321,-34.782444
11.185,2.0,1.0,1.0,34.8,34.1,34.1,3.5,3.5,2.5725,0.42174330633490176,-0.01850979860337359,0.8934846325500818,-0.00011000690420304183,-0.104691,-34.651813
11.185,2.0,1.0,1.0,34.8,34.1,34.1,3.5,3.5,2.575,0.4125957637725834,-0.01878936599455078,0.897570476469515,-0.00031176596988365584,-0.106089,-34.520562
11.185,2.0,1.0,1.0,34.8,34.1,34.1,3.5,3.5,2.5775,0.40334518318505896,-0.019072347572888892,0.9015875590652656,-0.0005208221324157339,-0.107516,-34.38868
11.185,2.0,1.0,1.0,34.8,34.1,34.1,3.5,3.5,2.58,0.39399089965191475,-0.019358756877181024,0.9055338336723734,-0.000737409237005923,-0.108972,-34.256154
11.185,2.0,1.0,1.0,34.8,34.1,34.1,3.5,3.5,2.5825,0.3845322616756637,-0.01964860559882878,0.9094072013942316,-0.0009617692599987037,-0.110459,-34.122972
11.185,2.0,1.0,1.0,34.8,34.1,34.1,3.5,3.5,2.585,0.37496863235758465,-0.019941903437936025,0.913205509900393,-0.0011941526326279819,-0.111978,-33.989123
11.185,2.0,1.0,1.0,34.8,34.1,34.1,3.5,3.5,2.5875,0.36529939062984773,-0.020238657950409026,0.9169265522043762,-0.0014348185802687278,-0.113528,-33.854592
11.185,2.0,1.0,1.0,34.8,34.1,34.1,3.5,3.5,2.59,0.35552393254618786,-0.02053887438547785,0.920568065421494,-0.0016840354781176771,-0.115111,-33.719368
11.185,2.0,1.0,1.0,34.8,34.1,34.1,3.5,3.5,2.5925,0.34564167263341883,-0.020842555513009783,0.9241277295067585,-0.0019420812243008214,-0.116729,-33.583437
11.185,2.0,1.0,1.0,34.8,34.1,34.1,3.5,3.5,2.595,0.3356520453062132,-0.02114970143993567,0.9276031659729163,-0.002209243631480288,-0.118381,-33.446784
11.185,2.0,1.0,1.0,34.8,34.1,34.1,3.5,3.5,2.5975,0.3255545063476052,-0.021460309415059248,0.9309919365886786,-0.0024858208381147657,-0.120069,-33.309397
11.185,2.0,1.0,1.0,34.8,34.1,34.1,3.5,3.5,2.6,0.3153485344578017,-0.021774373621460265,0.9342915420572075,-0.002772121740616705,-0.121794,-33.17126
11.185,2.0,1.0,1.0,34.8,34.1,34.1,3.5,3.5,2.6025,0.30503363287395563,-0.022091884955639303,0.9374994206749437,-0.003068466447745146,-0.123558,-33.032358
11.185,2.0,1.0,1.0,34.8,34.1,34.1,3.5,3.5,2.605,0.2946093310636596,-0.022412830792482463,0.9406129469708291,-0.0033751867586797476,-0.12536,-32.892677
11.185,2.0,1.0,1.0,34.8,34.1,34.1,3.5,3.5,2.6075,0.28407518649499913,-0.022737194735048077,0.9436294303260039,-0.0036926266663355016,-0.127203,-32.752201
11.185,2.0,1.0,1.0,34.8,34.1,34.1,3.5,3.5,2.61,0.27343078648614855,-0.023064956348092025,0.9465461135740173,-0.004021142887603288,-0.129087,-32.610912
11.185,2.0,1.0,1.0,34.8,34.1,34.1,3.5,3.5,2.6125,0.26267575013754607,-0.023396090874157952,0.9493601715815895,-0.004361105422339056,-0.131015,-32.468796
11.185,2.0,1.0,1.0,34.8,34.1,34.1,3.5,3.5,2.615,0.25180973034983867,-0.02373056893095464,0.9520687098099448,-0.004712898143073945,-0.132986,-32.325834
11.185,2.0,1.0,1.0,34.8,34.1,34.1,3.5,3.5,2.6175,0.24083241593090193,-0.024068356188630204,0.9546687628566753,-0.005076919417581424,-0.135003,-32.182009
11.185,2.0,1.0,1.0,34.8,34.1,34.1,3.5,3.5,2.62,0.22974353379535997,-0.024409413025428074,0.9571572929780762,-0.005453582766617421,-0.137066,-32.037303
11.185,2.0,1.0,1.0,34.8,34.1,34.1,3.5,3.5,2.6225,0.21854285126015915,-0.02475369416007242,0.959531188591832,-0.005843317559346568,-0.139178,-31.891697
11.185,2.0,1.0,1.0,34.8,34.1,34.1,3.5,3.5,2.625,0.207230178439939,-0.0251011482590751,0.961787262759848,-0.00624656974918211,-0.14134,-31.745172
11.185,2.0,1.0,1.0,34.8,34.1,34.1,3.5,3.5,2.6275,0.19580537074603185,-0.025451717516987805,0.9639222516509718,-0.006663802653005354,-0.143554,-31.597708
11.185,2.0,1.0,1.0,34.8,34.1,34.1,3.5,3.5,2.63,0.18426833149315672,-0.025805337207433963,0.9659328129832113,-0.0070954977769894486,-0.145821,-31.449284
11.185,2.0,1.0,1.0,34.8,34.1,34.1,3.5,3.5,2.6325,0.1726190146180311,-0.026161935202541963,0.9678155244449526,-0.0075421556925379,-0.148142,-31.299879
11.185,2.0,1.0,1.0,34.8,34.1,34.1,3.5,3.5,2.635,0.16085742751430346,-0.02652143145816914,0.9695668820945511,-0.008004296966163015,-0.150521,-31.14947
11.185,2.0,1.0,1.0,34.8,34.1,34.1,3.5,3.5,2.6375,0.14898363398849715,-0.02688373746204032,0.9711832987374582,-0.008482463147473385,-0.152958,-30.998036
11.185,2.0,1.0,1.0,34.8,34.1,34.1,3.5,3.5,2.64,0.13699775734179429,-0.027248755641635862,0.9726611022798973,-0.008977217819823188,-0.155456,-30.845552
11.185,2.0,1.0,1.0,34.8,34.1,34.1,3.5,3.5,2.6425,0.12489998358286505,-0.027616378728331184,0.9739965340578297,-0.009489147718591426,-0.158017,-30.691995
11.185,2.0,1.0,1.0,34.8,34.1,34.1,3.5,3.5,2.645,0.11269056477716373,-0.027986489073925206,0.9751857471396932,-0.01001886392252556,-0.160643,-30.537339
11.185,2.0,1.0,1.0,34.8,34.1,34.1,3.5,3.5,2.6475,0.10036982253849133,-0.028358957915280803,0.9762248046010988,-0.010567003124091461,-0.163336,-30.381557
11.185,2.0,1.0,1.0,34.8,34.1,34.1,3.5,3.5,2.65,0.08793815166894714,-0.028733644582337087,0.9771096777692743,-0.01113422898533847,-0.166099,-30.224623
11.185,2.0,1.0,1.0,34.8,34.1,34.1,3.5,3.5,2.6525,0.0753960239538702,-0.029110395644230406,0.9778362444346597,-0.011721233586407703,-0.168934,-30.066509
11.185,2.0,1.0,1.0,34.8,34.1,34.1,3.5,3.5,2.655,0.06274399211877174,-0.029489043987672638,0.9784002870265539,-0.012328738974505484,-0.171845,-29.907185
11.185,2.0,1.0,1.0,34.8,34.1,34.1,3.5,3.5,2.6575,0.04998269395583381,-0.029869407821072575,0.9787974907491727,-0.012957498821923544,-0.174833,-29.746621
11.185,2.0,1.0,1.0,34.8,34.1,34.1,3.5,3.5,2.66,0.03711285662811063,-0.030251289597133676,0.9790234416738558,-0.013608300202534796,-0.177902,-29.584785
11.185,2.0,1.0,1.0,34.8,34.1,34.1,3.5,3.5,2.6625,0.02413530116031224,-0.030634474845814136,0.9790736247824138,-0.014281965497130483,-0.181055,-29.421645
11.185,2.0,1.0,1.0,34.8,34.1,34.1,3.5,3.5,2.665,0.011050947125716354,-0.031018730908572628,0.9789434219558194,-0.014979354439005263,-0.184295,-29.257166
11.185,2.0,1.0,1.0,34.8,34.1,34.1,3.5,3.5,2.6675,-0.002139182460213885,-0.03140380556372916,0.9786281099014849,-0.01570136631234965,-0.187626,-29.091314
11.185,2.0,1.0,1.0,34.8,34.1,34.1,3.5,3.5,2.67,-0.015433956028057324,-0.031789425531533626,0.9781228580113152,-0.01644894231729677,-0.191051,-28.92405
11.185,2.0,1.0,1.0,34.8,34.1,34.1,3.5,3.5,2.6725,-0.028832128111797608,-0.03217529484611702,0.9774227261415237,-0.017223068116894082,-0.194574,-28.755337
11.185,2.0,1.0,1.0,34.8,34.1,34.1,3.5,3.5,2.675,-0.04233233376128112,-0.032561093079894896,0.9765226623037986,-0.01802477658286224,-0.1982,-28.585134
11.185,2.0,1.0,1.0,34.8,34.1,34.1,3.5,3.5,2.6775,-0.055933082694245316,-0.03294647340415065,0.9754175002558987,-0.018855150758772598,-0.201932,-28.4134
11.185,2.0,1.0,1.0,34.8,34.1,34.1,3.5,3.5,2.68,-0.06963275317051869,-0.03333106046742759,0.9741019569779384,-0.019715327061248466,-0.205776,-28.24009
11.185,2.0,1.0,1.0,34.8,34.1,34.1,3.5,3.5,2.6825,-0.08342958556899889,-0.03371444807095057,0.9725706300186621,-0.020606498741996868,-0.209736,-28.065159
11.185,2.0,1.0,1.0,34.8,34.1,34.1,3.5,3.5,2.685,-0.09732167564559033,-0.03409619661753717,0.9708179946937362,-0.021529919635935948,-0.213817,-27.888559
11.185,2.0,1.0,1.0,34.8,34.1,34.1,3.5,3.5,2.6875,-0.11130696744753,-0.0344758303072883,0.968838401115523,-0.0224869082234312,-0.218025,-27.710241
11.185,2.0,1.0,1.0,34.8,34.1,34.1,3.5,3.5,2.69,-0.12538324585627644,-0.03485283404969622,0.9666260710309102,-0.02347885203772228,-0.222367,-27.530151
11.185,2.0,1.0,1.0,34.8,34.1,34.1,3.5,3.5,2.6925,-0.13954812872744218,-0.03522665005760134,0.9641750944405015,-0.02450721245206457,-0.226847,-27.348235
11.185,2.0,1.0,1.0,34.8,34.1,34.1,3.5,3.5,2.695,-0.15379905859180593,-0.03559667408356917,0.9614794259687771,-0.02557352988495257,-0.231473,-27.164436
11.185,2.0,1.0,1.0,34.8,34.1,34.1,3.5,3.5,2.6975,-0.16813329387646608,-0.03596225125363774,0.958532880950653,-0.026679429466112015,-0.236252,-26.978693
11.185,2.0,1.0,1.0,34.8,34.1,34.1,3.5,3.5,2.7,-0.18254789959910564,-0.036322671446868626,0.955329131195171,-0.027826627210776812,-0.241192,-26.790943
11.185,2.0,1.0,1.0,34.8,34.1,34.1,3.5,3.5,2.7025,-0.19703973748151452,-0.03667716416156761,0.9518617003816912,-0.029016936755197495,-0.246301,-26.601121
11.185,2.0,1.0,1.0,34.8,34.1,34.1,3.5,3.5,2.705,-0.21160545542025688,-0.037024892800238685,0.9481239590380098,-0.030252276712412738,-0.251587,-26.409156
11.185,2.0,1.0,1.0,34.8,34.1,34.1,3.5,3.5,2.7075,-0.22624147624286448,-0.037364948295068215,0.9441091190429853,-0.03153467871415507,-0.257061,-26.214976
11.185,2.0,1.0,1.0,34.8,34.1,34.1,3.5,3.5,2.71,-0.24094398566667663,-0.037696341983747515,0.9398102275886734,-0.03286629621243828,-0.262732,-26.018503
11.185,2.0,1.0,1.0,34.8,34.1,34.1,3.5,3.5,2.7125,-0.2557089193641945,-0.03801799763140412,0.9352201605283048,-0.03424941412300234,-0.268612,-25.819656
11.185,2.0,1.0,1.0,34.8,34.1,34.1,3.5,3.5,2.715,-0.27053194902322897,-0.03832874247794182,0.9303316150267853,-0.03568645940248063,-0.274711,-25.61835
11.185,2.0,1.0,1.0,34.8,34.1,34.1,3.5,3.5,2.7175,-0.28540846727166014,-0.038627297170729,0.9251371014194137,-0.03718001266203791,-0.281044,-25.414496
11.185,2.0,1.0,1.0,34.8,34.1,34.1,3.5,3.5,2.72,-0.3003335713148253,-0.0389122644197512,0.9196289341723016,-0.038732820932446545,-0.287624,-25.207997
11.185,2.0,1.0,1.0,34.8,34.1,34.1,3.5,3.5,2.7225,-0.315302045107663,-0.03918211618539107,0.913799221824073,-0.040347811709281284,-0.294465,-24.998755
11.185,2.0,1.0,1.0,34.8,34.1,34.1,3.5,3.5,2.725,-0.33030833985298796,-0.03943517917707589,0.9076398557730427,-0.04202810842226959,-0.301585,-24.786664
11.185,2.0,1.0,1.0,34.8,34.1,34.1,3.5,3.5,2.7275,-0.34534655258070457,-0.039669618403150426,0.9011424977566126,-0.0437770474900408,-0.309001,-24.571611
11.185,2.0,1.0,1.0,34.8,34.1,34.1,3.5,3.5,2.73,-0.3604104025190715,-0.039883418467239355,0.8942985658503496,-0.04559819714070471,-0.316732,-24.353478
11.185,2.0,1.0,1.0,34.8,34.1,34.1,3.5,3.5,2.7325,-0.3754932049168926,-0.04007436225256886,0.887099218792538,-0.047495378200085495,-0.3248,-24.132141
11.185,2.0,1.0,1.0,34.8,34.1,34.1,3.5,3.5,2.735,-0.3905878419129292,-0.04024000657135848,0.8795353384161066,-0.04947268707315113,-0.333228,-23.907467
11.185,2.0,1.0,1.0,34.8,34.1,34.1,3.5,3.5,2.7375,-0.4056867299736448,-0.04037765427918499,0.8715975099433894,-0.0515345211703736,-0.34204,-23.679314
11.185,2.0,1.0,1.0,34.8,34.1,34.1,3.5,3.5,2.74,-0.4207817833296447,-0.04048432226134173,0.8632759998701924,-0.053685607059470696,-0.351265,-23.447535
11.185,2.0,1.0,1.0,34.8,34.1,34.1,3.5,3.5,2.7425,-0.4358643727318993,-0.04055670458615869,0.8545607311341887,-0.055931031654201026,-0.360933,-23.21197
11.185,2.0,1.0,1.0,34.8,34.1,34.1,3.5,3.5,2.745,-0.45092527871610627,-0.04059112998465594,0.8454412552288656,-0.058276276785395105,-0.371079,-22.972452
11.185,2.0,1.0,1.0,34.8,34.1,34.1,3.5,3.5,2.7475,-0.46595463840265255,-0.040583512651336695,0.8359067208886276,-0.060727257534786354,-0.381739,-22.728801
11.185,2.0,1.0,1.0,34.8,34.1,34.1,3.5,3.5,2.75,-0.480941884663438,-0.040529295160586,0.825945838933953,-0.0632903647486412,-0.392954,-22.480827
11.185,2.0,1.0,1.0,34.8,34.1,34.1,3.5,3.5,2.7525,-0.49587567624725015,-0.04042338204847409,0.8155468428291154,-0.06597251218432282,-0.404772,-22.228327
11.185,2.0,1.0,1.0,34.8,34.1,34.1,3.5,3.5,2.755,-0.5107438171617775,-0.04026006231003145,0.8046974444710338,-0.06878118877661232,-0.417242,-21.971083
11.185,2.0,1.0,1.0,34.8,34.1,34.1,3.5,3.5,2.7575,-0.5255331632494267,-0.0400329186936716,0.793384784699562,-0.07172451653852709,-0.430422,-21.708867
11.185,2.0,1.0,1.0,34.8,34.1,34.1,3.5,3.5,2.76,-0.5402295134490339,-0.03973472122020926,0.7815953780021143,-0.07481131462846817,-0.444377,-21.441429
11.185,2.0,1.0,1.0,34.8,34.1,34.1,3.5,3.5,2.7625,-0.5548174826852019,-0.03935730179200675,0.7693150508861096,-0.07805117011431244,-0.459177,-21.168508
11.185,2.0,1.0,1.0,34.8,34.1,34.1,3.5,3.5,2.765,-0.5692803526437518,-0.03889140606042062,0.7565288734226329,-0.08145451593440142,-0.474904,-20.88982
11.185,2.0,1.0,1.0,34.8,34.1,34.1,3.5,3.5,2.7675,-0.5835998958415654,-0.03832651785145495,0.7432210835397398,-0.08503271647896005,-0.491649,-20.605065
11.185,2.0,1.0,1.0,34.8,34.1,34.1,3.5,3.5,2.77,-0.5977561673373363,-0.037650650365088016,0.7293750037877305,-0.08879816106940508,-0.509515,-20.313917
11.185,2.0,1.0,1.0,34.8,34.1,34.1,3.5,3.5,2.7725,-0.6117272571000347,-0.03685009700520078,0.7149729505458908,-0.09276436536234711,-0.528622,-20.01603
11.185,2.0,1.0,1.0,34.8,34.1,34.1,3.5,3.5,2.775,-0.6254889943819848,-0.035909132990247894,0.699996136040656,-0.09694608029891665,-0.549102,-19.711032
11.185,2.0,1.0,1.0,34.8,34.1,34.1,3.5,3.5,2.7775,-0.639014593340783,-0.034809656744944,0.6844245641722659,-0.10135940758394538,-0.57111,-19.398523
11.185,2.0,1.0,1.0,34.8,34.1,34.1,3.5,3.5,2.78,-0.6522742265011094,-0.033530757359197146,0.6682369221074694,-0.10602191970476714,-0.594824,-19.078073
11.185,2.0,1.0,1.0,34.8,34.1,34.1,3.5,3.5,2.7825,-0.6652345092937707,-0.032048190968341654,0.6514104710462908,-0.11095278102672923,-0.620447,-18.749221
11.185,2.0,1.0,1.0,34.8,34.1,34.1,3.5,3.5,2.785,-0.6778578746660556,-0.03033374456392268,0.6339209417405095,-0.1161728642982533,-0.648218,-18.411471
11.185,2.0,1.0,1.0,34.8,34.1,34.1,3.5,3.5,2.7875,-0.6901018113889895,-0.028354460244041493,0.6157424435680787,-0.12170485361847304,-0.678413,-18.064289
11.185,2.0,1.0,1.0,34.8,34.1,34.1,3.5,3.5,2.79,-0.7019179329042547,-0.026071685958692564,0.5968474007485376,-0.12757332005760533,-0.711355,-17.707103
11.185,2.0,1.0,1.0,34.8,34.1,34.1,3.5,3.5,2.7925,-0.713250835013649,-0.02343991004400047,0.5772065363563501,-0.13380474892286762,-0.747425,-17.339297
11.185,2.0,1.0,1.0,34.8,34.1,34.1,3.5,3.5,2.795,-0.7240366900298053,-0.020405325868516587,0.5567889352438863,-0.14042748701589097,-0.787074,-16.960213
11.185,2.0,1.0,1.0,34.8,34.1,34.1,3.5,3.5,2.7975,-0.7342015117847571,-0.016904059323341096,0.5355622324479382,-0.1474715624720142,-0.830837,-16.569144
11.185,2.0,1.0,1.0,34.8,34.1,34.1,3.5,3.5,2.8,-0.743659009820364,-0.01285997534366242,0.5134929965414274,-0.1549683064358051,-0.879354,-16.165337
11.185,2.0,1.0,1.0,34.8,34.1,34.1,3.5,3.5,2.8025,-0.7523079321232473,-0.00818196009410503,0.4905474113075575,-0.16294967122657444,-0.933396,-15.747995
11.185,2.0,1.0,1.0,34.8,34.1,34.1,3.5,3.5,2.805,-0.7600287745410885,-0.002760553494160685,0.4666924094119321,-0.17144708830244354,-0.993895,-15.316272
11.185,2.0,1.0,1.0,34.8,34.1,34.1,3.5,3.5,2.8075,-0.7666797135742606,0.0035362155459134474,0.44189748634879694,-0.1804896331302488,-1.061988,-14.869288
11.185,2.0,1.0,1.0,34.8,34.1,34.1,3.5,3.5,2.81,-0.7720916024924245,0.010867956498051331,0.41613753343676996,-0.19010115112454604,-1.139066,-14.406134
11.185,2.0,1.0,1.0,34.8,34.1,34.1,3.5,3.5,2.8125,-0.776061869171543,0.0194281749512373,0.389397191704423,-0.200295832028087,-1.22685,-13.925892
11.185,2.0,1.0,1.0,34.8,34.1,34.1,3.5,3.5,2.815,-0.7783471887158858,0.02945179425211378,0.36167746731899303,-0.2110714756431826,-1.327477,-13.427665
11.185,2.0,1.0,1.0,34.8,34.1,34.1,3.5,3.5,2.8175,-0.7786549153407111,0.04122396246590601,0.3330056941099667,-0.22239933843791868,-1.44362,-12.91062
11.185,2.0,1.0,1.0,34.8,34.1,34.1,3.5,3.5,2.82,-0.7766335218028283,0.0550898988301333,0.3034504146954987,-0.23420895205855072,-1.578641,-12.37406
11.185,2.0,1.0,1.0,34.8,34.1,34.1,3.5,3.5,2.8225,-0.7718628479147134,0.07146497150914494,0.2731434068312864,-0.24636563168704184,-1.736792,-11.817525
11.185,2.0,1.0,1.0,34.8,34.1,34.1,3.5,3.5,2.825,-0.7638460415036543,0.09084309629886887,0.24231189326877822,-0.25863755605987215,-1.92346,-11.24095
11.185,2.0,1.0,1.0,34.8,34.1,34.1,3.5,3.5,2.8275,-0.7520070807050498,0.11379949906208817,0.21132480395431938,-0.27064844044908903,-2.145471,-10.644882
