1,w,sub_t,h,l1,l2,l3,g1,g2,Freq,S11_re,S21_re,S11_img,S21_img,S11_dB,S21_dB
11.185,2.0,1.0,1.0,34.9,33.5,33.5,1.8,3.8,2.5,0.609853834047276,-0.0181096024420239,0.779982362357587,0.00596245440405652,-0.086436,-34.394854
11.185,2.0,1.0,1.0,34.9,33.5,33.5,1.8,3.8,2.5025,0.6026454130616153,-0.01841245085994206,0.7854203386364516,0.005864132144000626,-0.087444,-34.278183
11.185,2.0,1.0,1.0,34.9,33.5,33.5,1.8,3.8,2.505,0.5953433429526405,-0.018719426142214952,0.7908231208925294,0.005760772163428765,-0.088471,-34.161175
11.185,2.0,1.0,1.0,34.9,33.5,33.5,1.8,3.8,2.5075,0.5879467675502096,-0.019030560570306398,0.7961894290686979,0.005652214581209721,-0.089517,-34.043828
11.185,2.0,1.0,1.0,34.9,33.5,33.5,1.8,3.8,2.51,0.5804548284686516,-0.01934588523711375,0.8015179479611394,0.005538294722235542,-0.090582,-33.926136
11.185,2.0,1.0,1.0,34.9,33.5,33.5,1.8,3.8,2.5125,0.5728666655708903,-0.019665429938896233,0.8068073263030662,0.005418842980209725,-0.091666,-33.808096
11.185,2.0,1.0,1.0,34.9,33.5,33.5,1.8,3.8,2.515,0.5651814174624156,-0.0199892230610178,0.8120561758290095,0.005293684677158034,-0.092771,-33.689703
11.185,2.0,1.0,1.0,34.9,33.5,33.5,1.8,3.8,2.5175,0.5573982220165374,-0.020317291457193496,0.817263070319594,0.005162639919640656,-0.093896,-33.570953
11.185,2.0,1.0,1.0,34.9,33.5,33.5,1.8,3.8,2.52,0.5495162169323811,-0.02064966032191631,0.8224265446267515,0.005025523451647285,-0.095042,-33.451842
11.185,2.0,1.0,1.0,34.9,33.5,33.5,1.8,3.8,2.5225,0.5415345403271968,-0.02098635305572336,0.8275450936793391,0.004882144504164158,-0.096209,-33.332365
11.185,2.0,1.0,1.0,34.9,33.5,33.5,1.8,3.8,2.525,0.53345233136455,-0.021327391122949527,0.8326171714691967,0.004732306641407133,-0.097399,-33.212519
11.185,2.0,1.0,1.0,34.9,33.5,33.5,1.8,3.8,2.5275,0.5252687309200754,-0.02167279390159698,0.837641190017692,0.004575807603722362,-0.09861,-33.0923
11.185,2.0,1.0,1.0,34.9,33.5,33.5,1.8,3.8,2.53,0.5169828822865099,-0.022022578524934232,0.8426155183228383,0.004412439147163389,-0.099844,-32.971702
11.185,2.0,1.0,1.0,34.9,33.5,33.5,1.8,3.8,2.5325,0.5085939319198137,-0.022376759714421397,0.8475384812871374,0.004241986879761801,-0.101102,-32.850722
11.185,2.0,1.0,1.0,34.9,33.5,33.5,1.8,3.8,2.535,0.5001010302282034,-0.022735349603540636,0.8524083586263307,0.004064230094517922,-0.102383,-32.729355
11.185,2.0,1.0,1.0,34.9,33.5,33.5,1.8,3.8,2.5375,0.49150333240608146,-0.023098357552091088,0.8572233837592886,0.0038789415991471437,-0.103689,-32.607598
11.185,2.0,1.0,1.0,34.9,33.5,33.5,1.8,3.8,2.54,0.48279999931479683,-0.0234657899504911,0.8619817426793477,0.0036858875426289406,-0.10502,-32.485445
11.185,2.0,1.0,1.0,34.9,33.5,33.5,1.8,3.8,2.5425,0.47399019841236206,-0.02383765001360893,0.8666815728074432,0.003484827238616835,-0.106376,-32.362894
11.185,2.0,1.0,1.0,34.9,33.5,33.5,1.8,3.8,2.545,0.46507310473423347,-0.024213937563623954,0.8713209618274561,0.0032755129857805236,-0.107757,-32.239938
11.185,2.0,1.0,1.0,34.9,33.5,33.5,1.8,3.8,2.5475,0.456047901927402,-0.024594648801397945,0.8758979465042658,0.0030576898851647893,-0.109166,-32.116575
11.185,2.0,1.0,1.0,34.9,33.5,33.5,1.8,3.8,2.55,0.44691378334006626,-0.024979776065818027,0.880410511485083,0.0028310956546646585,-0.110602,-31.9928
11.185,2.0,1.0,1.0,34.9,33.5,33.5,1.8,3.8,2.5525,0.43766995316928303,-0.025369307580544974,0.8848565880846833,0.0025954604407330494,-0.112065,-31.868607
11.185,2.0,1.0,1.0,34.9,33.5,33.5,1.8,3.8,2.555,0.4283156276690319,-0.025763227187583233,0.8892340530553028,0.002350506627453307,-0.113557,-31.743994
11.185,2.0,1.0,1.0,34.9,33.5,33.5,1.8,3.8,2.5575,0.4188500364212293,-0.026161514067062422,0.8935407273419966,0.002095948643128155,-0.115078,-31.618956
11.185,2.0,1.0,1.0,34.9,33.5,33.5,1.8,3.8,2.56,0.40927242367230965,-0.02656414244259556,0.8977743748243947,0.0018314927645575083,-0.116628,-31.493488
11.185,2.0,1.0,1.0,34.9,33.5,33.5,1.8,3.8,2.5625,0.39958204973805495,-0.02697108127155602,0.9019327010458622,0.0015568369191978112,-0.118209,-31.367587
11.185,2.0,1.0,1.0,34.9,33.5,33.5,1.8,3.8,2.565,0.3897781924794611,-0.027382293919588293,0.9060133519312323,0.0012716704854195489,-0.119821,-31.241247
11.185,2.0,1.0,1.0,34.9,33.5,33.5,1.8,3.8,2.5675,0.37986014885248737,-0.027797737818641727,0.9100139124943324,0.0009756740911048219,-0.121465,-31.114464
11.185,2.0,1.0,1.0,34.9,33.5,33.5,1.8,3.8,2.57,0.36982723653462907,-0.028217364107790032,0.9139319055367106,0.0006685194108527992,-0.123142,-30.987234
11.185,2.0,1.0,1.0,34.9,33.5,33.5,1.8,3.8,2.5725,0.3596787956313341,-0.028641117256071016,0.9177647903390758,0.0003498689620895872,-0.124852,-30.859553
11.185,2.0,1.0,1.0,34.9,33.5,33.5,1.8,3.8,2.575,0.3494141904653621,-0.029068934666553702,0.9215099613471005,1.9375900410496956e-05,-0.126596,-30.731416
11.185,2.0,1.0,1.0,34.9,33.5,33.5,1.8,3.8,2.5775,0.33903281145226716,-0.029500746260810607,0.9251647468534112,-0.0003233161854861128,-0.128376,-30.602818
11.185,2.0,1.0,1.0,34.9,33.5,33.5,1.8,3.8,2.58,0.3285340770652747,-0.029936474042944274,0.9287264076777296,-0.0006785734788774371,-0.130191,-30.473756
11.185,2.0,1.0,1.0,34.9,33.5,33.5,1.8,3.8,2.5825,0.3179174358928659,-0.030376031642287995,0.9321921358473069,-0.0010467721396764432,-0.132042,-30.344225
11.185,2.0,1.0,1.0,34.9,33.5,33.5,1.8,3.8,2.585,0.30718236879250976,-0.030819323833868543,0.9355590532799763,-0.0014282985082010862,-0.133932,-30.21422
11.185,2.0,1.0,1.0,34.9,33.5,33.5,1.8,3.8,2.5875,0.29632839114401016,-0.031266246035691087,0.9388242104723385,-0.0018235493075391645,-0.13586,-30.083737
11.185,2.0,1.0,1.0,34.9,33.5,33.5,1.8,3.8,2.59,0.28535505520603555,-0.031716683781873055,0.9419845851957761,-0.0022329318439500874,-0.137827,-29.952772
11.185,2.0,1.0,1.0,34.9,33.5,33.5,1.8,3.8,2.5925,0.27426195257944475,-0.03217051217062342,0.945037081203244,-0.002656864204697214,-0.139835,-29.82132
11.185,2.0,1.0,1.0,34.9,33.5,33.5,1.8,3.8,2.595,0.2630487167811207,-0.032627595286032825,0.9479785269499592,-0.003095775452653886,-0.141884,-29.689376
11.185,2.0,1.0,1.0,34.9,33.5,33.5,1.8,3.8,2.5975,0.25171502593201867,-0.03308778559260779,0.9508056743313822,-0.0035501058169736623,-0.143976,-29.556936
11.185,2.0,1.0,1.0,34.9,33.5,33.5,1.8,3.8,2.6,0.2402606055632637,-0.03355092330145061,0.9535151974421237,-0.004020306879056883,-0.146111,-29.423996
11.185,2.0,1.0,1.0,34.9,33.5,33.5,1.8,3.8,2.6025,0.22868523154413037,-0.034016835706954025,0.9561036913596402,-0.004506841752987394,-0.148291,-29.29055
11.185,2.0,1.0,1.0,34.9,33.5,33.5,1.8,3.8,2.605,0.21698873313578704,-0.034485336492850335,0.9585676709569027,-0.005010185259549521,-0.150516,-29.156596
11.185,2.0,1.0,1.0,34.9,33.5,33.5,1.8,3.8,2.6075,0.20517099617474027,-0.034956225006419414,0.9609035697484577,-0.005530824092867359,-0.152788,-29.022127
11.185,2.0,1.0,1.0,34.9,33.5,33.5,1.8,3.8,2.61,0.19323196638991771,-0.03542928549963158,0.9631077387746336,-0.006069256978640193,-0.155109,-28.887139
11.185,2.0,1.0,1.0,34.9,33.5,33.5,1.8,3.8,2.6125,0.18117165285735576,-0.03590428633596954,0.9651764455289416,-0.006625994822871846,-0.157479,-28.751628
11.185,2.0,1.0,1.0,34.9,33.5,33.5,1.8,3.8,2.615,0.16899013159645743,-0.0363809791616418,0.9671058729340395,-0.007201560849914442,-0.159899,-28.615589
11.185,2.0,1.0,1.0,34.9,33.5,33.5,1.8,3.8,2.6175,0.15668754931179327,-0.03685909803987102,0.9688921183719847,-0.007796490728565115,-0.162371,-28.479018
11.185,2.0,1.0,1.0,34.9,33.5,33.5,1.8,3.8,2.62,0.14426412728439503,-0.0373383585469109,0.9705311927748373,-0.008411332684867991,-0.164897,-28.34191
11.185,2.0,1.0,1.0,34.9,33.5,33.5,1.8,3.8,2.6225,0.13172016541643392,-0.03781845682841613,0.9720190197820477,-0.009046647600183772,-0.167477,-28.204259
11.185,2.0,1.0,1.0,34.9,33.5,33.5,1.8,3.8,2.625,0.11905604643321,-0.0382990686147621,0.973351434971451,-0.00970300909299355,-0.170113,-28.066063
11.185,2.0,1.0,1.0,34.9,33.5,33.5,1.8,3.8,2.6275,0.10627224024620419,-0.03877984819388428,0.9745241851710826,-0.010381003582807576,-0.172806,-27.927315
11.185,2.0,1.0,1.0,34.9,33.5,33.5,1.8,3.8,2.63,0.09336930848097526,-0.03926042734018093,0.9755329278594138,-0.011081230334442915,-0.175558,-27.788011
11.185,2.0,1.0,1.0,34.9,33.5,33.5,1.8,3.8,2.6325,0.08034790917351464,-0.0397404141979976,0.9763732306620932,-0.011804301480829208,-0.178371,-27.648146
11.185,2.0,1.0,1.0,34.9,33.5,33.5,1.8,3.8,2.635,0.06720880163860204,-0.04021939211818848,0.9770405709536375,-0.012550842022387815,-0.181247,-27.507715
11.185,2.0,1.0,1.0,34.9,33.5,33.5,1.8,3.8,2.6375,0.05395285151354676,-0.040696918446227186,0.9775303355730194,-0.013321489800913683,-0.184185,-27.366714
11.185,2.0,1.0,1.0,34.9,33.5,33.5,1.8,3.8,2.64,0.04058103598053695,-0.04117252326031815,0.9778378206625484,-0.014116895445768414,-0.18719,-27.225138
11.185,2.0,1.0,1.0,34.9,33.5,33.5,1.8,3.8,2.6425,0.027094449170659885,-0.04164570805793972,0.9779582316399045,-0.014937722290066404,-0.190262,-27.082981
11.185,2.0,1.0,1.0,34.9,33.5,33.5,1.8,3.8,2.645,0.013494307752426965,-0.04211594438923175,0.977886683313692,-0.015784646254406204,-0.193402,-26.940239
11.185,2.0,1.0,1.0,34.9,33.5,33.5,1.8,3.8,2.6475,-0.000218043292578179,-0.04258267243562261,0.9776182001533383,-0.016658355695563516,-0.196614,-26.796907
11.185,2.0,1.0,1.0,34.9,33.5,33.5,1.8,3.8,2.65,-0.014041124704613345,-0.043045299532074636,0.9771477167247266,-0.01755955121742568,-0.199899,-26.652979
11.185,2.0,1.0,1.0,34.9,33.5,33.5,1.8,3.8,2.6525,-0.027973316789145428,-0.043503198631311135,0.9764700783033982,-0.018488945441298085,-0.203259,-26.50845
11.185,2.0,1.0,1.0,34.9,33.5,33.5,1.8,3.8,2.655,-0.04201285306699517,-0.04395570670837423,0.9755800416777396,-0.019447262732571826,-0.206695,-26.363316
11.185,2.0,1.0,1.0,34.9,33.5,33.5,1.8,3.8,2.6575,-0.05615781372986083,-0.04440212310384806,0.9744722761550503,-0.02043523888058365,-0.210211,-26.21757
11.185,2.0,1.0,1.0,34.9,33.5,33.5,1.8,3.8,2.66,-0.0704061189002373,-0.0448417078040685,0.9731413647839429,-0.021453620728345998,-0.213808,-26.071208
11.185,2.0,1.0,1.0,34.9,33.5,33.5,1.8,3.8,2.6625,-0.08475552169516323,-0.04527367965662576,0.9715818058070543,-0.02250316574866165,-0.217488,-25.924224
11.185,2.0,1.0,1.0,34.9,33.5,33.5,1.8,3.8,2.665,-0.09920360109372647,-0.045697214519451655,0.9697880143585602,-0.02358464156297542,-0.221255,-25.776612
11.185,2.0,1.0,1.0,34.9,33.5,33.5,1.8,3.8,2.6675,-0.11374775460868056,-0.04611144334176617,0.9677543244215328,-0.0246988253991427,-0.22511,-25.628367
11.185,2.0,1.0,1.0,34.9,33.5,33.5,1.8,3.8,2.67,-0.12838519076314478,-0.04651545017513874,0.9654749910606973,-0.025846503484125385,-0.229056,-25.479483
11.185,2.0,1.0,1.0,34.9,33.5,33.5,1.8,3.8,2.6725,-0.1431129213738792,-0.0469082701128981,0.9629441929466539,-0.02702847036744689,-0.233095,-25.329954
11.185,2.0,1.0,1.0,34.9,33.5,33.5,1.8,3.8,2.675,-0.15792775364324693,-0.047288887156095596,0.9601560351881204,-0.028245528171056713,-0.23723,-25.179775
11.185,2.0,1.0,1.0,34.9,33.5,33.5,1.8,3.8,2.6775,-0.17282628206264108,-0.047656232004194936,0.9571045524892947,-0.029498485761071877,-0.241465,-25.028938
11.185,2.0,1.0,1.0,34.9,33.5,33.5,1.8,3.8,2.68,-0.18780488013083357,-0.04800917976862065,0.9537837126498278,-0.03078815783667279,-0.245801,-24.877437
11.185,2.0,1.0,1.0,34.9,33.5,33.5,1.8,3.8,2.6825,-0.2028596918914092,-0.04834654760724504,0.9501874204254074,-0.03211536393123619,-0.250242,-24.725267
11.185,2.0,1.0,1.0,34.9,33.5,33.5,1.8,3.8,2.685,-0.21798662329424856,-0.04866709227783395,0.9463095217673634,-0.03348092732059278,-0.254792,-24.57242
11.185,2.0,1.0,1.0,34.9,33.5,33.5,1.8,3.8,2.6875,-0.2331813333867853,-0.04896950760839235,0.9421438084601087,-0.03488567383309061,-0.259452,-24.418889
11.185,2.0,1.0,1.0,34.9,33.5,33.5,1.8,3.8,2.69,-0.24843922534157648,-0.049252421882258555,0.9376840231755567,-0.03633043055593608,-0.264227,-24.264669
11.185,2.0,1.0,1.0,34.9,33.5,33.5,1.8,3.8,2.6925,-0.2637554373276403,-0.04951439513568035,0.9329238649640484,-0.037816024432070175,-0.269119,-24.10975
11.185,2.0,1.0,1.0,34.9,33.5,33.5,1.8,3.8,2.695,-0.2791248332337916,-0.04975391636546754,0.9278569952015765,-0.039343280741607554,-0.274134,-23.954126
11.185,2.0,1.0,1.0,34.9,33.5,33.5,1.8,3.8,2.6975,-0.29454199325321206,-0.04996940064414806,0.922477044013308,-0.04091302146163707,-0.279273,-23.797789
11.185,2.0,1.0,1.0,34.9,33.5,33.5,1.8,3.8,2.7,-0.310001204339302,-0.050159186139853186,0.9167776171936968,-0.04252606349792874,-0.284542,-23.640731
11.185,2.0,1.0,1.0,34.9,33.5,33.5,1.8,3.8,2.7025,-0.325496450543839,-0.050321531037916714,0.9107523036434964,-0.04418321678183667,-0.289944,-23.482944
11.185,2.0,1.0,1.0,34.9,33.5,33.5,1.8,3.8,2.705,-0.34102140324934566,-0.050454610360888864,0.904394683344213,-0.04588528222540199,-0.295484,-23.324418
11.185,2.0,1.0,1.0,34.9,33.5,33.5,1.8,3.8,2.7075,-0.35656941130848496,-0.05055651268332606,0.8976983358904487,-0.04763304952736307,-0.301165,-23.165145
11.185,2.0,1.0,1.0,34.9,33.5,33.5,1.8,3.8,2.71,-0.37213349110416377,-0.050625236737322846,0.8906568496006623,-0.049427294822449466,-0.306992,-23.005116
11.185,2.0,1.0,1.0,34.9,33.5,33.5,1.8,3.8,2.7125,-0.3877063165448785,-0.05065868790428477,0.8832638312267157,-0.05126877816597842,-0.312971,-22.84432
11.185,2.0,1.0,1.0,34.9,33.5,33.5,1.8,3.8,2.715,-0.40328020901063355,-0.05065467458789908,0.875512916282491,-0.05315824084537019,-0.319105,-22.682747
11.185,2.0,1.0,1.0,34.9,33.5,33.5,1.8,3.8,2.7175,-0.41884712726546525,-0.050610904462628316,0.867397780011619,-0.055096402509756275,-0.325401,-22.520387
11.185,2.0,1.0,1.0,34.9,33.5,33.5,1.8,3.8,2.72,-0.43439865735326855,-0.050524980591321024,0.85891214901413,-0.05708395810834413,-0.331863,-22.357228
11.185,2.0,1.0,1.0,34.9,33.5,33.5,1.8,3.8,2.7225,-0.44992600249418196,-0.05039439740468884,0.8500498135515083,-0.05912157462763663,-0.338498,-22.193259
11.185,2.0,1.0,1.0,34.9,33.5,33.5,1.8,3.8,2.725,-0.46541997299914006,-0.05021653653443207,0.8408046405493221,-0.06120988761693697,-0.34531,-22.028467
11.185,2.0,1.0,1.0,34.9,33.5,33.5,1.8,3.8,2.7275,-0.4808709762205575,-0.04998866249067896,0.8311705873161415,-0.0633494974908263,-0.352307,-21.862839
11.185,2.0,1.0,1.0,34.9,33.5,33.5,1.8,3.8,2.73,-0.4962690065571156,-0.04970791817313861,0.8211417159971462,-0.06554096559641269,-0.359495,-21.696362
11.185,2.0,1.0,1.0,34.9,33.5,33.5,1.8,3.8,2.7325,-0.5116036355305759,-0.049371320203915166,0.8107122087803325,-0.06778481003214337,-0.36688,-21.529021
11.185,2.0,1.0,1.0,34.9,33.5,33.5,1.8,3.8,2.735,-0.5268640019521339,-0.04897575406828876,0.7998763838728874,-0.07008150120377746,-0.37447,-21.360802
11.185,2.0,1.0,1.0,34.9,33.5,33.5,1.8,3.8,2.7375,-0.542038802195255,-0.0485179690479062,0.7886287122649305,-0.07243145710173707,-0.382272,-21.191687
11.185,2.0,1.0,1.0,34.9,33.5,33.5,1.8,3.8,2.74,-0.5571162805909372,-0.04799457292871884,0.7769638352975575,-0.07483503828242544,-0.390294,-21.021661
11.185,2.0,1.0,1.0,34.9,33.5,33.5,1.8,3.8,2.7425,-0.5720842199601313,-0.047402026463635755,0.7648765830519638,-0.07729254253420474,-0.398545,-20.850706
11.185,2.0,1.0,1.0,34.9,33.5,33.5,1.8,3.8,2.745,-0.5869299322962862,-0.0467366375671959,0.7523619935764349,-0.07980419920649116,-0.407032,-20.678803
11.185,2.0,1.0,1.0,34.9,33.5,33.5,1.8,3.8,2.7475,-0.6016402496089158,-0.045994555216578414,0.7394153329682289,-0.08237016317780774,-0.415766,-20.505933
11.185,2.0,1.0,1.0,34.9,33.5,33.5,1.8,3.8,2.75,-0.616201514936448,-0.0451717630299323,0.726032116327868,-0.0849905084355674,-0.424756,-20.332073
11.185,2.0,1.0,1.0,34.9,33.5,33.5,1.8,3.8,2.7525,-0.6305995735334383,-0.04426407248928719,0.7122081296042918,-0.08766522123675022,-0.434012,-20.157203
11.185,2.0,1.0,1.0,34.9,33.5,33.5,1.8,3.8,2.755,-0.6448197642334779,-0.043267115771167396,0.697939452350633,-0.090394192814413,-0.443546,-19.981299
11.185,2.0,1.0,1.0,34.9,33.5,33.5,1.8,3.8,2.7575,-0.6588469109847342,-0.04217633814344322,0.6832224814123246,-0.09317721159002225,-0.453368,-19.804336
11.185,2.0,1.0,1.0,34.9,33.5,33.5,1.8,3.8,2.76,-0.6726653145498636,-0.04098698988187563,0.668053955571896,-0.09601395484577976,-0.463492,-19.626288
11.185,2.0,1.0,1.0,34.9,33.5,33.5,1.8,3.8,2.7625,-0.686258744356176,-0.03969411765420955,0.6524309811782767,-0.09890397980432679,-0.473929,-19.447127
11.185,2.0,1.0,1.0,34.9,33.5,33.5,1.8,3.8,2.765,-0.6996104304751688,-0.038292555313512056,0.6363510587930197,-0.1018467140552424,-0.484695,-19.266823
11.185,2.0,1.0,1.0,34.9,33.5,33.5,1.8,3.8,2.7675,-0.7127030557028742,-0.03677691403569725,0.6198121108915858,-0.10484144525844222,-0.495803,-19.085346
11.185,2.0,1.0,1.0,34.9,33.5,33.5,1.8,3.8,2.77,-0.7255187477039161,-0.03514157172879638,0.6028125106651543,-0.10788731004370321,-0.507269,-18.902662
11.185,2.0,1.0,1.0,34.9,33.5,33.5,1.8,3.8,2.7725,-0.7380390711725052,-0.033380661633499245,0.5853511119774355,-0.11098328201280756,-0.519111,-18.718736
11.185,2.0,1.0,1.0,34.9,33.5,33.5,1.8,3.8,2.775,-0.7502450199529868,-0.031488060025774395,0.5674272805421748,-0.11412815873593807,-0.531346,-18.533532
11.185,2.0,1.0,1.0,34.9,33.5,33.5,1.8,3.8,2.7775,-0.7621170090507563,-0.029457372922971008,0.5490409264006638,-0.1173205476165941,-0.543993,-18.347008
11.185,2.0,1.0,1.0,34.9,33.5,33.5,1.8,3.8,2.78,-0.7736348664515281,-0.02728192168470171,0.5301925377951352,-0.1205588504790306,-0.557074,-18.159125
11.185,2.0,1.0,1.0,34.9,33.5,33.5,1.8,3.8,2.7825,-0.7847778246528719,-0.024954727389033364,0.5108832165540699,-0.12384124670854321,-0.570609,-17.969836
11.185,2.0,1.0,1.0,34.9,33.5,33.5,1.8,3.8,2.785,-0.7955245117969346,-0.022468493853084373,0.49111471512942906,-0.1271656747473174,-0.584623,-17.779096
11.185,2.0,1.0,1.0,34.9,33.5,33.5,1.8,3.8,2.7875,-0.805852942276979,-0.01981558915515182,0.47088947545488424,-0.1305298117162824,-0.599141,-17.586854
11.185,2.0,1.0,1.0,34.9,33.5,33.5,1.8,3.8,2.79,-0.8157405066733965,-0.01698802550304005,0.45021066982848645,-0.1339310508957778,-0.614191,-17.393058
11.185,2.0,1.0,1.0,34.9,33.5,33.5,1.8,3.8,2.7925,-0.8251639608568309,-0.013977437280540945,0.42908224406443574,-0.1373664767538481,-0.629803,-17.197651
11.185,2.0,1.0,1.0,34.9,33.5,33.5,1.8,3.8,2.795,-0.8340994140777093,-0.010775057091231841,0.4075089632072899,-0.14083283715963948,-0.646009,-17.000573
11.185,2.0,1.0,1.0,34.9,33.5,33.5,1.8,3.8,2.7975,-0.8425223158426643,-0.0073716896062918525,0.38549646015994565,-0.14432651235932592,-0.662843,-16.801763
11.185,2.0,1.0,1.0,34.9,33.5,33.5,1.8,3.8,2.8,-0.8504074413600458,-0.00375768301130195,0.3630512876449876,-0.14784348022186292,-0.680344,-16.601152
11.185,2.0,1.0,1.0,34.9,33.5,33.5,1.8,3.8,2.8025,-0.857728875319059,7.710216331605074e-05,0.3401809739999704,-0.15137927717979308,-0.698552,-16.39867
11.185,2.0,1.0,1.0,34.9,33.5,33.5,1.8,3.8,2.805,-0.864459993751409,0.004143327051643312,0.31689408340260855,-0.1549289541943226,-0.717512,-16.194243
11.185,2.0,1.0,1.0,34.9,33.5,33.5,1.8,3.8,2.8075,-0.8705734437113851,0.008452211529506006,0.2932002812342398,-0.1584870269614907,-0.737273,-15.987791
11.185,2.0,1.0,1.0,34.9,33.5,33.5,1.8,3.8,2.81,-0.8760411205020602,0.013015574587530582,0.26911040542253195,-0.16204741944459325,-0.757887,-15.77923
11.185,2.0,1.0,1.0,34.9,33.5,33.5,1.8,3.8,2.8125,-0.880834142173318,0.0178458782208257,0.244636544760323,-0.165603399663724,-0.779414,-15.568472
11.185,2.0,1.0,1.0,34.9,33.5,33.5,1.8,3.8,2.815,-0.8849228210248605,0.022956275039523463,0.21979212538106468,-0.1691475064924036,-0.801916,-15.355422
11.185,2.0,1.0,1.0,34.9,33.5,33.5,1.8,3.8,2.8175,-0.8882766318673478,0.02836065977484004,0.19459200678714103,-0.17267146599908734,-0.825463,-15.139982
11.185,2.0,1.0,1.0,34.9,33.5,33.5,1.8,3.8,2.82,-0.8908641768322243,0.03407372480828152,0.16905258908105328,-0.17616609562242203,-0.850131,-14.922047
11.185,2.0,1.0,1.0,34.9,33.5,33.5,1.8,3.8,2.8225,-0.8926531465815937,0.04011101978117872,0.14319193334756136,-0.1796211941770728,-0.876007,-14.701506
11.185,2.0,1.0,1.0,34.9,33.5,33.5,1.8,3.8,2.825,-0.8936102778614153,0.04648901524015155,0.11702989748469003,-0.18302541534433414,-0.903181,-14.478244
11.185,2.0,1.0,1.0,34.9,33.5,33.5,1.8,3.8,2.8275,-0.8937013074749012,0.05322517013126731,0.09058829019201252,-0.1863661218999998,-0.931758,-14.252137
