1,w,sub_t,h,l1,l2,l3,g1,g2,Freq,S11_re,S21_re,S11_img,S21_img,S11_dB,S21_dB
11.185,2.0,1.0,1.0,34.7,33.6,33.6,1.5,1.6,2.5,0.649396522352937,-0.0327882641156236,0.746310017890421,0.0186564415151769,-0.093529,-28.467545
11.185,2.0,1.0,1.0,34.7,33.6,33.6,1.5,1.6,2.5025,0.6427416633328433,-0.03343156772756696,0.7518543769991577,0.01861904750417294,-0.094827,-28.343585
11.185,2.0,1.0,1.0,34.7,33.6,33.6,1.5,1.6,2.505,0.635996935168204,-0.03408681971828858,0.7573711163083446,0.018574443773110995,-0.096154,-28.219094
11.185,2.0,1.0,1.0,34.7,33.6,33.6,1.5,1.6,2.5075,0.6291613620136599,-0.034754243985722064,0.7628591474752893,0.018522325849166178,-0.097508,-28.094067
11.185,2.0,1.0,1.0,34.7,33.6,33.6,1.5,1.6,2.51,0.6222339573665191,-0.03543406811548592,0.7683173479309672,0.018462377225800554,-0.098892,-27.968494
11.185,2.0,1.0,1.0,34.7,33.6,33.6,1.5,1.6,2.5125,0.6152137241998957,-0.0361265233766534,0.773744559763349,0.01839426886305814,-0.100305,-27.842369
11.185,2.0,1.0,1.0,34.7,33.6,33.6,1.5,1.6,2.515,0.6080996551155453,-0.03683184471089464,0.7791395885634507,0.01831765866584241,-0.101749,-27.715685
11.185,2.0,1.0,1.0,34.7,33.6,33.6,1.5,1.6,2.5175,0.6008907325177606,-0.03755027071435601,0.7845012022327974,0.01823219093915441,-0.103225,-27.588433
11.185,2.0,1.0,1.0,34.7,33.6,33.6,1.5,1.6,2.52,0.5935859288097096,-0.03828204361159105,0.7898281297509813,0.01813749581921945,-0.104733,-27.460605
11.185,2.0,1.0,1.0,34.7,33.6,33.6,1.5,1.6,2.5225,0.5861842066137626,-0.039027409220800634,0.7951190599019096,0.01803318867937821,-0.106275,-27.332194
11.185,2.0,1.0,1.0,34.7,33.6,33.6,1.5,1.6,2.525,0.578684519017372,-0.03978661690958394,0.8003726399573279,0.0179188695095645,-0.107851,-27.203192
11.185,2.0,1.0,1.0,34.7,33.6,33.6,1.5,1.6,2.5275,0.5710858098462109,-0.04055991954033632,0.8055874743161343,0.01779412226813504,-0.109463,-27.07359
11.185,2.0,1.0,1.0,34.7,33.6,33.6,1.5,1.6,2.53,0.5633870139663884,-0.04134757340436091,0.8107621230979373,0.017658514204755553,-0.111111,-26.943381
11.185,2.0,1.0,1.0,34.7,33.6,33.6,1.5,1.6,2.5325,0.5555870576176416,-0.04214983814368779,0.8158951006892933,0.017511595152986795,-0.112798,-26.812555
11.185,2.0,1.0,1.0,34.7,33.6,33.6,1.5,1.6,2.535,0.5476848587795375,-0.04296697665951447,0.8209848742409637,0.017352896791145912,-0.114522,-26.681105
11.185,2.0,1.0,1.0,34.7,33.6,33.6,1.5,1.6,2.5375,0.5396793275728692,-0.04379925500609335,0.8260298621145024,0.017181931869953267,-0.116288,-26.549021
11.185,2.0,1.0,1.0,34.7,33.6,33.6,1.5,1.6,2.54,0.5315693666985144,-0.04464694226880051,0.8310284322764135,0.01699819340539834,-0.118094,-26.416295
11.185,2.0,1.0,1.0,34.7,33.6,33.6,1.5,1.6,2.5425,0.5233538719162263,-0.04551031042501886,0.8359789006380719,0.016801153835187196,-0.119943,-26.282919
11.185,2.0,1.0,1.0,34.7,33.6,33.6,1.5,1.6,2.545,0.5150317325659345,-0.0463896341863587,0.8408795293395157,0.016590264137051197,-0.121836,-26.148882
11.185,2.0,1.0,1.0,34.7,33.6,33.6,1.5,1.6,2.5475,0.506601832134342,-0.047285190820622776,0.8457285249751753,0.016364952907117068,-0.123775,-26.014175
11.185,2.0,1.0,1.0,34.7,33.6,33.6,1.5,1.6,2.55,0.49806304886971925,-0.04819725995179574,0.8505240367595402,0.016124625396448537,-0.12576,-25.878791
11.185,2.0,1.0,1.0,34.7,33.6,33.6,1.5,1.6,2.5525,0.48941425644806974,-0.04912612333619794,0.8552641546306674,0.015868662503783264,-0.127794,-25.742718
11.185,2.0,1.0,1.0,34.7,33.6,33.6,1.5,1.6,2.555,0.4806543246939522,-0.0500720646127997,0.8599469072894116,0.015596419722388899,-0.129878,-25.605947
11.185,2.0,1.0,1.0,34.7,33.6,33.6,1.5,1.6,2.5575,0.47178212035951395,-0.051035369025528576,0.8645702601721473,0.015307226038868488,-0.132014,-25.468468
11.185,2.0,1.0,1.0,34.7,33.6,33.6,1.5,1.6,2.56,0.46279650796551375,-0.052016323115228295,0.8691321133547054,0.015000382781637967,-0.134203,-25.330272
11.185,2.0,1.0,1.0,34.7,33.6,33.6,1.5,1.6,2.5625,0.45369635070833253,-0.05301521437874215,0.8736302993851518,0.014675162416693267,-0.136447,-25.191349
11.185,2.0,1.0,1.0,34.7,33.6,33.6,1.5,1.6,2.565,0.44448051143725015,-0.05403233089238938,0.8780625810429918,0.014330807288169975,-0.138749,-25.051688
11.185,2.0,1.0,1.0,34.7,33.6,33.6,1.5,1.6,2.5675,0.43514785370655684,-0.05506796089688222,0.882426649022256,0.013966528301083988,-0.14111,-24.911278
11.185,2.0,1.0,1.0,34.7,33.6,33.6,1.5,1.6,2.57,0.4256972429073354,-0.056122392340494404,0.8867201195359081,0.013581503543516442,-0.143532,-24.770109
11.185,2.0,1.0,1.0,34.7,33.6,33.6,1.5,1.6,2.5725,0.41612754748409736,-0.057195912377034315,0.8909405318388796,0.013174876845382098,-0.146017,-24.628171
11.185,2.0,1.0,1.0,34.7,33.6,33.6,1.5,1.6,2.575,0.40643764024179574,-0.05828880681489285,0.8950853456669862,0.012745756270786257,-0.148569,-24.485452
11.185,2.0,1.0,1.0,34.7,33.6,33.6,1.5,1.6,2.5775,0.3966263997491017,-0.0594013595131376,0.8991519385888971,0.012293212540840958,-0.151188,-24.341941
11.185,2.0,1.0,1.0,34.7,33.6,33.6,1.5,1.6,2.58,0.38669271184423565,-0.06053385172029178,0.9031376032682247,0.011816277383667443,-0.153877,-24.197627
11.185,2.0,1.0,1.0,34.7,33.6,33.6,1.5,1.6,2.5825,0.3766354712500519,-0.06168656135108381,0.9070395446327534,0.011313941808166356,-0.15664,-24.052499
11.185,2.0,1.0,1.0,34.7,33.6,33.6,1.5,1.6,2.585,0.3664535833055586,-0.06285976219606215,0.910854876947718,0.010785154297985827,-0.159478,-23.906544
11.185,2.0,1.0,1.0,34.7,33.6,33.6,1.5,1.6,2.5875,0.3561459658215232,-0.0640537230585561,0.9145806207899702,0.010228818921962106,-0.162395,-23.75975
11.185,2.0,1.0,1.0,34.7,33.6,33.6,1.5,1.6,2.59,0.34571155106835816,-0.06526870681299876,0.9182136999197859,0.009643793357146003,-0.165393,-23.612107
11.185,2.0,1.0,1.0,34.7,33.6,33.6,1.5,1.6,2.5925,0.3351492879050338,-0.06650496937814268,0.9217509380470102,0.009028886820366917,-0.168476,-23.4636
11.185,2.0,1.0,1.0,34.7,33.6,33.6,1.5,1.6,2.595,0.3244581440584012,-0.06776275859815002,0.9251890554881222,0.008382857904115283,-0.171646,-23.314218
11.185,2.0,1.0,1.0,34.7,33.6,33.6,1.5,1.6,2.5975,0.31363710856294796,-0.06904231302396438,0.9285246657107672,0.007704412312357307,-0.174907,-23.163948
11.185,2.0,1.0,1.0,34.7,33.6,33.6,1.5,1.6,2.6,0.3026851943717098,-0.07034386058672756,0.931754271762214,0.006992200491719519,-0.178263,-23.012776
11.185,2.0,1.0,1.0,34.7,33.6,33.6,1.5,1.6,2.6025,0.2916014411498845,-0.07166761715431239,0.9348742625781525,0.006244815153309692,-0.181718,-22.860691
11.185,2.0,1.0,1.0,34.7,33.6,33.6,1.5,1.6,2.605,0.28038491826344536,-0.07301378496129408,0.9378809091681607,0.005460788680264317,-0.185274,-22.707677
11.185,2.0,1.0,1.0,34.7,33.6,33.6,1.5,1.6,2.6075,0.26903472797601363,-0.07438255090185752,0.9407703606741779,0.004638590415939497,-0.188936,-22.553722
11.185,2.0,1.0,1.0,34.7,33.6,33.6,1.5,1.6,2.61,0.25755000886818286,-0.07577408467424375,0.9435386402982213,0.0037766238274930374,-0.192709,-22.398811
11.185,2.0,1.0,1.0,34.7,33.6,33.6,1.5,1.6,2.6125,0.24592993949454015,-0.07718853676436709,0.9461816410956343,0.0028732235394365205,-0.196597,-22.24293
11.185,2.0,1.0,1.0,34.7,33.6,33.6,1.5,1.6,2.615,0.23417374229477075,-0.078626036255172,0.9486951216300874,0.0019266522315786459,-0.200604,-22.086065
11.185,2.0,1.0,1.0,34.7,33.6,33.6,1.5,1.6,2.6175,0.22228068777646104,-0.08008668844713657,0.9510747014866139,0.0009350973956301574,-0.204736,-21.928201
11.185,2.0,1.0,1.0,34.7,33.6,33.6,1.5,1.6,2.62,0.21025009898854108,-0.08157057227406896,0.9533158566389734,-0.00010333205539579631,-0.208997,-21.769323
11.185,2.0,1.0,1.0,34.7,33.6,33.6,1.5,1.6,2.6225,0.19808135630574697,-0.08307773749696425,0.9554139146677272,-0.001190609330976592,-0.213393,-21.609415
11.185,2.0,1.0,1.0,34.7,33.6,33.6,1.5,1.6,2.625,0.185773902546091,-0.0846082016571737,0.957364049825478,-0.00232879346615141,-0.217931,-21.448462
11.185,2.0,1.0,1.0,34.7,33.6,33.6,1.5,1.6,2.6275,0.17332724844496591,-0.08616194676850517,0.9591612779458915,-0.0035200331900343295,-0.222614,-21.286448
11.185,2.0,1.0,1.0,34.7,33.6,33.6,1.5,1.6,2.63,0.16074097851142563,-0.08773891572605956,0.9608004511932893,-0.004766570965968063,-0.227452,-21.123356
11.185,2.0,1.0,1.0,34.7,33.6,33.6,1.5,1.6,2.6325,0.1480147572941697,-0.08933900840765079,0.9622762526498295,-0.006070747209521593,-0.232448,-20.95917
11.185,2.0,1.0,1.0,34.7,33.6,33.6,1.5,1.6,2.635,0.13514833608695662,-0.09096207744149606,0.9635831907376009,-0.007435004690484975,-0.237612,-20.793874
11.185,2.0,1.0,1.0,34.7,33.6,33.6,1.5,1.6,2.6375,0.12214156010558189,-0.09260792361151286,0.9647155934733256,-0.008861893124907056,-0.24295,-20.627449
11.185,2.0,1.0,1.0,34.7,33.6,33.6,1.5,1.6,2.64,0.10899437617112047,-0.0942762908689754,0.965667602553812,-0.010354073963047243,-0.248469,-20.459879
11.185,2.0,1.0,1.0,34.7,33.6,33.6,1.5,1.6,2.6425,0.09570684093703494,-0.0959668609164605,0.9664331672708686,-0.01191432537884568,-0.254179,-20.291146
11.185,2.0,1.0,1.0,34.7,33.6,33.6,1.5,1.6,2.645,0.08227912970080768,-0.09767924732691659,0.9670060382550495,-0.013545547466154186,-0.260088,-20.12123
11.185,2.0,1.0,1.0,34.7,33.6,33.6,1.5,1.6,2.6475,0.06871154584416449,-0.09941298915729548,0.9673797610484262,-0.015250767646485535,-0.266205,-19.950114
11.185,2.0,1.0,1.0,34.7,33.6,33.6,1.5,1.6,2.65,0.055004530949652755,-0.10116754401247542,0.9675476695075326,-0.017033146292414196,-0.272539,-19.777779
11.185,2.0,1.0,1.0,34.7,33.6,33.6,1.5,1.6,2.6525,0.04115867564541103,-0.10294228051111089,0.9675028790388082,-0.018895982569957222,-0.279102,-19.604205
11.185,2.0,1.0,1.0,34.7,33.6,33.6,1.5,1.6,2.655,0.027174731234347882,-0.10473647010058633,0.9672382796702051,-0.02084272050227895,-0.285904,-19.429372
11.185,2.0,1.0,1.0,34.7,33.6,33.6,1.5,1.6,2.6575,0.013053622168835922,-0.10654927816333466,0.9667465289642978,-0.02287695525582158,-0.292956,-19.25326
11.185,2.0,1.0,1.0,34.7,33.6,33.6,1.5,1.6,2.66,-0.0012035405626837792,-0.10837975435139237,0.9660200447801138,-0.025002439648459412,-0.30027,-19.075849
11.185,2.0,1.0,1.0,34.7,33.6,33.6,1.5,1.6,2.6625,-0.01559544506498235,-0.11022682208015867,0.9650509978931958,-0.027223090877432955,-0.307861,-18.897117
11.185,2.0,1.0,1.0,34.7,33.6,33.6,1.5,1.6,2.665,-0.030120563102649347,-0.1120892671058324,0.9638313044860919,-0.029542997462605726,-0.31574,-18.717044
11.185,2.0,1.0,1.0,34.7,33.6,33.6,1.5,1.6,2.6675,-0.044777133518478535,-0.11396572510387414,0.9623526185245792,-0.031966426397901836,-0.323923,-18.535607
11.185,2.0,1.0,1.0,34.7,33.6,33.6,1.5,1.6,2.67,-0.059563144410455994,-0.11585466815803327,0.960606324038671,-0.03449783050059162,-0.332426,-18.352783
11.185,2.0,1.0,1.0,34.7,33.6,33.6,1.5,1.6,2.6725,-0.07447631396582576,-0.1177543900608885,0.9585835273317496,-0.03714185594425974,-0.341264,-18.168551
11.185,2.0,1.0,1.0,34.7,33.6,33.6,1.5,1.6,2.675,-0.089514069841497,-0.11966299031744115,0.9562750491462898,-0.03990334995673748,-0.350455,-17.982886
11.185,2.0,1.0,1.0,34.7,33.6,33.6,1.5,1.6,2.6775,-0.1046735269700573,-0.12157835673297211,0.9536714168205856,-0.04278736865886932,-0.360018,-17.795766
11.185,2.0,1.0,1.0,34.7,33.6,33.6,1.5,1.6,2.68,-0.11995146365962908,-0.12349814645505473,0.9507628564778878,-0.045799185013577486,-0.369973,-17.607166
11.185,2.0,1.0,1.0,34.7,33.6,33.6,1.5,1.6,2.6825,-0.13534429584378535,-0.12541976532720173,0.9475392852975372,-0.04894429684708991,-0.38034,-17.417061
11.185,2.0,1.0,1.0,34.7,33.6,33.6,1.5,1.6,2.685,-0.1508480493245736,-0.12734034539804703,0.943990303927258,-0.05222843489524517,-0.391142,-17.225427
11.185,2.0,1.0,1.0,34.7,33.6,33.6,1.5,1.6,2.6875,-0.1664583298373195,-0.1292567204151044,0.940105189106992,-0.05565757081720633,-0.402404,-17.032237
11.185,2.0,1.0,1.0,34.7,33.6,33.6,1.5,1.6,2.69,-0.18217029075014024,-0.13116539911589925,0.9358728865877576,-0.05923792510645215,-0.414151,-16.837466
11.185,2.0,1.0,1.0,34.7,33.6,33.6,1.5,1.6,2.6925,-0.19797859819407457,-0.13306253611157365,0.9312820044443639,-0.06297597481425098,-0.42641,-16.641088
11.185,2.0,1.0,1.0,34.7,33.6,33.6,1.5,1.6,2.695,-0.21387739340097695,-0.13494390013874996,0.9263208068987642,-0.06687846098354525,-0.43921,-16.443075
11.185,2.0,1.0,1.0,34.7,33.6,33.6,1.5,1.6,2.6975,-0.22986025200626442,-0.13680483943449678,0.9209772087918028,-0.07095239567090701,-0.452585,-16.243399
11.185,2.0,1.0,1.0,34.7,33.6,33.6,1.5,1.6,2.7,-0.24592014005157029,-0.1386402439664865,0.9152387708656774,-0.0752050684103684,-0.466566,-16.042034
11.185,2.0,1.0,1.0,34.7,33.6,33.6,1.5,1.6,2.7025,-0.26204936639883675,-0.1404445042258948,0.9090926960481153,-0.07964405194496514,-0.48119,-15.838951
11.185,2.0,1.0,1.0,34.7,33.6,33.6,1.5,1.6,2.705,-0.2782395312418933,-0.14221146626413134,0.9025258269628404,-0.08427720701897727,-0.496497,-15.63412
11.185,2.0,1.0,1.0,34.7,33.6,33.6,1.5,1.6,2.7075,-0.29448147037445255,-0.1439343826261735,0.8955246449301509,-0.08911268598535022,-0.512528,-15.427514
11.185,2.0,1.0,1.0,34.7,33.6,33.6,1.5,1.6,2.71,-0.31076519484447984,-0.14560585880307175,0.8880752707672659,-0.09415893493760949,-0.529327,-15.219103
11.185,2.0,1.0,1.0,34.7,33.6,33.6,1.5,1.6,2.7125,-0.3270798255944391,-0.14721779479426758,0.8801634677517479,-0.09942469402268879,-0.546945,-15.008857
11.185,2.0,1.0,1.0,34.7,33.6,33.6,1.5,1.6,2.715,-0.3434135226549439,-0.14876132133686465,0.8717746471739336,-0.10491899552910432,-0.565431,-14.796747
11.185,2.0,1.0,1.0,34.7,33.6,33.6,1.5,1.6,2.7175,-0.35975340842640297,-0.15022673032427492,0.862893876977494,-0.1106511592723761,-0.584844,-14.582741
11.185,2.0,1.0,1.0,34.7,33.6,33.6,1.5,1.6,2.72,-0.376085484549672,-0.15160339890118055,0.8535058940727364,-0.11663078471471333,-0.605244,-14.366811
11.185,2.0,1.0,1.0,34.7,33.6,33.6,1.5,1.6,2.7225,-0.3923945418334,-0.1528797066862385,0.8435951210069713,-0.12286773915676914,-0.626696,-14.148926
11.185,2.0,1.0,1.0,34.7,33.6,33.6,1.5,1.6,2.725,-0.4086640626734433,-0.15404294553934375,0.8331456877927056,-0.1293721412233091,-0.649272,-13.929056
11.185,2.0,1.0,1.0,34.7,33.6,33.6,1.5,1.6,2.7275,-0.42487611537011344,-0.15507922125792772,0.8221414598299951,-0.1361543387293575,-0.673049,-13.707172
11.185,2.0,1.0,1.0,34.7,33.6,33.6,1.5,1.6,2.73,-0.4410112397235475,-0.1559733465584881,0.8105660730173451,-0.14322487985555085,-0.698111,-13.483242
11.185,2.0,1.0,1.0,34.7,33.6,33.6,1.5,1.6,2.7325,-0.45704832326894207,-0.15670872467770888,0.7984029773292306,-0.15059447637770146,-0.724549,-13.257239
11.185,2.0,1.0,1.0,34.7,33.6,33.6,1.5,1.6,2.735,-0.4729644675046635,-0.1572672229152923,0.7856354903518231,-0.15827395748184342,-0.752461,-13.029135
11.185,2.0,1.0,1.0,34.7,33.6,33.6,1.5,1.6,2.7375,-0.4887348434716552,-0.15762903544209564,0.7722468625160146,-0.1662742124479871,-0.781955,-12.798901
11.185,2.0,1.0,1.0,34.7,33.6,33.6,1.5,1.6,2.74,-0.5043325360673268,-0.15777253471764285,0.7582203560533082,-0.17460612019841323,-0.813148,-12.566512
11.185,2.0,1.0,1.0,34.7,33.6,33.6,1.5,1.6,2.7425,-0.5197283765282167,-0.15767411090743463,0.7435393400307956,-0.18328046337432333,-0.846169,-12.331943
11.185,2.0,1.0,1.0,34.7,33.6,33.6,1.5,1.6,2.745,-0.5348907626017889,-0.15730799877140894,0.7281874042020297,-0.19230782422213583,-0.881156,-12.095171
11.185,2.0,1.0,1.0,34.7,33.6,33.6,1.5,1.6,2.7475,-0.5497854660600296,-0.15664609162156345,0.7121484948469348,-0.20169845913173756,-0.918263,-11.856174
11.185,2.0,1.0,1.0,34.7,33.6,33.6,1.5,1.6,2.75,-0.56437542739996,-0.155657742133134,0.695407076271963,-0.211462148167407,-0.957657,-11.614936
11.185,2.0,1.0,1.0,34.7,33.6,33.6,1.5,1.6,2.7525,-0.578620537846511,-0.1543095500575348,0.6779483222071528,-0.22160801536214605,-0.999522,-11.371441
11.185,2.0,1.0,1.0,34.7,33.6,33.6,1.5,1.6,2.755,-0.5924774091433015,-0.152565137248471,0.6597583419742309,-0.23214431490279308,-1.044059,-11.125678
11.185,2.0,1.0,1.0,34.7,33.6,33.6,1.5,1.6,2.7575,-0.6058991321141564,-0.15038491090266784,0.6408244470125722,-0.24307817761321185,-1.09149,-10.87764
11.185,2.0,1.0,1.0,34.7,33.6,33.6,1.5,1.6,2.76,-0.618835025636018,-0.14772581656717665,0.6211354641382656,-0.25441531134520823,-1.142058,-10.627326
11.185,2.0,1.0,1.0,34.7,33.6,33.6,1.5,1.6,2.7625,-0.6312303785235123,-0.14454108331744778,0.6006821027714899,-0.2661596480153577,-1.196033,-10.37474
11.185,2.0,1.0,1.0,34.7,33.6,33.6,1.5,1.6,2.765,-0.6430261879361958,-0.1407799646142047,0.5794573842889941,-0.27831292909032385,-1.253712,-10.119895
11.185,2.0,1.0,1.0,34.7,33.6,33.6,1.5,1.6,2.7675,-0.6541588993408411,-0.13638747976233778,0.5574571426218112,-0.29087422034283,-1.315423,-9.862809
11.185,2.0,1.0,1.0,34.7,33.6,33.6,1.5,1.6,2.77,-0.6645601548629378,-0.1313041626921113,0.5346806061907489,-0.3038393457075388,-1.381529,-9.603514
11.185,2.0,1.0,1.0,34.7,33.6,33.6,1.5,1.6,2.7725,-0.6741565591248654,-0.12546582704380385,0.5111310722026692,-0.31720022911124784,-1.452435,-9.34205
11.185,2.0,1.0,1.0,34.7,33.6,33.6,1.5,1.6,2.775,-0.682869474484848,-0.1188033593543402,0.4868166851431082,-0.3309441323107069,-1.528586,-9.078471
11.185,2.0,1.0,1.0,34.7,33.6,33.6,1.5,1.6,2.7775,-0.6906148610615199,-0.11124255562068958,0.4617513318863006,-0.34505277615282687,-1.610482,-8.812846
11.185,2.0,1.0,1.0,34.7,33.6,33.6,1.5,1.6,2.78,-0.697303181159576,-0.10270402075732026,0.43595566604944364,-0.3595013324288434,-1.698676,-8.54526
11.185,2.0,1.0,1.0,34.7,33.6,33.6,1.5,1.6,2.7825,-0.7028393928060548,-0.09310315557947128,0.4094582738354454,-0.37425727383513163,-1.793787,-8.275818
11.185,2.0,1.0,1.0,34.7,33.6,33.6,1.5,1.6,2.785,-0.7071230631533116,-0.08235026202177406,0.3822969923581362,-0.3892790707589972,-1.896505,-8.004649
11.185,2.0,1.0,1.0,34.7,33.6,33.6,1.5,1.6,2.7875,-0.7100486395589651,-0.07035080440114305,0.35452038896136556,-0.4045147260444365,-2.007603,-7.731903
11.185,2.0,1.0,1.0,34.7,33.6,33.6,1.5,1.6,2.79,-0.7115059242082028,-0.05700587264977018,0.3261894058614222,-0.4199001430302686,-2.127945,-7.457764
11.185,2.0,1.0,1.0,34.7,33.6,33.6,1.5,1.6,2.7925,-0.7113808070898365,-0.0422129024716876,0.29737916798051073,-0.43535732857592907,-2.258503,-7.182443
11.185,2.0,1.0,1.0,34.7,33.6,33.6,1.5,1.6,2.795,-0.709556321704886,-0.025866717047473918,0.26818094239664,-0.4507924422053452,-2.400368,-6.906192
11.185,2.0,1.0,1.0,34.7,33.6,33.6,1.5,1.6,2.7975,-0.7059140975718782,-0.007860964724405669,0.2387042246012717,-0.4660937157257971,-2.554767,-6.6293
11.185,2.0,1.0,1.0,34.7,33.6,33.6,1.5,1.6,2.8,-0.700336292564925,0.011909963748939502,0.20907890884073174,-0.48112928561620694,-2.723084,-6.352104
11.185,2.0,1.0,1.0,34.7,33.6,33.6,1.5,1.6,2.8025,-0.6927080951079939,0.033548447728770775,0.1794574763267356,-0.4957450040342391,-2.906881,-6.07499
11.185,2.0,1.0,1.0,34.7,33.6,33.6,1.5,1.6,2.805,-0.6829208894200159,0.05715048485900876,0.15001710526396564,-0.5097623242486498,-3.107923,-5.798399
11.185,2.0,1.0,1.0,34.7,33.6,33.6,1.5,1.6,2.8075,-0.6708761738551495,0.08280178384602636,0.12096157001930577,-0.5229763931149293,-3.328212,-5.522833
11.185,2.0,1.0,1.0,34.7,33.6,33.6,1.5,1.6,2.81,-0.6564903096592751,0.11057302332204101,0.09252275354847073,-0.5351545266882394,-3.570016,-5.248858
11.185,2.0,1.0,1.0,34.7,33.6,33.6,1.5,1.6,2.8125,-0.6397001511903465,0.14051422448862752,0.06496154866453863,-0.5460352939482214,-3.835914,-4.977111
11.185,2.0,1.0,1.0,34.7,33.6,33.6,1.5,1.6,2.815,-0.6204695643126005,0.17264822959379267,0.03856787273968338,-0.5553284850259754,-4.128843,-4.708301
11.185,2.0,1.0,1.0,34.7,33.6,33.6,1.5,1.6,2.8175,-0.5987967726781906,0.2069633454641285,0.013659472040102464,-0.5627162891831944,-4.452152,-4.443211
11.185,2.0,1.0,1.0,34.7,33.6,33.6,1.5,1.6,2.82,-0.5747223781119016,0.24340530517137618,-0.009420846050826288,-0.5678560462007252,-4.809671,-4.182703
11.185,2.0,1.0,1.0,34.7,33.6,33.6,1.5,1.6,2.8225,-0.5483377795255048,0.2818688232740871,-0.030309931175429527,-0.5703849517200442,-5.205787,-3.927713
11.185,2.0,1.0,1.0,34.7,33.6,33.6,1.5,1.6,2.825,-0.5197935667629939,0.3221891688757803,-0.04863131784012982,-0.5699270783438739,-5.645532,-3.679248
11.185,2.0,1.0,1.0,34.7,33.6,33.6,1.5,1.6,2.8275,-0.48930729956864594,0.36413434786690635,-0.06400485192543966,-0.5661030038317284,-6.134685,-3.438381
11.185,2.0,1.0,1.0,34.7,33.6,33.6,1.5,1.6,2.83,-0.4571699136677012,0.407398654848143,-0.07605906736214949,-0.5585421997232798,-6.679873,-3.206238
