1,w,sub_t,h,l1,l2,l3,g1,g2,Freq,S11_re,S21_re,S11_img,S21_img,S11_dB,S21_dB
11.185,2.0,1.0,1.0,33.1,34.8,34.8,3.7,3.5,2.5,0.888404616058435,-0.0054524667773692,0.44551225572158,0.0046487531329303,-0.053556,-42.895416
11.185,2.0,1.0,1.0,33.1,34.8,34.8,3.7,3.5,2.5025,0.8855695916248986,-0.0055763318737871645,0.45098616717141393,0.0046838997018311,-0.054092,-42.754424
11.185,2.0,1.0,1.0,33.1,34.8,34.8,3.7,3.5,2.505,0.8826888061996594,-0.005702979466820989,0.4564625477743068,0.004718999422016187,-0.05464,-42.612755
11.185,2.0,1.0,1.0,33.1,34.8,34.8,3.7,3.5,2.5075,0.8797617905268134,-0.005832492695033246,0.4619412635295546,0.004754042530279704,-0.055198,-42.470386
11.185,2.0,1.0,1.0,33.1,34.8,34.8,3.7,3.5,2.51,0.8767880655443315,-0.0059649581574695515,0.46742217620730203,0.00478901869274022,-0.055769,-42.327296
11.185,2.0,1.0,1.0,33.1,34.8,34.8,3.7,3.5,2.5125,0.8737671420850898,-0.006100466096961499,0.47290514319076404,0.004823916966353227,-0.056352,-42.183461
11.185,2.0,1.0,1.0,33.1,34.8,34.8,3.7,3.5,2.515,0.8706985205637329,-0.006239110595181484,0.47839001731175906,0.004858725757407906,-0.056948,-42.038858
11.185,2.0,1.0,1.0,33.1,34.8,34.8,3.7,3.5,2.5175,0.8675816906484326,-0.006380989780332705,0.48387664667915353,0.004893432776737153,-0.057556,-41.893461
11.185,2.0,1.0,1.0,33.1,34.8,34.8,3.7,3.5,2.52,0.8644161309165089,-0.00652620604843507,0.48936487449981175,0.004928024991341465,-0.058179,-41.747245
11.185,2.0,1.0,1.0,33.1,34.8,34.8,3.7,3.5,2.5225,0.8612013084928076,-0.006674866299249733,0.4948545388915683,0.004962488572096388,-0.058815,-41.600186
11.185,2.0,1.0,1.0,33.1,34.8,34.8,3.7,3.5,2.525,0.8579366786696256,-0.0068270821879792614,0.5003454726877533,0.004996808837181152,-0.059465,-41.452256
11.185,2.0,1.0,1.0,33.1,34.8,34.8,3.7,3.5,2.5275,0.8546216845068746,-0.006982970393979106,0.5058375032327217,0.005030970190823689,-0.060131,-41.303428
11.185,2.0,1.0,1.0,33.1,34.8,34.8,3.7,3.5,2.53,0.8512557564110608,-0.007142652907829304,0.5113304521677968,0.005064956056919228,-0.060812,-41.153673
11.185,2.0,1.0,1.0,33.1,34.8,34.8,3.7,3.5,2.5325,0.8478383116915329,-0.007306257338236108,0.5168241352070008,0.005098748807028776,-0.061508,-41.002964
11.185,2.0,1.0,1.0,33.1,34.8,34.8,3.7,3.5,2.535,0.8443687540923072,-0.007473917240370757,0.5223183619018722,0.005132329682211995,-0.062222,-40.851269
11.185,2.0,1.0,1.0,33.1,34.8,34.8,3.7,3.5,2.5375,0.8408464732976385,-0.007645772467398791,0.5278129353946084,0.005165678708087809,-0.062952,-40.698558
11.185,2.0,1.0,1.0,33.1,34.8,34.8,3.7,3.5,2.54,0.8372708444093211,-0.007821969547121324,0.5333076521587038,0.005198774602451135,-0.0637,-40.544799
11.185,2.0,1.0,1.0,33.1,34.8,34.8,3.7,3.5,2.5425,0.8336412273935331,-0.008002662085829611,0.5388023017261739,0.005231594674695267,-0.064467,-40.389959
11.185,2.0,1.0,1.0,33.1,34.8,34.8,3.7,3.5,2.545,0.8299569664948226,-0.00818801120167793,0.5442966664003555,0.005264114716208923,-0.065252,-40.234005
11.185,2.0,1.0,1.0,33.1,34.8,34.8,3.7,3.5,2.5475,0.8262173896146143,-0.008378185990102587,0.5497905209531843,0.005296308880816803,-0.066057,-40.0769
11.185,2.0,1.0,1.0,33.1,34.8,34.8,3.7,3.5,2.55,0.8224218076513496,-0.008573364024064159,0.55528363230574,0.005328149554228809,-0.066883,-39.91861
11.185,2.0,1.0,1.0,33.1,34.8,34.8,3.7,3.5,2.5525,0.8185695137991188,-0.008773731892166023,0.5607757591906972,0.0053596072113378385,-0.06773,-39.759096
11.185,2.0,1.0,1.0,33.1,34.8,34.8,3.7,3.5,2.555,0.8146597828012967,-0.008979485778009095,0.5662666517952143,0.005390650260071108,-0.068599,-39.598319
11.185,2.0,1.0,1.0,33.1,34.8,34.8,3.7,3.5,2.5575,0.8106918701553818,-0.009190832084485656,0.5717560513826038,0.0054212448703418485,-0.069492,-39.436239
11.185,2.0,1.0,1.0,33.1,34.8,34.8,3.7,3.5,2.56,0.8066650112648313,-0.00940798810709609,0.5772436898909552,0.005451354786473121,-0.070408,-39.272815
11.185,2.0,1.0,1.0,33.1,34.8,34.8,3.7,3.5,2.5625,0.802578420533265,-0.00963118276079842,0.582729289506672,0.00548094112126218,-0.071349,-39.108002
11.185,2.0,1.0,1.0,33.1,34.8,34.8,3.7,3.5,2.565,0.7984312903959203,-0.009860657365378002,0.5882125622106589,0.0055099621296284635,-0.072316,-38.941757
11.185,2.0,1.0,1.0,33.1,34.8,34.8,3.7,3.5,2.5675,0.7942227902827214,-0.0100966664948556,0.593693209294615,0.005538372959523615,-0.07331,-38.774033
11.185,2.0,1.0,1.0,33.1,34.8,34.8,3.7,3.5,2.57,0.7899520655066984,-0.010339478897053306,0.5991709208446033,0.00556612537748836,-0.074332,-38.60478
11.185,2.0,1.0,1.0,33.1,34.8,34.8,3.7,3.5,2.5725,0.7856182360708418,-0.010589378490105205,0.604645375188712,0.005593167465899014,-0.075384,-38.433949
11.185,2.0,1.0,1.0,33.1,34.8,34.8,3.7,3.5,2.575,0.7812203953857018,-0.010846665443456853,0.6101162383052339,0.005619443288556962,-0.076466,-38.261488
11.185,2.0,1.0,1.0,33.1,34.8,34.8,3.7,3.5,2.5775,0.7767576088892016,-0.01111165735174427,0.6155831631873371,0.00564489252082896,-0.077581,-38.087342
11.185,2.0,1.0,1.0,33.1,34.8,34.8,3.7,3.5,2.58,0.7722289125591654,-0.011384690510902887,0.6210457891596903,0.005669450040032416,-0.078729,-37.911454
11.185,2.0,1.0,1.0,33.1,34.8,34.8,3.7,3.5,2.5825,0.7676333113079818,-0.011666121306935054,0.6265037411419134,0.005693045471168267,-0.079912,-37.733765
11.185,2.0,1.0,1.0,33.1,34.8,34.8,3.7,3.5,2.585,0.7629697772476002,-0.011956327728988712,0.6319566288530318,0.005715602682424274,-0.081132,-37.554214
11.185,2.0,1.0,1.0,33.1,34.8,34.8,3.7,3.5,2.5875,0.7582372478116668,-0.012255711019782607,0.6374040459503503,0.005737039224081126,-0.082391,-37.372735
11.185,2.0,1.0,1.0,33.1,34.8,34.8,3.7,3.5,2.59,0.7534346237200475,-0.01256469747798455,0.6428455690952224,0.005757265703545814,-0.08369,-37.189263
11.185,2.0,1.0,1.0,33.1,34.8,34.8,3.7,3.5,2.5925,0.7485607667691887,-0.012883740428931659,0.6482807569371721,0.0057761850881737865,-0.085032,-37.003727
11.185,2.0,1.0,1.0,33.1,34.8,34.8,3.7,3.5,2.595,0.7436144974297556,-0.01321332238211328,0.6537091490065702,0.005793691926315311,-0.086418,-36.816053
11.185,2.0,1.0,1.0,33.1,34.8,34.8,3.7,3.5,2.5975,0.7385945922306557,-0.013553957396151181,0.6591302645046809,0.00580967147558395,-0.087851,-36.626165
11.185,2.0,1.0,1.0,33.1,34.8,34.8,3.7,3.5,2.6,0.7334997809059401,-0.013906193674656708,0.6645436009782034,0.0058239987256730645,-0.089334,-36.433983
11.185,2.0,1.0,1.0,33.1,34.8,34.8,3.7,3.5,2.6025,0.7283287432780533,-0.014270616419367584,0.6699486328635177,0.005836537301084652,-0.090869,-36.239422
11.185,2.0,1.0,1.0,33.1,34.8,34.8,3.7,3.5,2.605,0.7230801058474366,-0.014647850970437441,0.6753448098835642,0.00584713822683467,-0.092459,-36.042394
11.185,2.0,1.0,1.0,33.1,34.8,34.8,3.7,3.5,2.6075,0.7177524380545438,-0.01503856626773224,0.6807315552776124,0.0058556385374947196,-0.094108,-35.842807
11.185,2.0,1.0,1.0,33.1,34.8,34.8,3.7,3.5,2.61,0.7123442481757631,-0.015443478671570955,0.6861082638410416,0.005861859706738869,-0.095817,-35.640563
11.185,2.0,1.0,1.0,33.1,34.8,34.8,3.7,3.5,2.6125,0.7068539788094759,-0.015863356186632784,0.691474299748529,0.005865605870793099,-0.097592,-35.435559
11.185,2.0,1.0,1.0,33.1,34.8,34.8,3.7,3.5,2.615,0.7012800019024329,-0.01629902313885814,0.6968289941296555,0.005866661814715357,-0.099435,-35.227689
11.185,2.0,1.0,1.0,33.1,34.8,34.8,3.7,3.5,2.6175,0.6956206132595991,-0.01675136536223776,0.7021716423607004,0.005864790685119425,-0.101352,-35.016839
11.185,2.0,1.0,1.0,33.1,34.8,34.8,3.7,3.5,2.62,0.6898740264724854,-0.017221335960585404,0.7075015010301794,0.005859731386621321,-0.103346,-34.80289
11.185,2.0,1.0,1.0,33.1,34.8,34.8,3.7,3.5,2.6225,0.6840383661915166,-0.01770996171892383,0.7128177845282473,0.005851195611713771,-0.105423,-34.585715
11.185,2.0,1.0,1.0,33.1,34.8,34.8,3.7,3.5,2.625,0.678111660656993,-0.0182183502502223,0.71811966120115,0.00583886444469361,-0.107588,-34.365182
11.185,2.0,1.0,1.0,33.1,34.8,34.8,3.7,3.5,2.6275,0.6720918333903103,-0.01874769797620017,0.723406249001231,0.005822384469337445,-0.109847,-34.14115
11.185,2.0,1.0,1.0,33.1,34.8,34.8,3.7,3.5,2.63,0.665976693932082,-0.019299299056095426,0.7286766105500159,0.005801363296838802,-0.112206,-33.913469
11.185,2.0,1.0,1.0,33.1,34.8,34.8,3.7,3.5,2.6325,0.6597639274961586,-0.01987455539511725,0.733929747516292,0.005775364414545256,-0.114672,-33.681984
11.185,2.0,1.0,1.0,33.1,34.8,34.8,3.7,3.5,2.635,0.6534510833877785,-0.020474987885254186,0.739164594192045,0.005743901236632193,-0.117253,-33.446526
11.185,2.0,1.0,1.0,33.1,34.8,34.8,3.7,3.5,2.6375,0.6470355620096722,-0.021102249055807466,0.7443800101259387,0.00570643021417268,-0.119958,-33.206918
11.185,2.0,1.0,1.0,33.1,34.8,34.8,3.7,3.5,2.64,0.6405146002510257,-0.02175813734020818,0.7495747716456583,0.005662342833088378,-0.122795,-32.962972
11.185,2.0,1.0,1.0,33.1,34.8,34.8,3.7,3.5,2.6425,0.6338852550200578,-0.022444613200241798,0.7547475620655224,0.005610956292845461,-0.125776,-32.714486
11.185,2.0,1.0,1.0,33.1,34.8,34.8,3.7,3.5,2.645,0.6271443846403532,-0.023163817389847744,0.7598969603327808,0.005551502614804457,-0.12891,-32.461247
11.185,2.0,1.0,1.0,33.1,34.8,34.8,3.7,3.5,2.6475,0.6202886277828179,-0.02391809168950952,0.7650214278126557,0.005483115874665179,-0.132212,-32.203028
11.185,2.0,1.0,1.0,33.1,34.8,34.8,3.7,3.5,2.65,0.613314379547504,-0.024710002500517678,0.7701192928458765,0.005404817185642884,-0.135695,-31.939583
11.185,2.0,1.0,1.0,33.1,34.8,34.8,3.7,3.5,2.6525,0.6062177642407311,-0.025542367758057315,0.7751887326294407,0.005315496974248325,-0.139373,-31.670653
11.185,2.0,1.0,1.0,33.1,34.8,34.8,3.7,3.5,2.655,0.5989946043103853,-0.026418287705551376,0.780227751867189,0.0052138939840373185,-0.143266,-31.395957
11.185,2.0,1.0,1.0,33.1,34.8,34.8,3.7,3.5,2.6575,0.5916403848032612,-0.027341180172921104,0.7852341575051772,0.005098570308258011,-0.147393,-31.115197
11.185,2.0,1.0,1.0,33.1,34.8,34.8,3.7,3.5,2.66,0.5841502125891509,-0.028314821121987976,0.79020552869993,0.004967881581711414,-0.151774,-30.82805
11.185,2.0,1.0,1.0,33.1,34.8,34.8,3.7,3.5,2.6625,0.5765187694528521,-0.029343391367484407,0.7951391809547046,0.0048199412445004836,-0.156436,-30.534169
11.185,2.0,1.0,1.0,33.1,34.8,34.8,3.7,3.5,2.665,0.568740257982088,-0.030431530557325212,0.8000321230857256,0.004652577511147807,-0.161407,-30.233179
11.185,2.0,1.0,1.0,33.1,34.8,34.8,3.7,3.5,2.6675,0.5608083389703684,-0.03158439970719531,0.8048810053278566,0.004463281318321798,-0.166717,-29.924676
11.185,2.0,1.0,1.0,33.1,34.8,34.8,3.7,3.5,2.67,0.5527160588014958,-0.0328077538396285,0.8096820564316554,0.004249143056809478,-0.172404,-29.608224
11.185,2.0,1.0,1.0,33.1,34.8,34.8,3.7,3.5,2.6725,0.5444557649782373,-0.034108026585232445,0.8144310070060176,0.004006775282562678,-0.17851,-29.283346
11.185,2.0,1.0,1.0,33.1,34.8,34.8,3.7,3.5,2.675,0.5360190075917998,-0.03549242897336116,0.8191229955746906,0.0037322177985447463,-0.185081,-28.949526
11.185,2.0,1.0,1.0,33.1,34.8,34.8,3.7,3.5,2.6775,0.5273964240905578,-0.03696906508186046,0.8237524527743912,0.003420820435937436,-0.192174,-28.606204
11.185,2.0,1.0,1.0,33.1,34.8,34.8,3.7,3.5,2.68,0.5185776041857283,-0.03854706774069821,0.8283129577348167,0.0030670974457968855,-0.199852,-28.252765
11.185,2.0,1.0,1.0,33.1,34.8,34.8,3.7,3.5,2.6825,0.5095509311201082,-0.040236758100203475,0.8327970588170273,0.002664545508368782,-0.208191,-27.888537
11.185,2.0,1.0,1.0,33.1,34.8,34.8,3.7,3.5,2.685,0.5003033948214983,-0.042049833582664876,0.8371960483637548,0.002205414790389084,-0.217278,-27.512784
11.185,2.0,1.0,1.0,33.1,34.8,34.8,3.7,3.5,2.6875,0.490820371676543,-0.0439995895234597,0.841499677672536,0.0016804189650263,-0.227217,-27.124697
11.185,2.0,1.0,1.0,33.1,34.8,34.8,3.7,3.5,2.69,0.4810853648320439,-0.04610118063376949,0.8456957936662348,0.0010783652730780506,-0.238131,-26.723383
11.185,2.0,1.0,1.0,33.1,34.8,34.8,3.7,3.5,2.6925,0.47107969815026274,-0.048371929186335094,0.8497698721638044,0.00038567899520945307,-0.250165,-26.307856
11.185,2.0,1.0,1.0,33.1,34.8,34.8,3.7,3.5,2.695,0.4607821564012482,-0.050831687342832894,0.853704413456436,-0.0004142126826154577,-0.263497,-25.877021
11.185,2.0,1.0,1.0,33.1,34.8,34.8,3.7,3.5,2.6975,0.4501685643380678,-0.05350326092466198,0.8574781529079838,-0.0013416856799352518,-0.27834,-25.429665
11.185,2.0,1.0,1.0,33.1,34.8,34.8,3.7,3.5,2.7,0.43921129867186537,-0.05641290045543648,0.8610650208016825,-0.002421980048209682,-0.294953,-24.964434
11.185,2.0,1.0,1.0,33.1,34.8,34.8,3.7,3.5,2.7025,0.4278787309540798,-0.05959086112483199,0.864432759083398,-0.0036866112525028374,-0.313657,-24.479817
11.185,2.0,1.0,1.0,33.1,34.8,34.8,3.7,3.5,2.705,0.416134608418784,-0.06307202393891354,0.8675410641718666,-0.005175265180723606,-0.334849,-23.974123
11.185,2.0,1.0,1.0,33.1,34.8,34.8,3.7,3.5,2.7075,0.40393739845864274,-0.06689655109648628,0.8703390688889154,-0.0069383675471674225,-0.359028,-23.445456
11.185,2.0,1.0,1.0,33.1,34.8,34.8,3.7,3.5,2.71,0.39123965901884683,-0.07111051094277318,0.8727618942925929,-0.009040602169759156,-0.386825,-22.891689
11.185,2.0,1.0,1.0,33.1,34.8,34.8,3.7,3.5,2.7125,0.37798756755503266,-0.0757663355678036,0.8747258813261553,-0.011565775671476135,-0.419046,-22.310435
11.185,2.0,1.0,1.0,33.1,34.8,34.8,3.7,3.5,2.715,0.3641208750516528,-0.08092283682007793,0.8761219351952454,-0.014623606258312044,-0.456737,-21.69902
11.185,2.0,1.0,1.0,33.1,34.8,34.8,3.7,3.5,2.7175,0.34957380548451766,-0.08664424639905191,0.8768061595552513,-0.01835927429842708,-0.501267,-21.054464
11.185,2.0,1.0,1.0,33.1,34.8,34.8,3.7,3.5,2.72,0.3342779032579814,-0.09299725223942668,0.8765865995290928,-0.022966935920180568,-0.554454,-20.373481
11.185,2.0,1.0,1.0,33.1,34.8,34.8,3.7,3.5,2.7225,0.31816874919053134,-0.10004406469746453,0.8752044474894711,-0.028708871822303222,-0.618736,-19.652507
11.185,2.0,1.0,1.0,33.1,34.8,34.8,3.7,3.5,2.725,0.3012002155219632,-0.10782775833866604,0.8723075704343316,-0.03594244177954979,-0.697429,-18.887817
11.185,2.0,1.0,1.0,33.1,34.8,34.8,3.7,3.5,2.7275,0.28337324926210095,-0.11634274762526332,0.8674140376847569,-0.04515718588606229,-0.795075,-18.075773
11.185,2.0,1.0,1.0,33.1,34.8,34.8,3.7,3.5,2.73,0.2647923468720349,-0.12547695991088637,0.8598645922422874,-0.057023098425054396,-0.917927,-17.213355
11.185,2.0,1.0,1.0,33.1,34.8,34.8,3.7,3.5,2.7325,0.24577378540558886,-0.13490116820079834,0.8487689844975357,-0.07244495906699956,-1.074527,-16.299202
11.185,2.0,1.0,1.0,33.1,34.8,34.8,3.7,3.5,2.735,0.22704646871490158,-0.14386388757135046,0.832970384044523,-0.09259784757179984,-1.276166,-15.335598
11.185,2.0,1.0,1.0,33.1,34.8,34.8,3.7,3.5,2.7375,0.21010221186599468,-0.15083416164495556,0.8111046713172928,-0.11886524596381577,-1.53642,-14.332104
11.185,2.0,1.0,1.0,33.1,34.8,34.8,3.7,3.5,2.74,0.1977262922509086,-0.1529615761848779,0.781951648761248,-0.1524785533279718,-1.867233,-13.311767
11.185,2.0,1.0,1.0,33.1,34.8,34.8,3.7,3.5,2.7425,0.19452914480062497,-0.14553783042561844,0.7454675434627618,-0.1934614542604638,-2.265329,-12.320387
11.185,2.0,1.0,1.0,33.1,34.8,34.8,3.7,3.5,2.745,0.20663020566445758,-0.12232760897396003,0.7048826847636367,-0.23849089949883343,-2.679638,-11.436219
11.185,2.0,1.0,1.0,33.1,34.8,34.8,3.7,3.5,2.7475,0.23869642600942756,-0.07859914733935311,0.6690167521542701,-0.27854663573752764,-2.970877,-10.769319
11.185,2.0,1.0,1.0,33.1,34.8,34.8,3.7,3.5,2.75,0.287923532008441,-0.017258980365824,0.650853058092203,-0.300389202714726,-2.954123,-10.432001
11.185,2.0,1.0,1.0,33.1,34.8,34.8,3.7,3.5,2.7525,0.34122160952253505,0.04830978343207483,0.6589927816667758,-0.29528883927436467,-2.59082,-10.480346
11.185,2.0,1.0,1.0,33.1,34.8,34.8,3.7,3.5,2.755,0.38308915205792515,0.1023096944858795,0.689840159841012,-0.26696796304714604,-2.057653,-10.875698
11.185,2.0,1.0,1.0,33.1,34.8,34.8,3.7,3.5,2.7575,0.40619942449003243,0.1373138554269075,0.7315948038968278,-0.22748916356236798,-1.5476,-11.511558
11.185,2.0,1.0,1.0,33.1,34.8,34.8,3.7,3.5,2.76,0.4122680744918683,0.15511656621762596,0.7737341782404598,-0.1875782722691656,-1.142829,-12.273354
11.185,2.0,1.0,1.0,33.1,34.8,34.8,3.7,3.5,2.7625,0.4065637980277122,0.16111901533237158,0.8109388640631818,-0.15263940798522632,-0.846445,-13.075221
11.185,2.0,1.0,1.0,33.1,34.8,34.8,3.7,3.5,2.765,0.3939100515499835,0.16025444356368018,0.8418456618409791,-0.124041288627861,-0.63552,-13.864993
11.185,2.0,1.0,1.0,33.1,34.8,34.8,3.7,3.5,2.7675,0.3775754978957192,0.15586356709158794,0.8669308104602608,-0.1012808952264068,-0.485982,-14.61536
11.185,2.0,1.0,1.0,33.1,34.8,34.8,3.7,3.5,2.77,0.3594933164950139,0.1499229723912441,0.887215873802343,-0.08330312670203664,-0.379209,-15.314118
11.185,2.0,1.0,1.0,33.1,34.8,34.8,3.7,3.5,2.7725,0.3407234139646559,0.1435187633714953,0.9037187397186309,-0.06905932712919298,-0.302115,-15.957339
11.185,2.0,1.0,1.0,33.1,34.8,34.8,3.7,3.5,2.775,0.3218137605902735,0.1372159584260682,0.9172849171611197,-0.05767810578726874,-0.245794,-16.545286
11.185,2.0,1.0,1.0,33.1,34.8,34.8,3.7,3.5,2.7775,0.3030272085610137,0.13129010636608676,0.928569285879273,-0.048483094994753076,-0.204214,-17.080165
11.185,2.0,1.0,1.0,33.1,34.8,34.8,3.7,3.5,2.78,0.28447228162230614,0.12586075964289709,0.9380646886641045,-0.040963235183683645,-0.173264,-17.564927
11.185,2.0,1.0,1.0,33.1,34.8,34.8,3.7,3.5,2.7825,0.26617587626439254,0.1209656602855679,0.9461382130235609,-0.03473540582809517,-0.150107,-18.002657
11.185,2.0,1.0,1.0,33.1,34.8,34.8,3.7,3.5,2.785,0.24812298933130753,0.1166013140484174,0.953062850520071,-0.029511874937159205,-0.132758,-18.39627
11.185,2.0,1.0,1.0,33.1,34.8,34.8,3.7,3.5,2.7875,0.23027819104129169,0.11274498601717921,0.9590420881328963,-0.02507500740902413,-0.11981,-18.748381
11.185,2.0,1.0,1.0,33.1,34.8,34.8,3.7,3.5,2.79,0.2125970746434972,0.10936652028701332,0.9642281195981294,-0.02125849660988734,-0.110251,-19.061247
11.185,2.0,1.0,1.0,33.1,34.8,34.8,3.7,3.5,2.7925,0.19503220781308117,0.10643460303211894,0.968735060717839,-0.01793368508788505,-0.103343,-19.336762
11.185,2.0,1.0,1.0,33.1,34.8,34.8,3.7,3.5,2.795,0.1775360636504293,0.10392000094127889,0.9726484655796664,-0.014999634820571895,-0.098548,-19.576468
11.185,2.0,1.0,1.0,33.1,34.8,34.8,3.7,3.5,2.7975,0.16006228978493073,0.10179716763929803,0.9760321651946615,-0.012375890351723286,-0.095463,-19.781566
11.185,2.0,1.0,1.0,33.1,34.8,34.8,3.7,3.5,2.8,0.14256606146074477,0.1000449890549472,0.9789331794509579,-0.009997153714110934,-0.093791,-19.952943
11.185,2.0,1.0,1.0,33.1,34.8,34.8,3.7,3.5,2.8025,0.1250039268989996,0.09864709829495813,0.9813852366107368,-0.007809308579246279,-0.093313,-20.091182
11.185,2.0,1.0,1.0,33.1,34.8,34.8,3.7,3.5,2.805,0.10733336519191383,0.09759200362336516,0.9834112735260672,-0.005766390963723519,-0.093867,-20.196579
11.185,2.0,1.0,1.0,33.1,34.8,34.8,3.7,3.5,2.8075,0.08951217059226976,0.09687317073079128,0.9850251732618135,-0.0038282160110275658,-0.095337,-20.269153
11.185,2.0,1.0,1.0,33.1,34.8,34.8,3.7,3.5,2.81,0.07149771531242044,0.09648914538195454,0.9862329126233137,-0.0019584466779775937,-0.097645,-20.308642
11.185,2.0,1.0,1.0,33.1,34.8,34.8,3.7,3.5,2.8125,0.0532461053817657,0.0964437745978231,0.98703322985097,-0.000122939976592825,-0.100744,-20.314509
11.185,2.0,1.0,1.0,33.1,34.8,34.8,3.7,3.5,2.815,0.03471121913888908,0.09674657292665369,0.9874178743327257,0.0017117637735974964,-0.104617,-20.285929
11.185,2.0,1.0,1.0,33.1,34.8,34.8,3.7,3.5,2.8175,0.015843598685439407,0.09741327946236067,0.9873714590902737,0.0035799296385413846,-0.109271,-20.221775
11.185,2.0,1.0,1.0,33.1,34.8,34.8,3.7,3.5,2.82,-0.003410853327869703,0.09846665851024465,0.9868708973068161,0.005518216908091568,-0.114741,-20.120598
11.185,2.0,1.0,1.0,33.1,34.8,34.8,3.7,3.5,2.8225,-0.0231124391851164,0.09993761156824833,0.9858843604313945,0.007567507443707241,-0.121094,-19.98059
11.185,2.0,1.0,1.0,33.1,34.8,34.8,3.7,3.5,2.825,-0.043329586450659895,0.10186669143556372,0.9843696402518031,0.009775150068976826,-0.128429,-19.799548
11.185,2.0,1.0,1.0,33.1,34.8,34.8,3.7,3.5,2.8275,-0.06414124903689904,0.10430614293826813,0.9822717206023545,0.012197863104508789,-0.136888,-19.574812
11.185,2.0,1.0,1.0,33.1,34.8,34.8,3.7,3.5,2.83,-0.08563996033990344,0.10732264247703886,0.9795192501229566,0.01490564642587284,-0.146669,-19.303198
