1,w,sub_t,h,l1,l2,l3,g1,g2,Freq,S11_re,S21_re,S11_img,S21_img,S11_dB,S21_dB
11.185,2.0,1.0,1.0,33.5,34.9,34.9,3.6,1.6,2.5,0.846256169611074,-0.0101837921835974,0.519543386383104,0.00902914696913067,-0.060901,-37.322767
11.185,2.0,1.0,1.0,33.5,34.9,34.9,3.6,1.6,2.5025,0.8427057977344361,-0.010418386483807959,0.52512964974687,0.0090995576694856,-0.061609,-37.181835
11.185,2.0,1.0,1.0,33.5,34.9,34.9,3.6,1.6,2.505,0.8391011622543362,-0.010658639871753375,0.5307156450727896,0.009170006598863413,-0.062333,-37.040029
11.185,2.0,1.0,1.0,33.5,34.9,34.9,3.6,1.6,2.5075,0.8354416329654345,-0.010904733379763158,0.5363011460107292,0.00924047177246029,-0.063074,-36.897326
11.185,2.0,1.0,1.0,33.5,34.9,34.9,3.6,1.6,2.51,0.8317265650227099,-0.011156855877708838,0.5418859188032151,0.009310929640955146,-0.063833,-36.753702
11.185,2.0,1.0,1.0,33.5,34.9,34.9,3.6,1.6,2.5125,0.8279552984097124,-0.011415204502340391,0.5474697219911758,0.0093813549753817,-0.06461,-36.60913
11.185,2.0,1.0,1.0,33.5,34.9,34.9,3.6,1.6,2.515,0.8241271573770944,-0.011679985115048872,0.5530523061047724,0.009451720742434793,-0.065407,-36.463586
11.185,2.0,1.0,1.0,33.5,34.9,34.9,3.6,1.6,2.5175,0.8202414498492197,-0.011951412790261576,0.5586334133382256,0.009521997969309656,-0.066223,-36.317043
11.185,2.0,1.0,1.0,33.5,34.9,34.9,3.6,1.6,2.52,0.8162974667964238,-0.012229712336873581,0.5642127772074994,0.009592155597077457,-0.067059,-36.169474
11.185,2.0,1.0,1.0,33.5,34.9,34.9,3.6,1.6,2.5225,0.8122944815703146,-0.01251511885533446,0.5697901221895296,0.00966216032149417,-0.067917,-36.020851
11.185,2.0,1.0,1.0,33.5,34.9,34.9,3.6,1.6,2.525,0.8082317491992358,-0.012807878333249013,0.5753651633416177,0.009731976420020544,-0.068797,-35.871144
11.185,2.0,1.0,1.0,33.5,34.9,34.9,3.6,1.6,2.5275,0.8041085056407666,-0.013108248282612799,0.5809376058994361,0.009801565563696896,-0.0697,-35.720324
11.185,2.0,1.0,1.0,33.5,34.9,34.9,3.6,1.6,2.53,0.7999239669878404,-0.013416498422093224,0.5865071448519371,0.009870886612367132,-0.070627,-35.568359
11.185,2.0,1.0,1.0,33.5,34.9,34.9,3.6,1.6,2.5325,0.795677328624737,-0.013732911408088478,0.5920734644912986,0.009939895391576643,-0.071579,-35.415217
11.185,2.0,1.0,1.0,33.5,34.9,34.9,3.6,1.6,2.535,0.7913677643288501,-0.014057783618650881,0.5976362379358339,0.010008544449281804,-0.072557,-35.260866
11.185,2.0,1.0,1.0,33.5,34.9,34.9,3.6,1.6,2.5375,0.7869944253137464,-0.0143914259947538,0.6031951266235646,0.010076782790292334,-0.073561,-35.105271
11.185,2.0,1.0,1.0,33.5,34.9,34.9,3.6,1.6,2.54,0.7825564392085755,-0.014734164943817433,0.6087497797739261,0.01014455558612995,-0.074593,-34.948397
11.185,2.0,1.0,1.0,33.5,34.9,34.9,3.6,1.6,2.5425,0.7780529089684253,-0.015086343310891764,0.6142998338147845,0.010211803857713536,-0.075655,-34.790206
11.185,2.0,1.0,1.0,33.5,34.9,34.9,3.6,1.6,2.545,0.7734829117096647,-0.015448321423431893,0.6198449117716295,0.010278464127975593,-0.076747,-34.630662
11.185,2.0,1.0,1.0,33.5,34.9,34.9,3.6,1.6,2.5475,0.7688454974637293,-0.01582047821619818,0.6253846226154494,0.010344468041164553,-0.077871,-34.469724
11.185,2.0,1.0,1.0,33.5,34.9,34.9,3.6,1.6,2.55,0.7641396878421107,-0.01620321244348002,0.6309185605654138,0.010409741945196673,-0.079028,-34.307352
11.185,2.0,1.0,1.0,33.5,34.9,34.9,3.6,1.6,2.5525,0.7593644746046082,-0.01659694398658156,0.6364463043419871,0.01047420643297025,-0.08022,-34.143503
11.185,2.0,1.0,1.0,33.5,34.9,34.9,3.6,1.6,2.555,0.7545188181220194,-0.0170021152653382,0.6419674163656329,0.010537775838048798,-0.081447,-33.978134
11.185,2.0,1.0,1.0,33.5,34.9,34.9,3.6,1.6,2.5575,0.7496016457235514,-0.017419192763356857,0.6474814418956414,0.010600357679537492,-0.082713,-33.811198
11.185,2.0,1.0,1.0,33.5,34.9,34.9,3.6,1.6,2.56,0.7446118499181846,-0.017848668677708724,0.6529879081029504,0.01066185205031602,-0.084018,-33.642649
11.185,2.0,1.0,1.0,33.5,34.9,34.9,3.6,1.6,2.5625,0.7395482864780403,-0.01829106270496459,0.658486323070069,0.010722150942036924,-0.085365,-33.472437
11.185,2.0,1.0,1.0,33.5,34.9,34.9,3.6,1.6,2.565,0.7344097723705076,-0.01874692397676554,0.6639761747103352,0.010781137499428535,-0.086755,-33.300511
11.185,2.0,1.0,1.0,33.5,34.9,34.9,3.6,1.6,2.5675,0.7291950835244109,-0.01921683315958387,0.6694569295977241,0.01083868519545374,-0.088191,-33.126818
11.185,2.0,1.0,1.0,33.5,34.9,34.9,3.6,1.6,2.57,0.7239029524138311,-0.019701404734977744,0.674928031697286,0.010894656917730434,-0.089675,-32.951301
11.185,2.0,1.0,1.0,33.5,34.9,34.9,3.6,1.6,2.5725,0.7185320654413374,-0.02020128947849682,0.6803889009849602,0.01094890395531257,-0.091209,-32.773903
11.185,2.0,1.0,1.0,33.5,34.9,34.9,3.6,1.6,2.575,0.7130810601002706,-0.020717177157490357,0.6858389319439813,0.011001264873411078,-0.092796,-32.594563
11.185,2.0,1.0,1.0,33.5,34.9,34.9,3.6,1.6,2.5775,0.7075485218933454,-0.021249799470434084,0.6912774919233364,0.011051564261891259,-0.094438,-32.413219
11.185,2.0,1.0,1.0,33.5,34.9,34.9,3.6,1.6,2.58,0.7019329809821367,-0.021799933253069545,0.6967039193416892,0.011099611341355446,-0.09614,-32.229805
11.185,2.0,1.0,1.0,33.5,34.9,34.9,3.6,1.6,2.5825,0.6962329085389561,-0.022368403979683135,0.7021175217178285,0.011145198408274555,-0.097903,-32.044252
11.185,2.0,1.0,1.0,33.5,34.9,34.9,3.6,1.6,2.585,0.6904467127691631,-0.022956089591295255,0.7075175735059421,0.011188099097902632,-0.099731,-31.856488
11.185,2.0,1.0,1.0,33.5,34.9,34.9,3.6,1.6,2.5875,0.6845727345680034,-0.023563924686445102,0.7129033137108353,0.011228066440531266,-0.101628,-31.666437
11.185,2.0,1.0,1.0,33.5,34.9,34.9,3.6,1.6,2.59,0.6786092427715846,-0.02419290511471327,0.7182739432544586,0.011264830682929411,-0.103598,-31.474023
11.185,2.0,1.0,1.0,33.5,34.9,34.9,3.6,1.6,2.5925,0.6725544289564577,-0.02484409301820858,0.7236286220607777,0.011298096842474108,-0.105645,-31.27916
11.185,2.0,1.0,1.0,33.5,34.9,34.9,3.6,1.6,2.595,0.6664064017364477,-0.025518622372050024,0.7289664658208608,0.011327541956385509,-0.107774,-31.081765
11.185,2.0,1.0,1.0,33.5,34.9,34.9,3.6,1.6,2.5975,0.6601631804986414,-0.026217705081521755,0.7342865423940875,0.01135281198249556,-0.109989,-30.881745
11.185,2.0,1.0,1.0,33.5,34.9,34.9,3.6,1.6,2.6,0.6538226885127959,-0.026942637701190007,0.7395878677942712,0.011373518300923799,-0.112296,-30.679005
11.185,2.0,1.0,1.0,33.5,34.9,34.9,3.6,1.6,2.6025,0.6473827453396023,-0.027694808850012867,0.7448694017011149,0.011389233757699969,-0.114701,-30.473446
11.185,2.0,1.0,1.0,33.5,34.9,34.9,3.6,1.6,2.605,0.6408410584530916,-0.028475707406526444,0.7501300424275273,0.011399488181498767,-0.11721,-30.264961
11.185,2.0,1.0,1.0,33.5,34.9,34.9,3.6,1.6,2.6075,0.6341952139808131,-0.029286931579766966,0.7553686212615289,0.011403763292921141,-0.11983,-30.053441
11.185,2.0,1.0,1.0,33.5,34.9,34.9,3.6,1.6,2.61,0.6274426664519211,-0.030130198964947633,0.7605838960874576,0.011401486911783667,-0.122568,-29.838768
11.185,2.0,1.0,1.0,33.5,34.9,34.9,3.6,1.6,2.6125,0.620580727427733,-0.031007357708349836,0.7657745441744328,0.011392026351183023,-0.125433,-29.620819
11.185,2.0,1.0,1.0,33.5,34.9,34.9,3.6,1.6,2.615,0.6136065528712815,-0.03192039892376154,0.7709391539999567,0.011374680867096384,-0.128433,-29.399464
11.185,2.0,1.0,1.0,33.5,34.9,34.9,3.6,1.6,2.6175,0.6065171290914806,-0.03287147052352187,0.77607621595239,0.011348673008234228,-0.131578,-29.174566
11.185,2.0,1.0,1.0,33.5,34.9,34.9,3.6,1.6,2.62,0.5993092570732006,-0.033862892651305446,0.7811841117269513,0.011313138681862924,-0.134879,-28.945979
11.185,2.0,1.0,1.0,33.5,34.9,34.9,3.6,1.6,2.6225,0.5919795349762987,-0.03489717493178389,0.7862611021946951,0.011267115716236963,-0.138348,-28.71355
11.185,2.0,1.0,1.0,33.5,34.9,34.9,3.6,1.6,2.625,0.584524338553712,-0.0359770357849201,0.791305313481153,0.0112095306576907,-0.141997,-28.477114
11.185,2.0,1.0,1.0,33.5,34.9,34.9,3.6,1.6,2.6275,0.5769397992002698,-0.037105424090712706,0.7963147209393092,0.01113918348856108,-0.14584,-28.2365
11.185,2.0,1.0,1.0,33.5,34.9,34.9,3.6,1.6,2.63,0.5692217792990164,-0.03828554353464854,0.8012871306378822,0.01105472988867655,-0.149894,-27.991523
11.185,2.0,1.0,1.0,33.5,34.9,34.9,3.6,1.6,2.6325,0.5613658444793201,-0.03952088001609147,0.8062201579077766,0.010954660585289586,-0.154175,-27.741987
11.185,2.0,1.0,1.0,33.5,34.9,34.9,3.6,1.6,2.635,0.553367232339603,-0.040815232562639955,0.8111112023932889,0.010837277240407756,-0.158704,-27.487683
11.185,2.0,1.0,1.0,33.5,34.9,34.9,3.6,1.6,2.6375,0.5452208171155939,-0.042172748264669435,0.8159574189355497,0.010700664205800597,-0.163502,-27.228391
11.185,2.0,1.0,1.0,33.5,34.9,34.9,3.6,1.6,2.64,0.5369210696907143,-0.04359796182762012,0.8207556834677242,0.0105426553285377,-0.168592,-26.963872
11.185,2.0,1.0,1.0,33.5,34.9,34.9,3.6,1.6,2.6425,0.5284620122466134,-0.04509584043711449,0.8255025529168423,0.010360794805970372,-0.174002,-26.693872
11.185,2.0,1.0,1.0,33.5,34.9,34.9,3.6,1.6,2.645,0.5198371667364959,-0.046671834745995275,0.8301942178757443,0.010152290858540351,-0.179762,-26.41812
11.185,2.0,1.0,1.0,33.5,34.9,34.9,3.6,1.6,2.6475,0.5110394962293018,-0.04833193692534827,0.8348264465171952,0.009913960698535703,-0.185907,-26.136325
11.185,2.0,1.0,1.0,33.5,34.9,34.9,3.6,1.6,2.65,0.502061338016223,-0.05008274687616522,0.8393945178535644,0.009642164905684774,-0.192475,-25.848174
11.185,2.0,1.0,1.0,33.5,34.9,34.9,3.6,1.6,2.6525,0.49289432718989457,-0.05193154787707614,0.843893141976585,0.009332728853551795,-0.199509,-25.55333
11.185,2.0,1.0,1.0,33.5,34.9,34.9,3.6,1.6,2.655,0.4835293091984183,-0.05388639314877926,0.848316364312516,0.008980848233977127,-0.207061,-25.251431
11.185,2.0,1.0,1.0,33.5,34.9,34.9,3.6,1.6,2.6575,0.47395623964002787,-0.05595620504860191,0.8526574501580308,0.00858097496012122,-0.215185,-24.942086
11.185,2.0,1.0,1.0,33.5,34.9,34.9,3.6,1.6,2.66,0.4641640693000774,-0.05815088886832387,0.856908744767366,0.00812667873825752,-0.223949,-24.624871
11.185,2.0,1.0,1.0,33.5,34.9,34.9,3.6,1.6,2.6625,0.4541406121445796,-0.0604814634904918,0.8610615029687397,0.0076104783117737365,-0.233426,-24.299328
11.185,2.0,1.0,1.0,33.5,34.9,34.9,3.6,1.6,2.665,0.44387239368434184,-0.06296021145198187,0.8651056805989689,0.007023634699581221,-0.243704,-23.964962
11.185,2.0,1.0,1.0,33.5,34.9,34.9,3.6,1.6,2.6675,0.4333444768330363,-0.06560085124625159,0.8690296778247071,0.006355896541259981,-0.254883,-23.621233
11.185,2.0,1.0,1.0,33.5,34.9,34.9,3.6,1.6,2.67,0.42254026214195445,-0.06841873492639076,0.8728200214820782,0.005595184738987484,-0.267081,-23.267551
11.185,2.0,1.0,1.0,33.5,34.9,34.9,3.6,1.6,2.6725,0.4114412591766239,-0.0714310741767131,0.8764609696586645,0.004727199698260211,-0.280437,-22.903278
11.185,2.0,1.0,1.0,33.5,34.9,34.9,3.6,1.6,2.675,0.40002682593128286,-0.07465719787544789,0.879934016509759,0.003734929264586693,-0.295112,-22.52771
11.185,2.0,1.0,1.0,33.5,34.9,34.9,3.6,1.6,2.6775,0.3882738737698076,-0.07811884356149201,0.8832172682527473,0.0025980284430930935,-0.311299,-22.140083
11.185,2.0,1.0,1.0,33.5,34.9,34.9,3.6,1.6,2.68,0.37615653679573186,-0.08184048378460025,0.88628465173247,0.001292032489850895,-0.32923,-21.739554
11.185,2.0,1.0,1.0,33.5,34.9,34.9,3.6,1.6,2.6825,0.3636458073931236,-0.08584968545781357,0.8891049039342088,-0.0002126479780179093,-0.349179,-21.325199
11.185,2.0,1.0,1.0,33.5,34.9,34.9,3.6,1.6,2.685,0.35070914495673416,-0.09017749503266746,0.8916402729914924,-0.0019520189303258667,-0.371482,-20.896002
11.185,2.0,1.0,1.0,33.5,34.9,34.9,3.6,1.6,2.6875,0.3373100742454815,-0.09485883288447884,0.8938448367095871,-0.003970175382523334,-0.396545,-20.450844
11.185,2.0,1.0,1.0,33.5,34.9,34.9,3.6,1.6,2.69,0.3234078062168478,-0.09993286386630094,0.8956623107910485,-0.006321481436237631,-0.424868,-19.98849
11.185,2.0,1.0,1.0,33.5,34.9,34.9,3.6,1.6,2.6925,0.30895694249193495,-0.10544328272174931,0.8970231722447464,-0.009073431366383973,-0.457068,-19.507582
11.185,2.0,1.0,1.0,33.5,34.9,34.9,3.6,1.6,2.695,0.29390737304226294,-0.11143840469016723,0.8978408591747593,-0.012310429054448622,-0.493919,-19.006625
11.185,2.0,1.0,1.0,33.5,34.9,34.9,3.6,1.6,2.6975,0.27820455946295874,-0.11797086906909769,0.8980067204298028,-0.016138810132411953,-0.536392,-18.483977
11.185,2.0,1.0,1.0,33.5,34.9,34.9,3.6,1.6,2.7,0.26179053771399224,-0.1250966224195438,0.8973832711295687,-0.020693547728769492,-0.585725,-17.937845
11.185,2.0,1.0,1.0,33.5,34.9,34.9,3.6,1.6,2.7025,0.24460621660584372,-0.13287260658155126,0.895795158585828,-0.026147232872678252,-0.643511,-17.366289
11.185,2.0,1.0,1.0,33.5,34.9,34.9,3.6,1.6,2.705,0.22659596424637365,-0.14135216242518503,0.8930170624489834,-0.03272209944733953,-0.711817,-16.767238
11.185,2.0,1.0,1.0,33.5,34.9,34.9,3.6,1.6,2.7075,0.20771618851259357,-0.15057644962943417,0.8887575752181206,-0.04070603883219687,-0.793362,-16.138535
11.185,2.0,1.0,1.0,33.5,34.9,34.9,3.6,1.6,2.71,0.1879508378519705,-0.16055896851701204,0.8826380383122824,-0.05047361742647214,-0.891753,-15.47803
11.185,2.0,1.0,1.0,33.5,34.9,34.9,3.6,1.6,2.7125,0.16733880900784834,-0.17125822057454376,0.8741656235775574,-0.0625127930798211,-1.011828,-14.783752
11.185,2.0,1.0,1.0,33.5,34.9,34.9,3.6,1.6,2.715,0.14602162838720736,-0.18253018344046223,0.8627013376394612,-0.07745663951050809,-1.160117,-14.054218
11.185,2.0,1.0,1.0,33.5,34.9,34.9,3.6,1.6,2.7175,0.12432497954322747,-0.19404710280505222,0.8474276795653217,-0.09611534554474425,-1.345464,-13.288972
11.185,2.0,1.0,1.0,33.5,34.9,34.9,3.6,1.6,2.72,0.10289454642718318,-0.20516225573696964,0.8273308504878703,-0.11949362576024056,-1.579754,-12.489498
11.185,2.0,1.0,1.0,33.5,34.9,34.9,3.6,1.6,2.7225,0.0829120852338136,-0.21469495521828694,0.8012353926111505,-0.14875580059539348,-1.87854,-11.660742
11.185,2.0,1.0,1.0,33.5,34.9,34.9,3.6,1.6,2.725,0.06640870079773172,-0.2206190198187328,0.7679750738604474,-0.1850550860307309,-2.260704,-10.813505
11.185,2.0,1.0,1.0,33.5,34.9,34.9,3.6,1.6,2.7275,0.05663151473652183,-0.21969853524477623,0.726857243879162,-0.22907061133737514,-2.744734,-9.967946
11.185,2.0,1.0,1.0,33.5,34.9,34.9,3.6,1.6,2.73,0.058230177187713915,-0.20730373706986285,0.6786343696401256,-0.2800396103961607,-3.335425,-9.15792
11.185,2.0,1.0,1.0,33.5,34.9,34.9,3.6,1.6,2.7325,0.07664987455223056,-0.17801805922619082,0.6270325786798185,-0.33423578263215475,-3.989781,-8.434388
11.185,2.0,1.0,1.0,33.5,34.9,34.9,3.6,1.6,2.735,0.11582960087317752,-0.12793372517653262,0.5800862155830702,-0.3836430716270079,-4.560356,-7.86352
11.185,2.0,1.0,1.0,33.5,34.9,34.9,3.6,1.6,2.7375,0.1742545313165725,-0.058585124734585985,0.5491496300634623,-0.4169470676364988,-4.789535,-7.513474
11.185,2.0,1.0,1.0,33.5,34.9,34.9,3.6,1.6,2.74,0.24243151040341573,0.020542904103127868,0.5437925093542118,-0.42462965463251945,-4.504042,-7.429641
11.185,2.0,1.0,1.0,33.5,34.9,34.9,3.6,1.6,2.7425,0.3061601581316272,0.09529079121901934,0.5655294324021873,-0.4052170067372182,-3.83464,-7.612487
11.185,2.0,1.0,1.0,33.5,34.9,34.9,3.6,1.6,2.745,0.35411631269811666,0.15439251093188613,0.6069869241895595,-0.3660923998959442,-3.064212,-8.01726
11.185,2.0,1.0,1.0,33.5,34.9,34.9,3.6,1.6,2.7475,0.3824171200062383,0.1940156659465967,0.6573318173032818,-0.31806650628361083,-2.378258,-8.575843
11.185,2.0,1.0,1.0,33.5,34.9,34.9,3.6,1.6,2.75,0.393248693151944,0.216374001626968,0.707830345011941,-0.269834449584293,-1.833158,-9.221659
11.185,2.0,1.0,1.0,33.5,34.9,34.9,3.6,1.6,2.7525,0.39119370900791434,0.22605643892236144,0.7536715080780898,-0.2261697857607744,-1.420327,-9.903185
11.185,2.0,1.0,1.0,33.5,34.9,34.9,3.6,1.6,2.755,0.3806763762632309,0.22748135899467578,0.7931433700691882,-0.18875636733638435,-1.112641,-10.586042
11.185,2.0,1.0,1.0,33.5,34.9,34.9,3.6,1.6,2.7575,0.36503905336224524,0.22398141641301383,0.8262526739840584,-0.15756902852091487,-0.883381,-11.249638
11.185,2.0,1.0,1.0,33.5,34.9,34.9,3.6,1.6,2.76,0.34652222667647925,0.2177879440553191,0.8537257792732351,-0.13186991089162492,-0.711305,-11.882825
11.185,2.0,1.0,1.0,33.5,34.9,34.9,3.6,1.6,2.7625,0.32652997149966206,0.21029800816541327,0.8764732408369081,-0.11074105968193876,-0.580777,-12.480374
11.185,2.0,1.0,1.0,33.5,34.9,34.9,3.6,1.6,2.765,0.3059041309954479,0.2023487659992338,0.8953559819957017,-0.09331624013525577,-0.480607,-13.04055
11.185,2.0,1.0,1.0,33.5,34.9,34.9,3.6,1.6,2.7675,0.2851306811462823,0.19442349422837008,0.9111065217991017,-0.07885848822552814,-0.40284,-13.563583
11.185,2.0,1.0,1.0,33.5,34.9,34.9,3.6,1.6,2.77,0.2644775753116624,0.18678899974983798,0.9243186736979747,-0.0667697317018478,-0.341808,-14.050737
11.185,2.0,1.0,1.0,33.5,34.9,34.9,3.6,1.6,2.7725,0.24408186513533905,0.17958236141827433,0.9354628185007761,-0.05657515980768247,-0.293433,-14.503767
11.185,2.0,1.0,1.0,33.5,34.9,34.9,3.6,1.6,2.775,0.22400328662155308,0.1728642268220995,0.9449077720315129,-0.04790117618817758,-0.254753,-14.924603
11.185,2.0,1.0,1.0,33.5,34.9,34.9,3.6,1.6,2.7775,0.20425677126830488,0.1666511173942848,0.9529417747389605,-0.040454322124581464,-0.223592,-15.315176
11.185,2.0,1.0,1.0,33.5,34.9,34.9,3.6,1.6,2.78,0.18483202063049553,0.16093486295144924,0.959790219178497,-0.03400350654443194,-0.198329,-15.677321
11.185,2.0,1.0,1.0,33.5,34.9,34.9,3.6,1.6,2.7825,0.1657052204530586,0.1556942250116624,0.9656297993719017,-0.02836583316830944,-0.177744,-16.012736
11.185,2.0,1.0,1.0,33.5,34.9,34.9,3.6,1.6,2.785,0.14684599558026196,0.1509017968401726,0.9705994990966696,-0.023395594206043334,-0.16091,-16.322956
11.185,2.0,1.0,1.0,33.5,34.9,34.9,3.6,1.6,2.7875,0.12822148503779335,0.1465280500423267,0.9748090148863618,-0.018975827716576042,-0.147113,-16.609353
11.185,2.0,1.0,1.0,33.5,34.9,34.9,3.6,1.6,2.79,0.10979867448706897,0.1425436583321702,0.9783451790010049,-0.015011869574835742,-0.135799,-16.873139
11.185,2.0,1.0,1.0,33.5,34.9,34.9,3.6,1.6,2.7925,0.09154567530407938,0.1389207834103328,0.9812768533826971,-0.011426426845960201,-0.126534,-17.115373
11.185,2.0,1.0,1.0,33.5,34.9,34.9,3.6,1.6,2.795,0.07343236922182134,0.13563373920669008,0.9836586649260819,-0.008155800750562983,-0.118976,-17.336971
11.185,2.0,1.0,1.0,33.5,34.9,34.9,3.6,1.6,2.7975,0.055430673831025304,0.13265928828491552,0.9855338648674622,-0.005146975126142203,-0.112852,-17.538714
11.185,2.0,1.0,1.0,33.5,34.9,34.9,3.6,1.6,2.8,0.03751458468176879,0.12997672553465303,0.9869365250507528,-0.002355356241790959,-0.107945,-17.721262
11.185,2.0,1.0,1.0,33.5,34.9,34.9,3.6,1.6,2.8025,0.019660088832738547,0.12756784406612034,0.9878932299600589,0.0002569965866410268,-0.10408,-17.885158
11.185,2.0,1.0,1.0,33.5,34.9,34.9,3.6,1.6,2.805,0.0018450072381066673,0.12541684133554606,0.9884243827958981,0.00272276994088303,-0.101116,-18.030836
11.185,2.0,1.0,1.0,33.5,34.9,34.9,3.6,1.6,2.8075,-0.01595119980024113,0.12351020088370891,0.9885452135220671,0.005070515367522349,-0.098939,-18.15863
11.185,2.0,1.0,1.0,33.5,34.9,34.9,3.6,1.6,2.81,-0.033747644285524535,0.12183657118036474,0.988266554168443,0.0073255571927526245,-0.097457,-18.268775
11.185,2.0,1.0,1.0,33.5,34.9,34.9,3.6,1.6,2.8125,-0.0515622284584154,0.120386654603788,0.987595429719288,0.00951074163988009,-0.096596,-18.361412
11.185,2.0,1.0,1.0,33.5,34.9,34.9,3.6,1.6,2.815,-0.06941186386443349,0.11915311451254103,0.9865355001010898,0.011647068112468434,-0.096299,-18.436593
11.185,2.0,1.0,1.0,33.5,34.9,34.9,3.6,1.6,2.8175,-0.08731269005466184,0.11813050543824709,0.9850873789430756,0.013754235099647742,-0.09652,-18.494279
11.185,2.0,1.0,1.0,33.5,34.9,34.9,3.6,1.6,2.82,-0.1052802938296562,0.1173152298782281,0.98324884703691,0.015851127262696253,-0.097223,-18.534341
11.185,2.0,1.0,1.0,33.5,34.9,34.9,3.6,1.6,2.8225,-0.12332993163233652,0.11670552452921146,0.9810149720927378,0.01795626633864928,-0.098385,-18.55656
11.185,2.0,1.0,1.0,33.5,34.9,34.9,3.6,1.6,2.825,-0.14147675901417228,0.11630147880044715,0.9783781409358052,0.020088246203336203,-0.09999,-18.560622
11.185,2.0,1.0,1.0,33.5,34.9,34.9,3.6,1.6,2.8275,-0.15973607227234363,0.11610508892100782,0.9753280052504607,0.022266171586787894,-0.102031,-18.546117
11.185,2.0,1.0,1.0,33.5,34.9,34.9,3.6,1.6,2.83,-0.1781235685547667,0.11612035183826926,0.9718513369253565,0.024510120484909213,-0.10451,-18.51253
