1,w,sub_t,h,l1,l2,l3,g1,g2,Freq,S11_re,S21_re,S11_img,S21_img,S11_dB,S21_dB
11.185,2.0,1.0,1.0,33.0,33.0,33.0,3.5,3.0,2.5,0.898555915542187,-0.00442406300110492,0.426454663278229,0.00427062038404685,-0.046868,-44.223872
11.185,2.0,1.0,1.0,33.0,33.0,33.0,3.5,3.0,2.5025,0.895930140493455,-0.0045148698841096565,0.43184721506969986,0.004294488677482918,-0.047234,-44.108697
11.185,2.0,1.0,1.0,33.0,33.0,33.0,3.5,3.0,2.505,0.8932623280743983,-0.0046071753681948425,0.4372418918911862,0.004318020534023054,-0.047607,-43.993389
11.185,2.0,1.0,1.0,33.0,33.0,33.0,3.5,3.0,2.5075,0.890552112906169,-0.004701005620608839,0.4426385626989148,0.00434120105832225,-0.047985,-43.87794
11.185,2.0,1.0,1.0,33.0,33.0,33.0,3.5,3.0,2.51,0.8877991238340578,-0.004796387386915685,0.448037092643626,0.004364014856515881,-0.048369,-43.762344
11.185,2.0,1.0,1.0,33.0,33.0,33.0,3.5,3.0,2.5125,0.8850029838328208,-0.004893348006149402,0.4534373429450811,0.004386446017933204,-0.048759,-43.646594
11.185,2.0,1.0,1.0,33.0,33.0,33.0,3.5,3.0,2.515,0.8821633099105706,-0.004991915426420995,0.45883917076262526,0.004408478096076509,-0.049155,-43.530682
11.185,2.0,1.0,1.0,33.0,33.0,33.0,3.5,3.0,2.5175,0.8792797130112212,-0.005092118220993822,0.464242429061652,0.004430094088832098,-0.049557,-43.414601
11.185,2.0,1.0,1.0,33.0,33.0,33.0,3.5,3.0,2.52,0.8763517979154756,-0.005193985604843572,0.46964696647585663,0.00445127641787972,-0.049966,-43.298344
11.185,2.0,1.0,1.0,33.0,33.0,33.0,3.5,3.0,2.5225,0.8733791631403443,-0.005297547451719144,0.4750526271651084,0.004472006907263372,-0.050382,-43.181904
11.185,2.0,1.0,1.0,33.0,33.0,33.0,3.5,3.0,2.525,0.8703614008371854,-0.005402834311722252,0.48045925066881706,0.00449226676108634,-0.050804,-43.065274
11.185,2.0,1.0,1.0,33.0,33.0,33.0,3.5,3.0,2.5275,0.8672980966882526,-0.005509877429423695,0.4858666717546323,0.004512036540290259,-0.051233,-42.948445
11.185,2.0,1.0,1.0,33.0,33.0,33.0,3.5,3.0,2.53,0.864188829801747,-0.005618708762534527,0.4912747202623129,0.004531296138476565,-0.051669,-42.831412
11.185,2.0,1.0,1.0,33.0,33.0,33.0,3.5,3.0,2.5325,0.8610331726053645,-0.005729361001152715,0.4966832209426094,0.004550024756725972,-0.052113,-42.714165
11.185,2.0,1.0,1.0,33.0,33.0,33.0,3.5,3.0,2.535,0.857830690738324,-0.005841867587604321,0.5020919932909885,0.004568200877370081,-0.052563,-42.596699
11.185,2.0,1.0,1.0,33.0,33.0,33.0,3.5,3.0,2.5375,0.8545809429418836,-0.005956262736901773,0.5075008513760135,0.004585802236666205,-0.053021,-42.479005
11.185,2.0,1.0,1.0,33.0,33.0,33.0,3.5,3.0,2.54,0.8512834809483278,-0.006072581457839107,0.5129096036622122,0.004602805796324601,-0.053486,-42.361075
11.185,2.0,1.0,1.0,33.0,33.0,33.0,3.5,3.0,2.5425,0.8479378493684276,-0.006190859574749446,0.5183180528272293,0.004619187713833516,-0.05396,-42.242903
11.185,2.0,1.0,1.0,33.0,33.0,33.0,3.5,3.0,2.545,0.8445435855773687,-0.006311133749946617,0.5237259955730782,0.004634923311526259,-0.054441,-42.12448
11.185,2.0,1.0,1.0,33.0,33.0,33.0,3.5,3.0,2.5475,0.8411002195991508,-0.006433441506876064,0.5291332224312707,0.004649987044329869,-0.05493,-42.005798
11.185,2.0,1.0,1.0,33.0,33.0,33.0,3.5,3.0,2.55,0.8376072739894497,-0.006557821254001793,0.5345395175616363,0.00466435246613283,-0.055428,-41.886851
11.185,2.0,1.0,1.0,33.0,33.0,33.0,3.5,3.0,2.5525,0.8340642637169555,-0.006684312309454303,0.5399446585445817,0.004677992194705332,-0.055933,-41.767629
11.185,2.0,1.0,1.0,33.0,33.0,33.0,3.5,3.0,2.555,0.8304706960431802,-0.006812954926469034,0.5453484161665865,0.004690877875102812,-0.056448,-41.648125
11.185,2.0,1.0,1.0,33.0,33.0,33.0,3.5,3.0,2.5575,0.8268260704007449,-0.006943790319643857,0.5507505541986871,0.0047029801414782725,-0.056971,-41.528332
11.185,2.0,1.0,1.0,33.0,33.0,33.0,3.5,3.0,2.56,0.8231298782701517,-0.007076860692044757,0.5561508291677001,0.004714268577226593,-0.057504,-41.408239
11.185,2.0,1.0,1.0,33.0,33.0,33.0,3.5,3.0,2.5625,0.8193816030550535,-0.007212209263193499,0.5615489901199304,0.004724711673378413,-0.058045,-41.287841
11.185,2.0,1.0,1.0,33.0,33.0,33.0,3.5,3.0,2.565,0.8155807199560243,-0.00734988029796775,0.5669447783771048,0.004734276785157273,-0.058596,-41.167127
11.185,2.0,1.0,1.0,33.0,33.0,33.0,3.5,3.0,2.5675,0.8117266958428565,-0.007489919136449273,0.5723379272842407,0.004742930086608992,-0.059157,-41.046091
11.185,2.0,1.0,1.0,33.0,33.0,33.0,3.5,3.0,2.57,0.807818989125388,-0.007632372224755474,0.5777281619491741,0.004750636523206486,-0.059728,-40.924723
11.185,2.0,1.0,1.0,33.0,33.0,33.0,3.5,3.0,2.5725,0.8038570496228856,-0.007777287146891181,0.5831151989734431,0.004757359762328947,-0.060308,-40.803014
11.185,2.0,1.0,1.0,33.0,33.0,33.0,3.5,3.0,2.575,0.7998403184320064,-0.007924712657660211,0.5884987461742187,0.004763062141506937,-0.060899,-40.680957
11.185,2.0,1.0,1.0,33.0,33.0,33.0,3.5,3.0,2.5775,0.7957682277933537,-0.008074698716675696,0.5938785022969538,0.004767704614320694,-0.061501,-40.558542
11.185,2.0,1.0,1.0,33.0,33.0,33.0,3.5,3.0,2.58,0.7916402009566679,-0.008227296523512884,0.5992541567184185,0.004771246693830789,-0.062113,-40.43576
11.185,2.0,1.0,1.0,33.0,33.0,33.0,3.5,3.0,2.5825,0.7874556520446713,-0.00838255855404737,0.6046253891397749,0.0047736463934139346,-0.062736,-40.312603
11.185,2.0,1.0,1.0,33.0,33.0,33.0,3.5,3.0,2.585,0.7832139859156066,-0.00854053859802452,0.6099918692693169,0.004774860164870021,-0.063371,-40.189062
11.185,2.0,1.0,1.0,33.0,33.0,33.0,3.5,3.0,2.5875,0.7789145980245071,-0.008701291797909008,0.6153532564945106,0.004774842833657026,-0.064017,-40.065126
11.185,2.0,1.0,1.0,33.0,33.0,33.0,3.5,3.0,2.59,0.7745568742832398,-0.00886487468906262,0.6207091995429243,0.0047735475311039355,-0.064675,-39.940787
11.185,2.0,1.0,1.0,33.0,33.0,33.0,3.5,3.0,2.5925,0.7701401909193663,-0.009031345241304533,0.6260593361316523,0.004770925623440542,-0.065346,-39.816036
11.185,2.0,1.0,1.0,33.0,33.0,33.0,3.5,3.0,2.595,0.7656639143338786,-0.009200762901906037,0.6314032926047899,0.0047669266374764305,-0.066029,-39.690862
11.185,2.0,1.0,1.0,33.0,33.0,33.0,3.5,3.0,2.5975,0.7611274009578567,-0.009373188640078741,0.6367406835585252,0.0047614981827475734,-0.066724,-39.565256
11.185,2.0,1.0,1.0,33.0,33.0,33.0,3.5,3.0,2.6,0.7565299971081115,-0.009548684993014018,0.6420711114533761,0.00475458586994166,-0.067433,-39.439208
11.185,2.0,1.0,1.0,33.0,33.0,33.0,3.5,3.0,2.6025,0.7518710388418852,-0.00972731611353585,0.6473941662130871,0.00474613322539903,-0.068155,-39.312708
11.185,2.0,1.0,1.0,33.0,33.0,33.0,3.5,3.0,2.605,0.747149851810669,-0.009909147819432598,0.652709424809682,0.00473608160147487,-0.068891,-39.185746
11.185,2.0,1.0,1.0,33.0,33.0,33.0,3.5,3.0,2.6075,0.7423657511132249,-0.010094247644533478,0.6580164508341455,0.004724370082534481,-0.069641,-39.058312
11.185,2.0,1.0,1.0,33.0,33.0,33.0,3.5,3.0,2.61,0.7375180411478937,-0.010282684891601767,0.6633147940521742,0.004710935386340025,-0.070405,-38.930394
11.185,2.0,1.0,1.0,33.0,33.0,33.0,3.5,3.0,2.6125,0.732606015464275,-0.010474530687117714,0.6686039899444322,0.004695711760570259,-0.071184,-38.801983
11.185,2.0,1.0,1.0,33.0,33.0,33.0,3.5,3.0,2.615,0.7276289566143795,-0.010669858038027741,0.673883559230705,0.004678630874200323,-0.071978,-38.673067
11.185,2.0,1.0,1.0,33.0,33.0,33.0,3.5,3.0,2.6175,0.7225861360033593,-0.010868741890541041,0.679153007377318,0.004659621703449709,-0.072788,-38.543635
11.185,2.0,1.0,1.0,33.0,33.0,33.0,3.5,3.0,2.62,0.7174768137399283,-0.011071259191056714,0.684411824087172,0.004638610411988635,-0.073614,-38.413677
11.185,2.0,1.0,1.0,33.0,33.0,33.0,3.5,3.0,2.6225,0.7123002384865892,-0.011277488949309453,0.6896594827717041,0.004615520225072177,-0.074457,-38.28318
11.185,2.0,1.0,1.0,33.0,33.0,33.0,3.5,3.0,2.625,0.707055647309806,-0.0114875123038257,0.694895440004047,0.00459027129725055,-0.075316,-38.152134
11.185,2.0,1.0,1.0,33.0,33.0,33.0,3.5,3.0,2.6275,0.7017422655302505,-0.011701412589785002,0.7001191349526494,0.0045627805732804,-0.076193,-38.020526
11.185,2.0,1.0,1.0,33.0,33.0,33.0,3.5,3.0,2.63,0.6963593065732784,-0.011919275409387394,0.7053299887945561,0.004532961641836951,-0.077087,-37.888344
11.185,2.0,1.0,1.0,33.0,33.0,33.0,3.5,3.0,2.6325,0.6909059718197896,-0.01214118870483102,0.710527404107528,0.004500724581600157,-0.078,-37.755576
11.185,2.0,1.0,1.0,33.0,33.0,33.0,3.5,3.0,2.635,0.685381450457645,-0.012367242834008424,0.7157107642401321,0.004465975799259003,-0.078931,-37.62221
11.185,2.0,1.0,1.0,33.0,33.0,33.0,3.5,3.0,2.6375,0.6797849193338252,-0.012597530649036126,0.7208794326588903,0.004428617858947574,-0.079882,-37.488232
11.185,2.0,1.0,1.0,33.0,33.0,33.0,3.5,3.0,2.64,0.6741155428075116,-0.01283214757773556,0.7260327522715457,0.004388549302591979,-0.080852,-37.353631
11.185,2.0,1.0,1.0,33.0,33.0,33.0,3.5,3.0,2.6425,0.6683724726043093,-0.013071191708190561,0.7311700447254261,0.0043456644606126695,-0.081843,-37.218392
11.185,2.0,1.0,1.0,33.0,33.0,33.0,3.5,3.0,2.645,0.6625548476718276,-0.01331476387650927,0.7362906096798683,0.004299853252386078,-0.082855,-37.082501
11.185,2.0,1.0,1.0,33.0,33.0,33.0,3.5,3.0,2.6475,0.6566617940368513,-0.013562967757927325,0.7413937240515823,0.004251000975829083,-0.083888,-36.945947
11.185,2.0,1.0,1.0,33.0,33.0,33.0,3.5,3.0,2.65,0.6506924246643442,-0.013815909961391874,0.7464786412318096,0.0041989880854238805,-0.084944,-36.808713
11.185,2.0,1.0,1.0,33.0,33.0,33.0,3.5,3.0,2.6525,0.6446458393185742,-0.0140737001277736,0.7515445902740224,0.004143689957951924,-0.086022,-36.670786
11.185,2.0,1.0,1.0,33.0,33.0,33.0,3.5,3.0,2.655,0.6385211244266106,-0.014336451031860457,0.7565907750509,0.004084976645152394,-0.087124,-36.532152
11.185,2.0,1.0,1.0,33.0,33.0,33.0,3.5,3.0,2.6575,0.6323173529445197,-0.014604278688291571,0.7616163733792003,0.0040227126124644345,-0.08825,-36.392794
11.185,2.0,1.0,1.0,33.0,33.0,33.0,3.5,3.0,2.66,0.6260335842265621,-0.014877302461597866,0.7666205361111015,0.0039567564629495065,-0.089401,-36.252699
11.185,2.0,1.0,1.0,33.0,33.0,33.0,3.5,3.0,2.6625,0.6196688638977413,-0.015155645180521482,0.7716023861904844,0.0038869606454233446,-0.090578,-36.11185
11.185,2.0,1.0,1.0,33.0,33.0,33.0,3.5,3.0,2.665,0.6132222237300539,-0.015439433256793244,0.7765610176725677,0.0038131711457552258,-0.09178,-35.970231
11.185,2.0,1.0,1.0,33.0,33.0,33.0,3.5,3.0,2.6675,0.606692681522837,-0.015728796808555174,0.7814954947051829,0.0037352271602113744,-0.093011,-35.827825
11.185,2.0,1.0,1.0,33.0,33.0,33.0,3.5,3.0,2.67,0.6000792409876117,-0.01602386978861883,0.7864048504699054,0.0036529607496366373,-0.094269,-35.684617
11.185,2.0,1.0,1.0,33.0,33.0,33.0,3.5,3.0,2.6725,0.5933808916378517,-0.016324790117762264,0.7912880860811371,0.003566196473172055,-0.095556,-35.540589
11.185,2.0,1.0,1.0,33.0,33.0,33.0,3.5,3.0,2.675,0.5865966086841509,-0.016631699823270056,0.7961441694411192,0.003474751000108415,-0.096873,-35.395723
11.185,2.0,1.0,1.0,33.0,33.0,33.0,3.5,3.0,2.6775,0.5797253529352657,-0.0169447451829295,0.8009720340487385,0.003378432698363767,-0.098221,-35.250001
11.185,2.0,1.0,1.0,33.0,33.0,33.0,3.5,3.0,2.68,0.5727660707055563,-0.01726407687470541,0.8057705777598533,0.003277041197952432,-0.0996,-35.103405
11.185,2.0,1.0,1.0,33.0,33.0,33.0,3.5,3.0,2.6825,0.565717693729383,-0.01758985013231634,0.8105386614967126,0.0031703669276863405,-0.101012,-34.955916
11.185,2.0,1.0,1.0,33.0,33.0,33.0,3.5,3.0,2.685,0.5585791390830385,-0.0179222249069459,0.8152751079039058,0.003058190623202405,-0.102459,-34.807514
11.185,2.0,1.0,1.0,33.0,33.0,33.0,3.5,3.0,2.6875,0.5513493091148463,-0.018261366035325275,0.8199786999480868,0.002940282804258438,-0.10394,-34.65818
11.185,2.0,1.0,1.0,33.0,33.0,33.0,3.5,3.0,2.69,0.544027091384092,-0.018607443414428503,0.8246481794585502,0.0028164032190683757,-0.105457,-34.507894
11.185,2.0,1.0,1.0,33.0,33.0,33.0,3.5,3.0,2.6925,0.5366113586094883,-0.018960632183025405,0.829282245605539,0.0026863002532630984,-0.107011,-34.356633
11.185,2.0,1.0,1.0,33.0,33.0,33.0,3.5,3.0,2.695,0.529100968627945,-0.01932111291033753,0.833879553312925,0.002549710300861139,-0.108605,-34.204377
11.185,2.0,1.0,1.0,33.0,33.0,33.0,3.5,3.0,2.6975,0.5214947643644333,-0.01968907179204816,0.8384387116017051,0.002406357094409581,-0.110238,-34.051103
11.185,2.0,1.0,1.0,33.0,33.0,33.0,3.5,3.0,2.7,0.5137915738138215,-0.0200647008539087,0.8429582818604588,0.0022559509912155116,-0.111912,-33.89679
11.185,2.0,1.0,1.0,33.0,33.0,33.0,3.5,3.0,2.7025,0.5059902100355889,-0.020448198163189196,0.8474367760386703,0.0020981882123182398,-0.113629,-33.741412
11.185,2.0,1.0,1.0,33.0,33.0,33.0,3.5,3.0,2.705,0.4980894711624155,-0.020839768048206784,0.8518726547584833,0.0019327500305631735,-0.115391,-33.584947
11.185,2.0,1.0,1.0,33.0,33.0,33.0,3.5,3.0,2.7075,0.4900881404236934,-0.021239621326162042,0.8562643253401431,0.001759301903813947,-0.117198,-33.427369
11.185,2.0,1.0,1.0,33.0,33.0,33.0,3.5,3.0,2.71,0.48198498618510277,-0.02164797553949776,0.8606101397360003,0.0015774925489873636,-0.119053,-33.268654
11.185,2.0,1.0,1.0,33.0,33.0,33.0,3.5,3.0,2.7125,0.47377876200545815,-0.02206505520097719,0.8649083923675644,0.0013869529522058358,-0.120957,-33.108774
11.185,2.0,1.0,1.0,33.0,33.0,33.0,3.5,3.0,2.715,0.46546820671214545,-0.022491092047654784,0.8691573178596373,0.001187295309933362,-0.122912,-32.947703
11.185,2.0,1.0,1.0,33.0,33.0,33.0,3.5,3.0,2.7175,0.4570520444965553,-0.022926325303883024,0.8733550886650949,0.0009781118954877272,-0.124921,-32.785413
11.185,2.0,1.0,1.0,33.0,33.0,33.0,3.5,3.0,2.72,0.4485289850310508,-0.02337100195345965,0.8774998125733228,0.0007589738447999177,-0.126984,-32.621876
11.185,2.0,1.0,1.0,33.0,33.0,33.0,3.5,3.0,2.7225,0.43989772360910545,-0.023825377020974044,0.8815895300947633,0.0005294298547144857,-0.129104,-32.45706
11.185,2.0,1.0,1.0,33.0,33.0,33.0,3.5,3.0,2.725,0.4311569413104302,-0.024289713862347052,0.8856222117133407,0.0002890047864867838,-0.131284,-32.290937
11.185,2.0,1.0,1.0,33.0,33.0,33.0,3.5,3.0,2.7275,0.4223053051930164,-0.024764284464494624,0.8895957549978568,3.7198166424946813e-05,-0.133526,-32.123475
11.185,2.0,1.0,1.0,33.0,33.0,33.0,3.5,3.0,2.73,0.4133414685142468,-0.02524936975394763,0.8935079815626246,-0.00022651742515640991,-0.135832,-31.95464
11.185,2.0,1.0,1.0,33.0,33.0,33.0,3.5,3.0,2.7325,0.4042640709833895,-0.02574525991416,0.8973566338667491,-0.000502698086375118,-0.138204,-31.784399
11.185,2.0,1.0,1.0,33.0,33.0,33.0,3.5,3.0,2.735,0.3950717390480406,-0.026252254711104834,0.9011393718404856,-0.0007919304582822511,-0.140646,-31.612718
11.185,2.0,1.0,1.0,33.0,33.0,33.0,3.5,3.0,2.7375,0.38576308621731864,-0.02677066382660135,0.9048537693260262,-0.001094833733166565,-0.14316,-31.439559
11.185,2.0,1.0,1.0,33.0,33.0,33.0,3.5,3.0,2.74,0.37633671342492586,-0.02730080719862945,0.908497310318856,-0.0014120618196013085,-0.14575,-31.264888
11.185,2.0,1.0,1.0,33.0,33.0,33.0,3.5,3.0,2.7425,0.36679120943549587,-0.02784301536766349,0.9120673849944982,-0.0017443056785030804,-0.148419,-31.088663
11.185,2.0,1.0,1.0,33.0,33.0,33.0,3.5,3.0,2.745,0.3571251512980599,-0.028397629827788252,0.9155612855039539,-0.0020922958459587532,-0.151169,-30.910846
11.185,2.0,1.0,1.0,33.0,33.0,33.0,3.5,3.0,2.7475,0.34733710485087405,-0.028965003381038714,0.9189762015194917,-0.0024568051602387986,-0.154005,-30.731395
11.185,2.0,1.0,1.0,33.0,33.0,33.0,3.5,3.0,2.75,0.337425625282368,-0.0295455004930225,0.922309215510566,-0.00283865171226876,-0.156931,-30.550268
11.185,2.0,1.0,1.0,33.0,33.0,33.0,3.5,3.0,2.7525,0.32738925775355276,-0.030139497647429833,0.9255572977275668,-0.0032387020409159304,-0.15995,-30.367419
11.185,2.0,1.0,1.0,33.0,33.0,33.0,3.5,3.0,2.755,0.31722653808790546,-0.030747383696487305,0.9287173008687497,-0.0036578745967733783,-0.163067,-30.182803
11.185,2.0,1.0,1.0,33.0,33.0,33.0,3.5,3.0,2.7575,0.30693599353550205,-0.03136956020377177,0.9317859544030839,-0.004097143500748523,-0.166287,-29.996371
11.185,2.0,1.0,1.0,33.0,33.0,33.0,3.5,3.0,2.76,0.2965161436191296,-0.03200644177502223,0.9347598585187855,-0.004557542626697915,-0.169614,-29.808075
11.185,2.0,1.0,1.0,33.0,33.0,33.0,3.5,3.0,2.7625,0.28596550107111485,-0.03265845637167863,0.9376354776639912,-0.005040170040668638,-0.173053,-29.617861
11.185,2.0,1.0,1.0,33.0,33.0,33.0,3.5,3.0,2.765,0.27528257287089064,-0.03332604560077802,0.9404091336422694,-0.005546192833033352,-0.17661,-29.425676
11.185,2.0,1.0,1.0,33.0,33.0,33.0,3.5,3.0,2.7675,0.2644658613947612,-0.034009664973538085,0.9430769982214365,-0.006076852384018416,-0.180291,-29.231465
11.185,2.0,1.0,1.0,33.0,33.0,33.0,3.5,3.0,2.77,0.2535138656910296,-0.03470978412341497,0.9456350852093642,-0.006633470107884857,-0.184102,-29.035168
11.185,2.0,1.0,1.0,33.0,33.0,33.0,3.5,3.0,2.7725,0.24242508289568918,-0.03542688697256169,0.9480792419450444,-0.007217453726402084,-0.188049,-28.836726
11.185,2.0,1.0,1.0,33.0,33.0,33.0,3.5,3.0,2.775,0.23119800980624092,-0.03616147183341866,0.9504051401470327,-0.007830304128357354,-0.19214,-28.636074
11.185,2.0,1.0,1.0,33.0,33.0,33.0,3.5,3.0,2.7775,0.21983114463403033,-0.03691405142952399,0.9526082660544317,-0.008473622878762311,-0.196383,-28.433147
11.185,2.0,1.0,1.0,33.0,33.0,33.0,3.5,3.0,2.78,0.20832298895882215,-0.03768515281648965,0.9546839097876375,-0.009149120449285756,-0.200786,-28.227876
11.185,2.0,1.0,1.0,33.0,33.0,33.0,3.5,3.0,2.7825,0.1966720499133299,-0.03847531718030924,0.9566271538470538,-0.00985862525038241,-0.205357,-28.020189
11.185,2.0,1.0,1.0,33.0,33.0,33.0,3.5,3.0,2.785,0.18487684263008786,-0.039285099485656234,0.9584328606576907,-0.010604093555790997,-0.210106,-27.810011
11.185,2.0,1.0,1.0,33.0,33.0,33.0,3.5,3.0,2.7875,0.1729358929887688,-0.04011506794140241,0.9600956590558133,-0.011387620421699118,-0.215043,-27.597262
11.185,2.0,1.0,1.0,33.0,33.0,33.0,3.5,3.0,2.79,0.16084774070872,-0.04096580324408221,0.9616099296003737,-0.01221145171617319,-0.220179,-27.381862
11.185,2.0,1.0,1.0,33.0,33.0,33.0,3.5,3.0,2.7925,0.14861094283964835,-0.041837897552182056,0.9629697885765798,-0.013077997389656424,-0.225526,-27.163723
11.185,2.0,1.0,1.0,33.0,33.0,33.0,3.5,3.0,2.795,0.13622407771301337,-0.04273195313470299,0.9641690705413085,-0.013989846134776511,-0.231097,-26.942756
11.185,2.0,1.0,1.0,33.0,33.0,33.0,3.5,3.0,2.7975,0.12368574942848305,-0.043648580626030345,0.9652013092398293,-0.014949781603702894,-0.236905,-26.718866
11.185,2.0,1.0,1.0,33.0,33.0,33.0,3.5,3.0,2.8,0.11099459296380042,-0.04458839680536422,0.9660597166999961,-0.01596080037428855,-0.242966,-26.491955
11.185,2.0,1.0,1.0,33.0,33.0,33.0,3.5,3.0,2.8025,0.09814928001353998,-0.04555202180225439,0.9667371602832648,-0.01702613188268762,-0.249296,-26.261917
11.185,2.0,1.0,1.0,33.0,33.0,33.0,3.5,3.0,2.805,0.08514852568288475,-0.04654007560949262,0.9672261374409523,-0.018149260570620496,-0.255912,-26.028643
11.185,2.0,1.0,1.0,33.0,33.0,33.0,3.5,3.0,2.8075,0.07199109618765925,-0.047553173759944715,0.9675187478884818,-0.01933395053064204,-0.262834,-25.792019
11.185,2.0,1.0,1.0,33.0,33.0,33.0,3.5,3.0,2.81,0.058675817742436014,-0.0485919219938041,0.9676066628690618,-0.020584272973397714,-0.270082,-25.551924
11.185,2.0,1.0,1.0,33.0,33.0,33.0,3.5,3.0,2.8125,0.0452015868559134,-0.0496569097059807,0.967481091130552,-0.0219046368878512,-0.277681,-25.30823
11.185,2.0,1.0,1.0,33.0,33.0,33.0,3.5,3.0,2.815,0.031567382298412924,-0.05074870191829219,0.9671327411839107,-0.023299823319876158,-0.285654,-25.060804
11.185,2.0,1.0,1.0,33.0,33.0,33.0,3.5,3.0,2.8175,0.017772279062480176,-0.051867829465808105,0.9665517793475614,-0.02477502375765438,-0.294029,-24.809503
11.185,2.0,1.0,1.0,33.0,33.0,33.0,3.5,3.0,2.82,0.0038154647065813388,-0.05301477701860848,0.9657277830075883,-0.02633588318543318,-0.302838,-24.554179
11.185,2.0,1.0,1.0,33.0,33.0,33.0,3.5,3.0,2.8225,-0.010303741442936854,-0.054189968476148695,0.9646496884373682,-0.027988548452018352,-0.312112,-24.294674
11.185,2.0,1.0,1.0,33.0,33.0,33.0,3.5,3.0,2.825,-0.024585865651057887,-0.0553937491673957,0.9633057324199836,-0.029739722698820935,-0.321889,-24.030821
11.185,2.0,1.0,1.0,33.0,33.0,33.0,3.5,3.0,2.8275,-0.03903125298312681,-0.056626364160742196,0.9616833868004138,-0.031596726706494396,-0.33221,-23.762445
