1,w,sub_t,h,l1,l2,l3,g1,g2,Freq,S11_re,S21_re,S11_img,S21_img,S11_dB,S21_dB
11.185,2.0,1.0,1.0,33.0,34.7,34.7,3.3,4.2,2.5,0.89633069163695,-0.00496542041779688,0.429802540445123,0.00426173364495566,-0.05182,-43.683759
11.185,2.0,1.0,1.0,33.0,34.7,34.7,3.3,4.2,2.5025,0.8936423636172985,-0.005078479862246171,0.43523069825808164,0.004294371031580128,-0.052332,-43.542577
11.185,2.0,1.0,1.0,33.0,34.7,34.7,3.3,4.2,2.505,0.8909099963370234,-0.005194054458226469,0.440661898164374,0.004326977681979038,-0.052855,-43.400749
11.185,2.0,1.0,1.0,33.0,34.7,34.7,3.3,4.2,2.5075,0.8881331423889298,-0.005312218742401396,0.4460960291543131,0.004359545638785279,-0.053388,-43.258252
11.185,2.0,1.0,1.0,33.0,34.7,34.7,3.3,4.2,2.51,0.8853113448841661,-0.0054330503453447745,0.4515329766727955,0.004392066486834867,-0.053933,-43.115065
11.185,2.0,1.0,1.0,33.0,34.7,34.7,3.3,4.2,2.5125,0.8824441371621224,-0.0055566301554714655,0.456972622484005,0.00442453132254915,-0.05449,-42.971163
11.185,2.0,1.0,1.0,33.0,34.7,34.7,3.3,4.2,2.515,0.879531042486735,-0.005683042493514598,0.4624148445304131,0.0044569307209280365,-0.055058,-42.826524
11.185,2.0,1.0,1.0,33.0,34.7,34.7,3.3,4.2,2.5175,0.8765715737283043,-0.005812375298346911,0.46785951678573207,0.004489254699938607,-0.055639,-42.681123
11.185,2.0,1.0,1.0,33.0,34.7,34.7,3.3,4.2,2.52,0.8735652330298516,-0.005944720325014643,0.4733065091014884,0.004521492682061387,-0.056233,-42.534935
11.185,2.0,1.0,1.0,33.0,34.7,34.7,3.3,4.2,2.5225,0.8705115114569709,-0.006080173355927005,0.47875568704680926,0.004553633452732638,-0.05684,-42.387934
11.185,2.0,1.0,1.0,33.0,34.7,34.7,3.3,4.2,2.525,0.867409888630028,-0.006218834426230068,0.4842069117410273,0.004585665115393346,-0.057461,-42.240095
11.185,2.0,1.0,1.0,33.0,34.7,34.7,3.3,4.2,2.5275,0.8642598323374698,-0.006360808064484739,0.48966003967864985,0.00461757504282446,-0.058096,-42.091389
11.185,2.0,1.0,1.0,33.0,34.7,34.7,3.3,4.2,2.53,0.8610607981289046,-0.0065062035498712565,0.49511492254619394,0.0046493498244148355,-0.058745,-41.941789
11.185,2.0,1.0,1.0,33.0,34.7,34.7,3.3,4.2,2.5325,0.8578122288864833,-0.0066551351872542915,0.5005714070303685,0.004680975208969745,-0.05941,-41.791266
11.185,2.0,1.0,1.0,33.0,34.7,34.7,3.3,4.2,2.535,0.8545135543729935,-0.006807722601567057,0.5060293346170212,0.004712436042624119,-0.06009,-41.63979
11.185,2.0,1.0,1.0,33.0,34.7,34.7,3.3,4.2,2.5375,0.8511641907549266,-0.0069640910531095545,0.511488541380209,0.004743716201378221,-0.060786,-41.48733
11.185,2.0,1.0,1.0,33.0,34.7,34.7,3.3,4.2,2.54,0.8477635400986232,-0.007124371775507463,0.5169488577607119,0.004774798517717926,-0.061499,-41.333856
11.185,2.0,1.0,1.0,33.0,34.7,34.7,3.3,4.2,2.5425,0.8443109898374299,-0.0072887023382466505,0.5224101083332248,0.004805664700722588,-0.062229,-41.179334
11.185,2.0,1.0,1.0,33.0,34.7,34.7,3.3,4.2,2.545,0.8408059122075937,-0.007457227035883508,0.5278721115614013,0.004836295248993367,-0.062977,-41.02373
11.185,2.0,1.0,1.0,33.0,34.7,34.7,3.3,4.2,2.5475,0.8372476636504309,-0.007630097306238349,0.5333346795398213,0.0048666693556597045,-0.063744,-40.86701
11.185,2.0,1.0,1.0,33.0,34.7,34.7,3.3,4.2,2.55,0.8336355841780324,-0.00780747218010905,0.5387976177218918,0.00489676480463323,-0.06453,-40.709137
11.185,2.0,1.0,1.0,33.0,34.7,34.7,3.3,4.2,2.5525,0.8299689966995438,-0.007989518765296457,0.5442607246325499,0.0049265578571800386,-0.065337,-40.550074
11.185,2.0,1.0,1.0,33.0,34.7,34.7,3.3,4.2,2.555,0.8262472063047269,-0.008176412768019323,0.549723791564548,0.004956023127771877,-0.066164,-40.389783
11.185,2.0,1.0,1.0,33.0,34.7,34.7,3.3,4.2,2.5575,0.8224694995012038,-0.008368339055112478,0.5551866022569562,0.004985133448049018,-0.067012,-40.228223
11.185,2.0,1.0,1.0,33.0,34.7,34.7,3.3,4.2,2.56,0.818635143401413,-0.008565492260757738,0.5606489325543598,0.005013859717584669,-0.067884,-40.065353
11.185,2.0,1.0,1.0,33.0,34.7,34.7,3.3,4.2,2.5625,0.814743384854898,-0.00876807744189324,0.566110550045074,0.00504217073997765,-0.068778,-39.90113
11.185,2.0,1.0,1.0,33.0,34.7,34.7,3.3,4.2,2.565,0.8107934495210825,-0.008976310786890923,0.5715712136764967,0.005070033042613248,-0.069697,-39.735509
11.185,2.0,1.0,1.0,33.0,34.7,34.7,3.3,4.2,2.5675,0.8067845408771988,-0.009190420382590532,0.5770306733454944,0.005097410678220068,-0.070642,-39.568444
11.185,2.0,1.0,1.0,33.0,34.7,34.7,3.3,4.2,2.57,0.8027158391554319,-0.009410647045337811,0.5824886694614861,0.005124265006108272,-0.071613,-39.399886
11.185,2.0,1.0,1.0,33.0,34.7,34.7,3.3,4.2,2.5725,0.798586500202716,-0.009637245222303704,0.5879449324795808,0.005150554450696193,-0.072611,-39.229786
11.185,2.0,1.0,1.0,33.0,34.7,34.7,3.3,4.2,2.575,0.794395654255895,-0.009870483970070145,0.5933991824008197,0.005176234234612617,-0.073639,-39.05809
11.185,2.0,1.0,1.0,33.0,34.7,34.7,3.3,4.2,2.5775,0.7901424046241261,-0.010110648018267793,0.5988511282361829,0.005201256083297359,-0.074696,-38.884745
11.185,2.0,1.0,1.0,33.0,34.7,34.7,3.3,4.2,2.58,0.7858258262695091,-0.010358038926953904,0.604300467430602,0.005225567897599176,-0.075785,-38.709694
11.185,2.0,1.0,1.0,33.0,34.7,34.7,3.3,4.2,2.5825,0.7814449642758485,-0.010612976347441062,0.6097468852427325,0.0052491133903840624,-0.076906,-38.532877
11.185,2.0,1.0,1.0,33.0,34.7,34.7,3.3,4.2,2.585,0.7769988321943111,-0.010875799397445676,0.6151900540756541,0.005271831682604085,-0.078063,-38.354234
11.185,2.0,1.0,1.0,33.0,34.7,34.7,3.3,4.2,2.5875,0.7724864102533717,-0.011146868162741054,0.6206296327530254,0.005293656853626759,-0.079255,-38.1737
11.185,2.0,1.0,1.0,33.0,34.7,34.7,3.3,4.2,2.59,0.7679066434189468,-0.011426565338994488,0.6260652657344605,0.005314517439867331,-0.080485,-37.991208
11.185,2.0,1.0,1.0,33.0,34.7,34.7,3.3,4.2,2.5925,0.7632584392888621,-0.011715298029173874,0.6314965822629974,0.005334335874889278,-0.081755,-37.806687
11.185,2.0,1.0,1.0,33.0,34.7,34.7,3.3,4.2,2.595,0.7585406658038522,-0.012013499713852235,0.6369231954365165,0.005353027863112726,-0.083066,-37.620064
11.185,2.0,1.0,1.0,33.0,34.7,34.7,3.3,4.2,2.5975,0.7537521487550085,-0.0123216324139646,0.6423447011937764,0.005370501678075022,-0.084421,-37.431262
11.185,2.0,1.0,1.0,33.0,34.7,34.7,3.3,4.2,2.6,0.7488916690650397,-0.012640189068118136,0.6477606772043136,0.005386657374786763,-0.085822,-37.2402
11.185,2.0,1.0,1.0,33.0,34.7,34.7,3.3,4.2,2.6025,0.7439579598177372,-0.012969696149481756,0.6531706816498393,0.005401385904083339,-0.087272,-37.046793
11.185,2.0,1.0,1.0,33.0,34.7,34.7,3.3,4.2,2.605,0.7389497030066381,-0.013310716550644443,0.6585742518828271,0.0054145681149382315,-0.088773,-36.850952
11.185,2.0,1.0,1.0,33.0,34.7,34.7,3.3,4.2,2.6075,0.7338655259699747,-0.013663852768708865,0.6639709029457249,0.005426073628423956,-0.090328,-36.652585
11.185,2.0,1.0,1.0,33.0,34.7,34.7,3.3,4.2,2.61,0.7287039974744752,-0.014029750427362974,0.6693601259315437,0.005435759564311466,-0.09194,-36.451593
11.185,2.0,1.0,1.0,33.0,34.7,34.7,3.3,4.2,2.6125,0.7234636234053581,-0.01440910217785467,0.6747413861634078,0.005443469098098947,-0.093613,-36.247872
11.185,2.0,1.0,1.0,33.0,34.7,34.7,3.3,4.2,2.615,0.7181428420138078,-0.014802652026805717,0.6801141211668903,0.0054490298224641074,-0.095349,-36.041314
11.185,2.0,1.0,1.0,33.0,34.7,34.7,3.3,4.2,2.6175,0.7127400186661939,-0.015211200145788186,0.6854777384044463,0.005452251882596903,-0.097153,-35.831804
11.185,2.0,1.0,1.0,33.0,34.7,34.7,3.3,4.2,2.62,0.7072534400310871,-0.01563560822573209,0.6908316127359265,0.005452925849452283,-0.099029,-35.61922
11.185,2.0,1.0,1.0,33.0,34.7,34.7,3.3,4.2,2.6225,0.701681307630572,-0.0160768054487443,0.6961750835627034,0.00545082028845789,-0.100981,-35.403435
11.185,2.0,1.0,1.0,33.0,34.7,34.7,3.3,4.2,2.625,0.696021730671173,-0.0165357951610594,0.701507451605199,0.00544567897338582,-0.103015,-35.184313
11.185,2.0,1.0,1.0,33.0,34.7,34.7,3.3,4.2,2.6275,0.6902727180565463,-0.017013662343921127,0.7068279752543051,0.005437217685645738,-0.105136,-34.961711
11.185,2.0,1.0,1.0,33.0,34.7,34.7,3.3,4.2,2.63,0.6844321694686728,-0.01751158199458529,0.7121358664258458,0.005425120527809405,-0.107349,-34.735477
11.185,2.0,1.0,1.0,33.0,34.7,34.7,3.3,4.2,2.6325,0.6784978653860407,-0.018030828547799593,0.7174302858335142,0.005409035666249624,-0.109662,-34.50545
11.185,2.0,1.0,1.0,33.0,34.7,34.7,3.3,4.2,2.635,0.6724674558857537,-0.0185727864896127,0.7227103375789506,0.005388570400789131,-0.11208,-34.271457
11.185,2.0,1.0,1.0,33.0,34.7,34.7,3.3,4.2,2.6375,0.6663384480509332,-0.01913896234086917,0.7279750629370897,0.005363285438435226,-0.114613,-34.033318
11.185,2.0,1.0,1.0,33.0,34.7,34.7,3.3,4.2,2.64,0.6601081917743462,-0.019730998218102997,0.7332234331896822,0.00533268822267442,-0.117268,-33.790837
11.185,2.0,1.0,1.0,33.0,34.7,34.7,3.3,4.2,2.6425,0.653773863712915,-0.02035068721576042,0.7384543413286986,0.005296225138177465,-0.120054,-33.543808
11.185,2.0,1.0,1.0,33.0,34.7,34.7,3.3,4.2,2.645,0.6473324491043173,-0.02099999089704541,0.7436665924126769,0.0052532723715455806,-0.122983,-33.29201
11.185,2.0,1.0,1.0,33.0,34.7,34.7,3.3,4.2,2.6475,0.6407807211047593,-0.02168105923272561,0.7488588923109138,0.005203125159856964,-0.126066,-33.035206
11.185,2.0,1.0,1.0,33.0,34.7,34.7,3.3,4.2,2.65,0.6341152172442296,-0.022396253389918415,0.7540298345101165,0.005144985097607892,-0.129315,-32.773142
11.185,2.0,1.0,1.0,33.0,34.7,34.7,3.3,4.2,2.6525,0.6273322125197622,-0.02314817184857122,0.7591778845822884,0.005077945095701299,-0.132745,-32.505548
11.185,2.0,1.0,1.0,33.0,34.7,34.7,3.3,4.2,2.655,0.6204276885553618,-0.023939680415068523,0.7643013618168205,0.005000971488880371,-0.136372,-32.232131
11.185,2.0,1.0,1.0,33.0,34.7,34.7,3.3,4.2,2.6575,0.6133972981456988,-0.024773946813837964,0.7693984173978815,0.004912882664395596,-0.140214,-31.952577
11.185,2.0,1.0,1.0,33.0,34.7,34.7,3.3,4.2,2.66,0.6062363243646133,-0.025654480673665866,0.7744670083525793,0.004812323426761017,-0.144291,-31.666547
11.185,2.0,1.0,1.0,33.0,34.7,34.7,3.3,4.2,2.6625,0.5989396332532063,-0.026585179891462682,0.7795048662952362,0.004697734110460507,-0.148626,-31.373675
11.185,2.0,1.0,1.0,33.0,34.7,34.7,3.3,4.2,2.665,0.5915016188983828,-0.027570384559738884,0.7845094597344194,0.004567313190027537,-0.153245,-31.073565
11.185,2.0,1.0,1.0,33.0,34.7,34.7,3.3,4.2,2.6675,0.5839161394621384,-0.028614939894137454,0.7894779483726466,0.004418971795461463,-0.158178,-30.765787
11.185,2.0,1.0,1.0,33.0,34.7,34.7,3.3,4.2,2.67,0.5761764424130588,-0.029724269905385715,0.7944071273877152,0.004250278093760957,-0.163458,-30.449875
11.185,2.0,1.0,1.0,33.0,34.7,34.7,3.3,4.2,2.6725,0.5682750768303595,-0.030904463940050687,0.7992933591029174,0.004058388907671766,-0.169123,-30.12532
11.185,2.0,1.0,1.0,33.0,34.7,34.7,3.3,4.2,2.675,0.5602037901796614,-0.03216237868388758,0.8041324886806829,0.003839965159528405,-0.175219,-29.791566
11.185,2.0,1.0,1.0,33.0,34.7,34.7,3.3,4.2,2.6775,0.551953406377154,-0.033505758801498184,0.8089197394398422,0.0035910666799324896,-0.181797,-29.448008
11.185,2.0,1.0,1.0,33.0,34.7,34.7,3.3,4.2,2.68,0.5435136812391523,-0.03494338010168704,0.8136495820011415,0.003307020507215493,-0.188917,-29.093977
11.185,2.0,1.0,1.0,33.0,34.7,34.7,3.3,4.2,2.6825,0.534873130527503,-0.03648521999836578,0.8183155695670167,0.00298225488075026,-0.196649,-28.728741
11.185,2.0,1.0,1.0,33.0,34.7,34.7,3.3,4.2,2.685,0.5260188247151649,-0.03814266111358683,0.8229101290361062,0.0026100884931266346,-0.205077,-28.351491
11.185,2.0,1.0,1.0,33.0,34.7,34.7,3.3,4.2,2.6875,0.5169361432789,-0.0399287351721746,0.827424294044596,0.00218246091398109,-0.214297,-27.961333
11.185,2.0,1.0,1.0,33.0,34.7,34.7,3.3,4.2,2.69,0.5076084797549598,-0.04185841588586384,0.8318473609815761,0.0016895849937888106,-0.224426,-27.557274
11.185,2.0,1.0,1.0,33.0,34.7,34.7,3.3,4.2,2.6925,0.4980168869741902,-0.043948971308897716,0.8361664419018491,0.0011194948507302527,-0.235605,-27.138209
11.185,2.0,1.0,1.0,33.0,34.7,34.7,3.3,4.2,2.695,0.48813964989482733,-0.046220388089327595,0.8403658780961304,0.00045745276807183076,-0.248003,-26.702903
11.185,2.0,1.0,1.0,33.0,34.7,34.7,3.3,4.2,2.6975,0.47795177148149687,-0.04869588192100305,0.8444264634225007,-0.00031483648212951977,-0.261825,-26.249974
11.185,2.0,1.0,1.0,33.0,34.7,34.7,3.3,4.2,2.7,0.46742435562673146,-0.05140250981055176,0.8483244051348505,-0.0012202769580967109,-0.277324,-25.777867
11.185,2.0,1.0,1.0,33.0,34.7,34.7,3.3,4.2,2.7025,0.45652387123002425,-0.05437189942276936,0.8520299184403616,-0.0022878033868202175,-0.294816,-25.284828
11.185,2.0,1.0,1.0,33.0,34.7,34.7,3.3,4.2,2.705,0.44521128541564464,-0.057641106520409054,0.8555053040495164,-0.003554325793739675,-0.314692,-24.768872
11.185,2.0,1.0,1.0,33.0,34.7,34.7,3.3,4.2,2.7075,0.43344106589086706,-0.06125359885967832,0.858702287195022,-0.005067420581172458,-0.337452,-24.227746
11.185,2.0,1.0,1.0,33.0,34.7,34.7,3.3,4.2,2.71,0.42116008148104356,-0.06526033479875082,0.8615582888423295,-0.006889100300351852,-0.363734,-23.658886
11.185,2.0,1.0,1.0,33.0,34.7,34.7,3.3,4.2,2.7125,0.40830649374989175,-0.06972083917613325,0.8639911344389928,-0.009101160876708862,-0.394365,-23.059368
11.185,2.0,1.0,1.0,33.0,34.7,34.7,3.3,4.2,2.715,0.39480886737944043,-0.07470404107700263,0.8658914505043926,-0.011812861586287346,-0.430434,-22.425859
11.185,2.0,1.0,1.0,33.0,34.7,34.7,3.3,4.2,2.7175,0.38058600622526934,-0.08028835328035086,0.8671116065789486,-0.015172087637396279,-0.473392,-21.754569
11.185,2.0,1.0,1.0,33.0,34.7,34.7,3.3,4.2,2.72,0.36554859731601963,-0.08655988787142047,0.8674494632582591,-0.019381743591263167,-0.5252,-21.04121
11.185,2.0,1.0,1.0,33.0,34.7,34.7,3.3,4.2,2.7225,0.3496049316737939,-0.09360649798427335,0.8666243147596004,-0.024723997908610903,-0.588558,-20.281004
11.185,2.0,1.0,1.0,33.0,34.7,34.7,3.3,4.2,2.725,0.33267542561783703,-0.1015028485751697,0.8642412622442112,-0.03159614430020897,-0.667224,-19.468776
11.185,2.0,1.0,1.0,33.0,34.7,34.7,3.3,4.2,2.7275,0.3147257446092571,-0.11027658341956807,0.8597391578111132,-0.04056291515698563,-0.766504,-18.599235
11.185,2.0,1.0,1.0,33.0,34.7,34.7,3.3,4.2,2.73,0.29583871729130606,-0.11983517333291557,0.8523178064484979,-0.052429453114313594,-0.893936,-17.667673
11.185,2.0,1.0,1.0,33.0,34.7,34.7,3.3,4.2,2.7325,0.27636561219140815,-0.12981250652137838,0.8408479597873733,-0.06833107365362301,-1.060146,-16.671492
11.185,2.0,1.0,1.0,33.0,34.7,34.7,3.3,4.2,2.735,0.25723282782279977,-0.13925870394629836,0.8238004138076617,-0.08980259364215905,-1.279511,-15.613391
11.185,2.0,1.0,1.0,33.0,34.7,34.7,3.3,4.2,2.7375,0.24052013238982844,-0.14605695375694738,0.7993357781082601,-0.1186834325859868,-1.568996,-14.507712
11.185,2.0,1.0,1.0,33.0,34.7,34.7,3.3,4.2,2.74,0.23037045634085923,-0.14600984846295798,0.7659667338591098,-0.15644226681195342,-1.939723,-13.392003
11.185,2.0,1.0,1.0,33.0,34.7,34.7,3.3,4.2,2.7425,0.2337362683934826,-0.13210120595154123,0.724634290255611,-0.20207537116546426,-2.367761,-12.344418
11.185,2.0,1.0,1.0,33.0,34.7,34.7,3.3,4.2,2.745,0.2587111106223079,-0.09620956605312342,0.682647639922916,-0.2481415981413063,-2.733223,-11.497795
11.185,2.0,1.0,1.0,33.0,34.7,34.7,3.3,4.2,2.7475,0.30698043473853154,-0.03674346137539804,0.6556741432988903,-0.2788093651725837,-2.805481,-11.019073
11.185,2.0,1.0,1.0,33.0,34.7,34.7,3.3,4.2,2.75,0.365181450527739,0.032704608059824,0.65858622086344,-0.279159397023816,-2.463455,-11.023753
11.185,2.0,1.0,1.0,33.0,34.7,34.7,3.3,4.2,2.7525,0.41205363443545506,0.09068764307623284,0.6901303835180093,-0.2506067854330769,-1.897217,-11.485704
11.185,2.0,1.0,1.0,33.0,34.7,34.7,3.3,4.2,2.755,0.43657254459593037,0.12619144423249198,0.7350767480330057,-0.20860005895192332,-1.361222,-12.259339
11.185,2.0,1.0,1.0,33.0,34.7,34.7,3.3,4.2,2.7575,0.4412583109003837,0.14186399290482563,0.7795487810169001,-0.1671249312945631,-0.956063,-13.182512
11.185,2.0,1.0,1.0,33.0,34.7,34.7,3.3,4.2,2.76,0.43331809108514285,0.14502994911447112,0.8174116133245474,-0.1323193051467197,-0.675636,-14.140648
11.185,2.0,1.0,1.0,33.0,34.7,34.7,3.3,4.2,2.7625,0.41869391874640066,0.1417003950522265,0.8477793788940644,-0.10503118599431527,-0.486457,-15.070923
11.185,2.0,1.0,1.0,33.0,34.7,34.7,3.3,4.2,2.765,0.40098580265466105,0.13550876797939398,0.8717456473033544,-0.08412651183038833,-0.358677,-15.944847
11.185,2.0,1.0,1.0,33.0,34.7,34.7,3.3,4.2,2.7675,0.3820962874167356,0.128373006505015,0.8907451455770844,-0.06813837100676752,-0.271381,-16.752554
11.185,2.0,1.0,1.0,33.0,34.7,34.7,3.3,4.2,2.77,0.36295178221252633,0.12122755074812061,0.9060130054061096,-0.055807812581006526,-0.210924,-17.493207
11.185,2.0,1.0,1.0,33.0,34.7,34.7,3.3,4.2,2.7725,0.34396652096730396,0.11449244502933878,0.9184895671790907,-0.046176667483994766,-0.168538,-18.169921
11.185,2.0,1.0,1.0,33.0,34.7,34.7,3.3,4.2,2.775,0.3252975738743137,0.108330579968776,0.9288596060737443,-0.03854611797953222,-0.138561,-18.787253
11.185,2.0,1.0,1.0,33.0,34.7,34.7,3.3,4.2,2.7775,0.306976938073222,0.10278069014311009,0.9376148724752175,-0.032412578834098,-0.117281,-19.350015
11.185,2.0,1.0,1.0,33.0,34.7,34.7,3.3,4.2,2.78,0.2889783048228282,0.09782447428884601,0.9451082787324767,-0.02741245799386927,-0.102219,-19.862753
11.185,2.0,1.0,1.0,33.0,34.7,34.7,3.3,4.2,2.7825,0.2712503393888816,0.0934200171543006,0.9515943850082691,-0.023280971835197898,-0.091691,-20.329529
11.185,2.0,1.0,1.0,33.0,34.7,34.7,3.3,4.2,2.785,0.2537329808155748,0.08951816725820934,0.9572580690830494,-0.019822994942716898,-0.084534,-20.753872
11.185,2.0,1.0,1.0,33.0,34.7,34.7,3.3,4.2,2.7875,0.23636514901634695,0.08607031988214063,0.962234441831629,-0.016892792128836234,-0.079931,-21.138779
11.185,2.0,1.0,1.0,33.0,34.7,34.7,3.3,4.2,2.79,0.21908810911783874,0.08303188126332073,0.9666226243617416,-0.014379958489991823,-0.077298,-21.486758
11.185,2.0,1.0,1.0,33.0,34.7,34.7,3.3,4.2,2.7925,0.20184665400306276,0.08036358657574637,0.9704953048822955,-0.012199611571500802,-0.076218,-21.799867
11.185,2.0,1.0,1.0,33.0,34.7,34.7,3.3,4.2,2.795,0.1845892077632037,0.07803178095751762,0.9739054034334939,-0.010285481555537983,-0.076387,-22.079762
11.185,2.0,1.0,1.0,33.0,34.7,34.7,3.3,4.2,2.7975,0.16726741217880828,0.07600823123599157,0.9768907433747742,-0.008584981054024277,-0.077585,-22.327734
11.185,2.0,1.0,1.0,33.0,34.7,34.7,3.3,4.2,2.8,0.14983547949527135,0.07426975800633275,0.9794773332042424,-0.007055634285737238,-0.079652,-22.54474
11.185,2.0,1.0,1.0,33.0,34.7,34.7,3.3,4.2,2.8025,0.13224944955360673,0.07279783437094152,0.98168166326074,-0.005662444853760223,-0.082474,-22.731434
11.185,2.0,1.0,1.0,33.0,34.7,34.7,3.3,4.2,2.805,0.11446641303604732,0.07157822390353981,0.9835122881557309,-0.004375913526725689,-0.085971,-22.88818
11.185,2.0,1.0,1.0,33.0,34.7,34.7,3.3,4.2,2.8075,0.09644372202308123,0.07060069308089005,0.9849708751925271,-0.0031705047071234056,-0.090093,-23.015071
11.185,2.0,1.0,1.0,33.0,34.7,34.7,3.3,4.2,2.81,0.07813818699461225,0.0698588154194579,0.9860528364340344,-0.002023417593353667,-0.09481,-23.111934
11.185,2.0,1.0,1.0,33.0,34.7,34.7,3.3,4.2,2.8125,0.0595052467260148,0.0693498769832405,0.986747617316002,-0.00091355510597288,-0.100113,-23.178333
11.185,2.0,1.0,1.0,33.0,34.7,34.7,3.3,4.2,2.815,0.04049808929678405,0.06907489119281099,0.9870386808514245,0.0001793934353152118,-0.106012,-23.213567
11.185,2.0,1.0,1.0,33.0,34.7,34.7,3.3,4.2,2.8175,0.021066695874592364,0.06903873263692782,0.9869031986084644,0.0012758274727404624,-0.11253,-23.216661
11.185,2.0,1.0,1.0,33.0,34.7,34.7,3.3,4.2,2.82,0.0011567723963263772,0.06925040377803776,0.986311433943432,0.002397135978423246,-0.119713,-23.186353
11.185,2.0,1.0,1.0,33.0,34.7,34.7,3.3,4.2,2.8225,-0.019291473379880335,0.06972345466448246,0.9852257760159409,0.003566695923157909,-0.12762,-23.121072
11.185,2.0,1.0,1.0,33.0,34.7,34.7,3.3,4.2,2.825,-0.04034476160793911,0.07047658404251682,0.9835993512809719,0.004811053930020548,-0.136335,-23.018912
11.185,2.0,1.0,1.0,33.0,34.7,34.7,3.3,4.2,2.8275,-0.06207844142222183,0.07153446086713476,0.9813740979266236,0.00616140160716137,-0.145965,-22.877594
11.185,2.0,1.0,1.0,33.0,34.7,34.7,3.3,4.2,2.83,-0.08457854375744016,0.07292881848485974,0.9784781317842834,0.007655496529526464,-0.156649,-22.694423
