1,w,sub_t,h,l1,l2,l3,g1,g2,Freq,S11_re,S21_re,S11_img,S21_img,S11_dB,S21_dB
11.185,2.0,1.0,1.0,33.9,34.8,34.8,3.4,3.3,2.5,0.79414880778957,-0.00973693364777667,0.595036486766331,0.0058933168796385,-0.066781,-38.875993
11.185,2.0,1.0,1.0,33.9,34.8,34.8,3.4,3.3,2.5025,0.7897604127833544,-0.009943682651322523,0.6007005570384016,0.005909761238565023,-0.067566,-38.735371
11.185,2.0,1.0,1.0,33.9,34.8,34.8,3.4,3.3,2.505,0.7853086501526317,-0.010155089718400387,0.6063587438172677,0.0059250985279628516,-0.06837,-38.593894
11.185,2.0,1.0,1.0,33.9,34.8,34.8,3.4,3.3,2.5075,0.780792799192219,-0.01037129691177782,0.6120106404715324,0.0059392734156631655,-0.069191,-38.451539
11.185,2.0,1.0,1.0,33.9,34.8,34.8,3.4,3.3,2.51,0.776212124878852,-0.010592452301444347,0.6176558274502632,0.005952227726736715,-0.070031,-38.308281
11.185,2.0,1.0,1.0,33.9,34.8,34.8,3.4,3.3,2.5125,0.7715658774418565,-0.010818710291021617,0.6232938718039778,0.005963900267050991,-0.070891,-38.164096
11.185,2.0,1.0,1.0,33.9,34.8,34.8,3.4,3.3,2.515,0.766853291911972,-0.011050231965793883,0.6289243266834041,0.005974226633686041,-0.071772,-38.018957
11.185,2.0,1.0,1.0,33.9,34.8,34.8,3.4,3.3,2.5175,0.762073587646714,-0.01128718546404324,0.6345467308145624,0.005983139011057959,-0.072673,-37.872838
11.185,2.0,1.0,1.0,33.9,34.8,34.8,3.4,3.3,2.52,0.7572259678304799,-0.011529746373524077,0.6401606079486202,0.005990565951487025,-0.073596,-37.725711
11.185,2.0,1.0,1.0,33.9,34.8,34.8,3.4,3.3,2.5225,0.7523096189474837,-0.011778098155077897,0.6457654662848099,0.005996432138816246,-0.074541,-37.577548
11.185,2.0,1.0,1.0,33.9,34.8,34.8,3.4,3.3,2.525,0.7473237102253787,-0.012032432595573538,0.6513607978645669,0.006000658133544167,-0.075509,-37.42832
11.185,2.0,1.0,1.0,33.9,34.8,34.8,3.4,3.3,2.5275,0.7422673930472606,-0.012292950292556356,0.6569460779348583,0.006003160097776288,-0.076502,-37.277996
11.185,2.0,1.0,1.0,33.9,34.8,34.8,3.4,3.3,2.53,0.7371398003295132,-0.012559861173216249,0.6625207642784848,0.0060038494981194766,-0.077519,-37.126545
11.185,2.0,1.0,1.0,33.9,34.8,34.8,3.4,3.3,2.5325,0.7319400458627127,-0.01283338505052848,0.6680842965089366,0.006002632784444831,-0.078563,-36.973934
11.185,2.0,1.0,1.0,33.9,34.8,34.8,3.4,3.3,2.535,0.7266672236125371,-0.01311375221969351,0.673636095327144,0.005999411042220783,-0.079633,-36.82013
11.185,2.0,1.0,1.0,33.9,34.8,34.8,3.4,3.3,2.5375,0.7213204069773368,-0.013401204098306212,0.6791755617371755,0.005994079615865629,-0.080732,-36.665099
11.185,2.0,1.0,1.0,33.9,34.8,34.8,3.4,3.3,2.54,0.7158986479986769,-0.013695993914015738,0.6847020762176904,0.005986527700287767,-0.081859,-36.508804
11.185,2.0,1.0,1.0,33.9,34.8,34.8,3.4,3.3,2.5425,0.7104009765208003,-0.013998387443812682,0.69021499784557,0.005976637897464485,-0.083016,-36.351207
11.185,2.0,1.0,1.0,33.9,34.8,34.8,3.4,3.3,2.545,0.7048263992945454,-0.014308663809490613,0.6957136633678098,0.005964285734550561,-0.084205,-36.192271
11.185,2.0,1.0,1.0,33.9,34.8,34.8,3.4,3.3,2.5475,0.69917389902081,-0.014627116334288695,0.701197386217324,0.005949339139607371,-0.085427,-36.031956
11.185,2.0,1.0,1.0,33.9,34.8,34.8,3.4,3.3,2.55,0.6934424333281032,-0.014954053466236511,0.706665455467846,0.0059316578705843614,-0.086683,-35.870218
11.185,2.0,1.0,1.0,33.9,34.8,34.8,3.4,3.3,2.5525,0.6876309336782178,-0.015289799774288543,0.7121171347225709,0.005911092892670702,-0.087974,-35.707016
11.185,2.0,1.0,1.0,33.9,34.8,34.8,3.4,3.3,2.555,0.6817383041933555,-0.015634697023977843,0.7175516609305848,0.005887485698548467,-0.089302,-35.542305
11.185,2.0,1.0,1.0,33.9,34.8,34.8,3.4,3.3,2.5575,0.6757634203973636,-0.015989105340028592,0.7229682431244507,0.005860667565417368,-0.090668,-35.376036
11.185,2.0,1.0,1.0,33.9,34.8,34.8,3.4,3.3,2.56,0.6697051278629379,-0.016353404464165996,0.7283660610715261,0.005830458741901547,-0.092075,-35.208163
11.185,2.0,1.0,1.0,33.9,34.8,34.8,3.4,3.3,2.5625,0.663562240755739,-0.0167279951172557,0.733744263830724,0.00579666755709407,-0.093524,-35.038634
11.185,2.0,1.0,1.0,33.9,34.8,34.8,3.4,3.3,2.565,0.6573335402653668,-0.017113300475910073,0.7391019682054244,0.005759089443009436,-0.095017,-34.867396
11.185,2.0,1.0,1.0,33.9,34.8,34.8,3.4,3.3,2.5675,0.6510177729120206,-0.01750976777482639,0.7444382570820764,0.005717505860594411,-0.096556,-34.694394
11.185,2.0,1.0,1.0,33.9,34.8,34.8,3.4,3.3,2.57,0.6446136487163723,-0.01791787004739104,0.7497521776427521,0.005671683118162254,-0.098143,-34.519571
11.185,2.0,1.0,1.0,33.9,34.8,34.8,3.4,3.3,2.5725,0.6381198392187619,-0.01833810801851656,0.7550427394383847,0.005621371069641471,-0.099781,-34.342867
11.185,2.0,1.0,1.0,33.9,34.8,34.8,3.4,3.3,2.575,0.6315349753322003,-0.018771012165291586,0.7603089123077189,0.0055663016783355545,-0.101472,-34.16422
11.185,2.0,1.0,1.0,33.9,34.8,34.8,3.4,3.3,2.5775,0.6248576450118154,-0.019217144962851138,0.7655496241250028,0.005506187429938472,-0.103218,-33.983563
11.185,2.0,1.0,1.0,33.9,34.8,34.8,3.4,3.3,2.58,0.6180863907213232,-0.019677103334937503,0.7707637583571724,0.005440719576296631,-0.105023,-33.800829
11.185,2.0,1.0,1.0,33.9,34.8,34.8,3.4,3.3,2.5825,0.6112197066747209,-0.020151521330968192,0.7759501514086439,0.005369566188803385,-0.10689,-33.615946
11.185,2.0,1.0,1.0,33.9,34.8,34.8,3.4,3.3,2.585,0.6042560358287493,-0.020641073054080243,0.7811075897287512,0.005292369997290412,-0.108821,-33.428838
11.185,2.0,1.0,1.0,33.9,34.8,34.8,3.4,3.3,2.5875,0.5971937665986076,-0.021146475867648,0.7862348066533281,0.005208745986769235,-0.11082,-33.239428
11.185,2.0,1.0,1.0,33.9,34.8,34.8,3.4,3.3,2.59,0.5900312292659551,-0.021668493911206396,0.7913304789477968,0.005118278720293464,-0.112891,-33.047632
11.185,2.0,1.0,1.0,33.9,34.8,34.8,3.4,3.3,2.5925,0.5827666920442609,-0.02220794196064351,0.7963932230143097,0.0050205193514355735,-0.115038,-32.853364
11.185,2.0,1.0,1.0,33.9,34.8,34.8,3.4,3.3,2.595,0.5753983567620709,-0.02276568967199994,0.8014215907198332,0.0049149822842975465,-0.117266,-32.656534
11.185,2.0,1.0,1.0,33.9,34.8,34.8,3.4,3.3,2.5975,0.5679243541195533,-0.023342666253348757,0.80641406479549,0.004801141432422262,-0.119578,-32.457044
11.185,2.0,1.0,1.0,33.9,34.8,34.8,3.4,3.3,2.6,0.5603427384677965,-0.02393986561509828,0.811369053749679,0.004678426020275682,-0.12198,-32.254795
11.185,2.0,1.0,1.0,33.9,34.8,34.8,3.4,3.3,2.6025,0.5526514820535144,-0.024558352055806552,0.816284886228345,0.004546215861889267,-0.124478,-32.04968
11.185,2.0,1.0,1.0,33.9,34.8,34.8,3.4,3.3,2.605,0.5448484686639851,-0.025199266548343993,0.8211598047449663,0.004403836040517537,-0.127077,-31.841588
11.185,2.0,1.0,1.0,33.9,34.8,34.8,3.4,3.3,2.6075,0.5369314865980663,-0.025863833700163215,0.8259919586899838,0.0042505509004337255,-0.129784,-31.630401
11.185,2.0,1.0,1.0,33.9,34.8,34.8,3.4,3.3,2.61,0.5288982208787394,-0.026553369471720954,0.8307793965141598,0.004085557246844684,-0.132606,-31.415992
11.185,2.0,1.0,1.0,33.9,34.8,34.8,3.4,3.3,2.6125,0.5207462446106318,-0.027269289748974385,0.8355200569621699,0.003907976631847309,-0.13555,-31.198232
11.185,2.0,1.0,1.0,33.9,34.8,34.8,3.4,3.3,2.615,0.5124730093721124,-0.028013119879609395,0.8402117592109868,0.0037168465827307896,-0.138625,-30.97698
11.185,2.0,1.0,1.0,33.9,34.8,34.8,3.4,3.3,2.6175,0.5040758345154938,-0.02878650529856002,0.8448521917414986,0.0035111106029809044,-0.14184,-30.752088
11.185,2.0,1.0,1.0,33.9,34.8,34.8,3.4,3.3,2.62,0.4955518952302334,-0.029591223386823854,0.8494388997403642,0.003289606745080245,-0.145205,-30.523399
11.185,2.0,1.0,1.0,33.9,34.8,34.8,3.4,3.3,2.6225,0.4868982092024026,-0.03042919672897855,0.8539692707911242,0.003051054516414092,-0.14873,-30.290746
11.185,2.0,1.0,1.0,33.9,34.8,34.8,3.4,3.3,2.625,0.47811162167858,-0.0313025079596815,0.858440518567475,0.00279403983374276,-0.152428,-30.053953
11.185,2.0,1.0,1.0,33.9,34.8,34.8,3.4,3.3,2.6275,0.4691887887130397,-0.03221341641836228,0.8628496641855183,0.002516997685881346,-0.156313,-29.812831
11.185,2.0,1.0,1.0,33.9,34.8,34.8,3.4,3.3,2.63,0.4601261583431195,-0.0331643768649704,0.8671935148031982,0.0022181920959812276,-0.160398,-29.567178
11.185,2.0,1.0,1.0,33.9,34.8,34.8,3.4,3.3,2.6325,0.4509199493980186,-0.03415806054881981,0.8714686389709767,0.001895692891054324,-0.164701,-29.31678
11.185,2.0,1.0,1.0,33.9,34.8,34.8,3.4,3.3,2.635,0.44156612760016856,-0.03519737896814295,0.8756713381340795,0.0015473486831512455,-0.169238,-29.061408
11.185,2.0,1.0,1.0,33.9,34.8,34.8,3.4,3.3,2.6375,0.43206037856471746,-0.03628551071095069,0.8797976135582526,0.0011707553388376464,-0.174032,-28.800816
11.185,2.0,1.0,1.0,33.9,34.8,34.8,3.4,3.3,2.64,0.4223980772403656,-0.03742593182930478,0.8838431277913965,0.0007632190547440015,-0.179103,-28.534742
11.185,2.0,1.0,1.0,33.9,34.8,34.8,3.4,3.3,2.6425,0.4125742532627276,-0.03862245027028999,0.8878031595740786,0.0003217129585360331,-0.184478,-28.262902
11.185,2.0,1.0,1.0,33.9,34.8,34.8,3.4,3.3,2.645,0.4025835516081602,-0.03987924496905961,0.8916725508617444,-0.00015717409441329738,-0.190184,-27.984994
11.185,2.0,1.0,1.0,33.9,34.8,34.8,3.4,3.3,2.6475,0.39242018784061056,-0.04120091030339501,0.895445644305839,-0.000677298172547186,-0.196255,-27.70069
11.185,2.0,1.0,1.0,33.9,34.8,34.8,3.4,3.3,2.65,0.382077897135529,-0.04259250671604935,0.8991162091409068,-0.001243032410104942,-0.202725,-27.409639
11.185,2.0,1.0,1.0,33.9,34.8,34.8,3.4,3.3,2.6525,0.3715498761431692,-0.04405961843092551,0.9026773529145785,-0.0018593531896742806,-0.209637,-27.111458
11.185,2.0,1.0,1.0,33.9,34.8,34.8,3.4,3.3,2.655,0.3608287166194315,-0.04560841932078874,0.9061214158433887,-0.002531943566477456,-0.217038,-26.805736
11.185,2.0,1.0,1.0,33.9,34.8,34.8,3.4,3.3,2.6575,0.34990632960914997,-0.0472457481245323,0.9094398437340805,-0.0032673179750126557,-0.22498,-26.492025
11.185,2.0,1.0,1.0,33.9,34.8,34.8,3.4,3.3,2.66,0.33877385882091215,-0.04897919435411424,0.9126230343161795,-0.004072973347568319,-0.233527,-26.169839
11.185,2.0,1.0,1.0,33.9,34.8,34.8,3.4,3.3,2.6625,0.32742158169724206,-0.050817196362050454,0.9156601504038008,-0.004957573195371917,-0.242749,-25.838648
11.185,2.0,1.0,1.0,33.9,34.8,34.8,3.4,3.3,2.665,0.3158387965823433,-0.05276915313639824,0.9185388914289999,-0.005931173070033371,-0.252729,-25.497875
11.185,2.0,1.0,1.0,33.9,34.8,34.8,3.4,3.3,2.6675,0.3040136943619,-0.05484555141111071,0.9212452124087289,-0.007005498291441524,-0.263564,-25.146887
11.185,2.0,1.0,1.0,33.9,34.8,34.8,3.4,3.3,2.67,0.2919332130635,-0.05705810955719559,0.923762976105496,-0.008194288114314602,-0.275366,-24.784992
11.185,2.0,1.0,1.0,33.9,34.8,34.8,3.4,3.3,2.6725,0.2795828742762642,-0.059419939340030016,0.9260735197154984,-0.009513724910137505,-0.288268,-24.411427
11.185,2.0,1.0,1.0,33.9,34.8,34.8,3.4,3.3,2.675,0.2669466010638696,-0.06194572580044925,0.9281551114430056,-0.01098297288616106,-0.302429,-24.025353
11.185,2.0,1.0,1.0,33.9,34.8,34.8,3.4,3.3,2.6775,0.25400651862180634,-0.06465192392629708,0.9299822641976359,-0.012624858943302722,-0.318037,-23.625845
11.185,2.0,1.0,1.0,33.9,34.8,34.8,3.4,3.3,2.68,0.2407427417924614,-0.06755696790218117,0.9315248625343902,-0.014466739332613712,-0.335318,-23.211876
11.185,2.0,1.0,1.0,33.9,34.8,34.8,3.4,3.3,2.6825,0.22713315857746316,-0.07068148368206685,0.9327470436398553,-0.01654161100248498,-0.354545,-22.782308
11.185,2.0,1.0,1.0,33.9,34.8,34.8,3.4,3.3,2.685,0.2131532274488853,-0.07404848695107566,0.9336057519373775,-0.01888954763902014,-0.376051,-22.335876
11.185,2.0,1.0,1.0,33.9,34.8,34.8,3.4,3.3,2.6875,0.19877582105206,-0.077683533741907,0.93404885730424,-0.0215595698072315,-0.400246,-21.871169
11.185,2.0,1.0,1.0,33.9,34.8,34.8,3.4,3.3,2.69,0.18397117406503932,-0.08161476580595571,0.9340126855342659,-0.024612099705057285,-0.427639,-21.386612
11.185,2.0,1.0,1.0,33.9,34.8,34.8,3.4,3.3,2.6925,0.16870703585434152,-0.08587275000936322,0.9334187517896732,-0.02812220855505226,-0.458865,-20.880445
11.185,2.0,1.0,1.0,33.9,34.8,34.8,3.4,3.3,2.695,0.15294920187144892,-0.09048993784374272,0.9321694070217592,-0.03218394486279655,-0.494729,-20.350696
11.185,2.0,1.0,1.0,33.9,34.8,34.8,3.4,3.3,2.6975,0.13666272381080194,-0.0954994453503177,0.9301419958440456,-0.036916142429876356,-0.536259,-19.795167
11.185,2.0,1.0,1.0,33.9,34.8,34.8,3.4,3.3,2.7,0.11981431696341008,-0.10093263594896662,0.9271809740539293,-0.042470256043548975,-0.584786,-19.211403
11.185,2.0,1.0,1.0,33.9,34.8,34.8,3.4,3.3,2.7025,0.10237686449470984,-0.10681460860881543,0.923087241478879,-0.049040963417468615,-0.642051,-18.596687
11.185,2.0,1.0,1.0,33.9,34.8,34.8,3.4,3.3,2.705,0.08433758866119993,-0.11315602599961176,0.9176037264190701,-0.05688048862377837,-0.710363,-17.948044
11.185,2.0,1.0,1.0,33.9,34.8,34.8,3.4,3.3,2.7075,0.06571264248370821,-0.11993853870675013,0.910396083932351,-0.06631777242435588,-0.792824,-17.262281
11.185,2.0,1.0,1.0,33.9,34.8,34.8,3.4,3.3,2.71,0.04657296243407357,-0.1270889843273608,0.9010274687999857,-0.07778351136617447,-0.893652,-16.536102
11.185,2.0,1.0,1.0,33.9,34.8,34.8,3.4,3.3,2.7125,0.027089856290828225,-0.1344339258178847,0.8889273418977803,-0.09184108477664397,-1.018643,-15.766351
11.185,2.0,1.0,1.0,33.9,34.8,34.8,3.4,3.3,2.715,0.007614897812771708,-0.14162003285155633,0.8733577802831926,-0.1092198774721581,-1.175826,-14.950507
11.185,2.0,1.0,1.0,33.9,34.8,34.8,3.4,3.3,2.7175,-0.011181979327410154,-0.14797655737017573,0.8533907206033219,-0.13083756805869928,-1.376296,-14.087625
11.185,2.0,1.0,1.0,33.9,34.8,34.8,3.4,3.3,2.72,-0.028081463692643804,-0.15228543692844246,0.8279348530933328,-0.15777275241869912,-1.635083,-13.180076
11.185,2.0,1.0,1.0,33.9,34.8,34.8,3.4,3.3,2.7225,-0.04095663227032678,-0.15242513895107554,0.795908648886163,-0.19109177103640185,-1.97125,-12.236658
11.185,2.0,1.0,1.0,33.9,34.8,34.8,3.4,3.3,2.725,-0.046313743719876246,-0.1449149028759773,0.7567665825758616,-0.23132368955226926,-2.404525,-11.277797
11.185,2.0,1.0,1.0,33.9,34.8,34.8,3.4,3.3,2.7275,-0.03901082836489484,-0.1246377473027638,0.7117155126149909,-0.27724872284984614,-2.940843,-10.343213
11.185,2.0,1.0,1.0,33.9,34.8,34.8,3.4,3.3,2.73,-0.0130641475030782,-0.08564863333876668,0.6658010458820609,-0.32382343610317965,-3.531439,-9.500176
11.185,2.0,1.0,1.0,33.9,34.8,34.8,3.4,3.3,2.7325,0.03488940290674295,-0.024625789961512223,0.6297221304875459,-0.36038331452696853,-4.00371,-8.844475
11.185,2.0,1.0,1.0,33.9,34.8,34.8,3.4,3.3,2.735,0.09960814389593488,0.05317826281051451,0.6175307047097355,-0.3729480607566434,-4.075279,-8.47962
11.185,2.0,1.0,1.0,33.9,34.8,34.8,3.4,3.3,2.7375,0.1650640571290484,0.13178870982404708,0.6374554636373071,-0.3533617727588259,-3.629151,-8.470002
11.185,2.0,1.0,1.0,33.9,34.8,34.8,3.4,3.3,2.74,0.2132389722846621,0.19328558446362135,0.6838167596606167,-0.30731867052541784,-2.898181,-8.800711
11.185,2.0,1.0,1.0,33.9,34.8,34.8,3.4,3.3,2.7425,0.23598889884955807,0.22960273478829224,0.7415179193572603,-0.249861480067869,-2.178575,-9.387429
11.185,2.0,1.0,1.0,33.9,34.8,34.8,3.4,3.3,2.745,0.23631124806949266,0.2437604898340162,0.797187269316586,-0.19428658286374564,-1.603017,-10.124837
11.185,2.0,1.0,1.0,33.9,34.8,34.8,3.4,3.3,2.7475,0.22168234549991012,0.24322022506297813,0.8442440722956738,-0.14711826700081618,-1.181071,-10.925894
11.185,2.0,1.0,1.0,33.9,34.8,34.8,3.4,3.3,2.75,0.19882095397334,0.234675529093331,0.881389155381046,-0.10962483196056,-0.881094,-11.733409
11.185,2.0,1.0,1.0,33.9,34.8,34.8,3.4,3.3,2.7525,0.17217816617918116,0.22255638122723143,0.9097451628900127,-0.08066927776795611,-0.668765,-12.515106
11.185,2.0,1.0,1.0,33.9,34.8,34.8,3.4,3.3,2.755,0.14428070023906445,0.20937557192590858,0.9310615711338542,-0.058495230673275,-0.517374,-13.255079
11.185,2.0,1.0,1.0,33.9,34.8,34.8,3.4,3.3,2.7575,0.11642206985803809,0.19641869714761595,0.9469668117454795,-0.04146959491584147,-0.408153,-13.946946
11.185,2.0,1.0,1.0,33.9,34.8,34.8,3.4,3.3,2.76,0.08919695319092547,0.18427665052362197,0.9587628025768086,-0.028285660045220946,-0.328349,-14.589457
11.185,2.0,1.0,1.0,33.9,34.8,34.8,3.4,3.3,2.7625,0.06283005539500043,0.17317299862508548,0.9674283089523138,-0.017958855945129543,-0.269345,-15.183939
11.185,2.0,1.0,1.0,33.9,34.8,34.8,3.4,3.3,2.765,0.037360199928027846,0.163147091561475,0.9736806904885372,-0.009764759221973058,-0.22528,-15.732883
11.185,2.0,1.0,1.0,33.9,34.8,34.8,3.4,3.3,2.7675,0.012738633715440211,0.15415176972803954,0.978041218251221,-0.0031737628476639725,-0.19212,-16.239189
11.185,2.0,1.0,1.0,33.9,34.8,34.8,3.4,3.3,2.77,-0.011120021382807039,0.14610396536088285,0.9808885036636966,0.0022023037862670663,-0.167049,-16.705773
11.185,2.0,1.0,1.0,33.9,34.8,34.8,3.4,3.3,2.7725,-0.03431211761425123,0.13891015654431277,0.982498419996265,0.006650051337607991,-0.148069,-17.135378
11.185,2.0,1.0,1.0,33.9,34.8,34.8,3.4,3.3,2.775,-0.05693261720201125,0.13247862715143138,0.9830728289345579,0.010383238303295123,-0.133745,-17.530487
11.185,2.0,1.0,1.0,33.9,34.8,34.8,3.4,3.3,2.7775,-0.07906961357677932,0.12672489814544868,0.9827599466920783,0.01356315016812901,-0.123029,-17.893295
11.185,2.0,1.0,1.0,33.9,34.8,34.8,3.4,3.3,2.78,-0.10080235881223175,0.12157368833661199,0.9816687296404205,0.01631302998850511,-0.115148,-18.22571
11.185,2.0,1.0,1.0,33.9,34.8,34.8,3.4,3.3,2.7825,-0.1222010225836868,0.11695916713876893,0.9798790556850243,0.018728335731122356,-0.109526,-18.529362
11.185,2.0,1.0,1.0,33.9,34.8,34.8,3.4,3.3,2.785,-0.14332725638849994,0.112824418720544,0.9774489635397478,0.0208840862701351,-0.105728,-18.805628
11.185,2.0,1.0,1.0,33.9,34.8,34.8,3.4,3.3,2.7875,-0.16423508540666196,0.1091205914280921,0.9744198277966771,0.02284017493084092,-0.103424,-19.055646
11.185,2.0,1.0,1.0,33.9,34.8,34.8,3.4,3.3,2.79,-0.1849718876673704,0.10580597094470358,0.970820075455272,0.02464525868517573,-0.10236,-19.280336
11.185,2.0,1.0,1.0,33.9,34.8,34.8,3.4,3.3,2.7925,-0.20557934536947886,0.10284509162153517,0.9666678611201949,0.02633964422266276,-0.102345,-19.480418
11.185,2.0,1.0,1.0,33.9,34.8,34.8,3.4,3.3,2.795,-0.2260943186919815,0.10020793565066673,0.9619729886650686,0.027957464442067825,-0.10323,-19.656423
11.185,2.0,1.0,1.0,33.9,34.8,34.8,3.4,3.3,2.7975,-0.2465496260527856,0.09786923659567777,0.956738278226366,0.02952835196287997,-0.104902,-19.808708
11.185,2.0,1.0,1.0,33.9,34.8,34.8,3.4,3.3,2.8,-0.2669747313951154,0.09580788747010455,0.9509605158464147,0.031078757079748442,-0.107276,-19.937462
11.185,2.0,1.0,1.0,33.9,34.8,34.8,3.4,3.3,2.8025,-0.2873963466785956,0.09400644612113403,0.9446310799402612,0.032633017355415427,-0.11029,-20.042716
11.185,2.0,1.0,1.0,33.9,34.8,34.8,3.4,3.3,2.805,-0.3078389606153651,0.09245072784769796,0.937736307899877,0.0342142588639342,-0.113901,-20.124342
11.185,2.0,1.0,1.0,33.9,34.8,34.8,3.4,3.3,2.8075,-0.32832530511335173,0.09112947463318585,0.9302576433868894,0.035845191053256426,-0.118083,-20.182059
11.185,2.0,1.0,1.0,33.9,34.8,34.8,3.4,3.3,2.81,-0.34887677006938306,0.09003409083037858,0.9221715872879307,0.03754884575976057,-0.122822,-20.215431
11.185,2.0,1.0,1.0,33.9,34.8,34.8,3.4,3.3,2.8125,-0.369513775682835,0.0891584358832094,0.913449460809825,0.0393493044915181,-0.128119,-20.223864
11.185,2.0,1.0,1.0,33.9,34.8,34.8,3.4,3.3,2.815,-0.390256109565088,0.08849866526636196,0.9040569761540909,0.041272455803288075,-0.13399,-20.206597
11.185,2.0,1.0,1.0,33.9,34.8,34.8,3.4,3.3,2.8175,-0.41112323359117503,0.08805311093662987,0.8939535972534927,0.04334682605278535,-0.14046,-20.162701
11.185,2.0,1.0,1.0,33.9,34.8,34.8,3.4,3.3,2.82,-0.43213456246906606,0.08782219187415428,0.8830916588447199,0.04560453216850554,-0.147572,-20.091059
11.185,2.0,1.0,1.0,33.9,34.8,34.8,3.4,3.3,2.8225,-0.4533097119574869,0.08780834327875803,0.8714151952144498,0.04808241487898682,-0.155383,-19.990359
11.185,2.0,1.0,1.0,33.9,34.8,34.8,3.4,3.3,2.825,-0.47466870880113193,0.08801594894746297,0.8588584084583665,0.050823426344179905,-0.163971,-19.859069
11.185,2.0,1.0,1.0,33.9,34.8,34.8,3.4,3.3,2.8275,-0.4962321455347046,0.08845125409566973,0.8453436775681259,0.05387836926989017,-0.173434,-19.695418
11.185,2.0,1.0,1.0,33.9,34.8,34.8,3.4,3.3,2.83,-0.5180212492714854,0.08912222338157418,0.8307789706167421,0.057308118481598946,-0.183899,-19.497366
