1,w,sub_t,h,l1,l2,l3,g1,g2,Freq,S11_re,S21_re,S11_img,S21_img,S11_dB,S21_dB
11.185,2.0,1.0,1.0,33.6,33.0,33.0,2.8,3.4,2.5,0.836690464763388,-0.00710565805390983,0.536289279254036,0.00531707324511915,-0.053938,-41.036852
11.185,2.0,1.0,1.0,33.6,33.0,33.0,2.8,3.4,2.5025,0.8330022377295905,-0.007240506365797244,0.5418985018415107,0.0053305165286753695,-0.054424,-40.923772
11.185,2.0,1.0,1.0,33.6,33.0,33.0,2.8,3.4,2.505,0.8292600417380122,-0.007377517069470281,0.5475055279669311,0.005343053438386577,-0.054917,-40.810476
11.185,2.0,1.0,1.0,33.6,33.0,33.0,2.8,3.4,2.5075,0.8254633549240064,-0.007516726074402364,0.5531100743442146,0.00535465037546771,-0.055418,-40.696958
11.185,2.0,1.0,1.0,33.6,33.0,33.0,2.8,3.4,2.51,0.8216116478134209,-0.0076581699562331285,0.5587118493712323,0.005365272633735414,-0.055928,-40.583211
11.185,2.0,1.0,1.0,33.6,33.0,33.0,2.8,3.4,2.5125,0.8177043832280784,-0.007801885968585767,0.5643105528723104,0.0053748843605912165,-0.056446,-40.469229
11.185,2.0,1.0,1.0,33.6,33.0,33.0,2.8,3.4,2.515,0.8137410161913537,-0.007947912054989091,0.5699058758328394,0.005383448516522385,-0.056973,-40.355008
11.185,2.0,1.0,1.0,33.6,33.0,33.0,2.8,3.4,2.5175,0.8097209938339515,-0.00809628686089516,0.5754975001257225,0.005390926833059873,-0.057509,-40.24054
11.185,2.0,1.0,1.0,33.6,33.0,33.0,2.8,3.4,2.52,0.8056437552999645,-0.008247049745784286,0.5810850982294277,0.00539727976912966,-0.058053,-40.12582
11.185,2.0,1.0,1.0,33.6,33.0,33.0,2.8,3.4,2.5225,0.8015087316533418,-0.00840024079534781,0.5866683329373543,0.005402466465731015,-0.058607,-40.010841
11.185,2.0,1.0,1.0,33.6,33.0,33.0,2.8,3.4,2.525,0.797315345784851,-0.008555900833737487,0.5922468570582566,0.005406444698872447,-0.05917,-39.895598
11.185,2.0,1.0,1.0,33.6,33.0,33.0,2.8,3.4,2.5275,0.7930630123196698,-0.008714071435870257,0.5978203131074405,0.005409170830692962,-0.059742,-39.780083
11.185,2.0,1.0,1.0,33.6,33.0,33.0,2.8,3.4,2.53,0.7887511375257308,-0.008874794939775046,0.6033883329884312,0.005410599758692415,-0.060324,-39.664292
11.185,2.0,1.0,1.0,33.6,33.0,33.0,2.8,3.4,2.5325,0.7843791192229495,-0.00903811445896756,0.6089505376648202,0.00541068486299232,-0.060917,-39.548217
11.185,2.0,1.0,1.0,33.6,33.0,33.0,2.8,3.4,2.535,0.779946346693479,-0.009204073894838126,0.6145065368219803,0.005409377951544051,-0.061519,-39.431853
11.185,2.0,1.0,1.0,33.6,33.0,33.0,2.8,3.4,2.5375,0.7754522005931517,-0.009372717949034633,0.62005592851832,0.005406629203197795,-0.062132,-39.315192
11.185,2.0,1.0,1.0,33.6,33.0,33.0,2.8,3.4,2.54,0.7708960528642578,-0.009544092135823294,0.625598298825756,0.005402387108542124,-0.062755,-39.198229
11.185,2.0,1.0,1.0,33.6,33.0,33.0,2.8,3.4,2.5425,0.7662772666498407,-0.009718242794406935,0.6311332214590597,0.005396598408418939,-0.06339,-39.080957
11.185,2.0,1.0,1.0,33.6,33.0,33.0,2.8,3.4,2.545,0.7615951962096892,-0.009895217101178336,0.6366602573937244,0.005389208030015353,-0.064035,-38.963369
11.185,2.0,1.0,1.0,33.6,33.0,33.0,2.8,3.4,2.5475,0.7568491868382219,-0.010075063081885955,0.6421789544719873,0.005380159020428485,-0.064692,-38.845459
11.185,2.0,1.0,1.0,33.6,33.0,33.0,2.8,3.4,2.55,0.7520385747844639,-0.010257829623686106,0.6476888469966442,0.005369392477594687,-0.065361,-38.72722
11.185,2.0,1.0,1.0,33.6,33.0,33.0,2.8,3.4,2.5525,0.7471626871743473,-0.01044356648705336,0.6531894553122506,0.005356847478470082,-0.066041,-38.608646
11.185,2.0,1.0,1.0,33.6,33.0,33.0,2.8,3.4,2.555,0.7422208419355512,-0.010632324317519537,0.6586802853733278,0.005342461004343089,-0.066734,-38.489729
11.185,2.0,1.0,1.0,33.6,33.0,33.0,2.8,3.4,2.5575,0.7372123477251354,-0.010824154657208323,0.6641608282991607,0.005326167863155037,-0.067439,-38.370463
11.185,2.0,1.0,1.0,33.6,33.0,33.0,2.8,3.4,2.56,0.7321365038602294,-0.011019109956131099,0.669630559914754,0.005307900608697895,-0.068156,-38.250841
11.185,2.0,1.0,1.0,33.6,33.0,33.0,2.8,3.4,2.5625,0.7269926002520473,-0.01121724358320413,0.675088940277518,0.005287589456553506,-0.068887,-38.130856
11.185,2.0,1.0,1.0,33.6,33.0,33.0,2.8,3.4,2.565,0.7217799173435213,-0.011418609836948129,0.6805354131892362,0.005265162196630335,-0.069631,-38.0105
11.185,2.0,1.0,1.0,33.6,33.0,33.0,2.8,3.4,2.5675,0.7164977260508708,-0.011623263955823564,0.6859694056928373,0.005240544102148799,-0.070389,-37.889768
11.185,2.0,1.0,1.0,33.6,33.0,33.0,2.8,3.4,2.57,0.7111452877094223,-0.011831262128155669,0.6913903275535065,0.005213657834917408,-0.07116,-37.768651
11.185,2.0,1.0,1.0,33.6,33.0,33.0,2.8,3.4,2.5725,0.7057218540240346,-0.012042661501595574,0.6967975707236355,0.005184423346735719,-0.071946,-37.647142
11.185,2.0,1.0,1.0,33.6,33.0,33.0,2.8,3.4,2.575,0.700226667024494,-0.012257520192062816,0.7021905087911042,0.005152757776750976,-0.072747,-37.525234
11.185,2.0,1.0,1.0,33.6,33.0,33.0,2.8,3.4,2.5775,0.6946589590262653,-0.012475897292109463,0.7075684964103676,0.005118575344587524,-0.073563,-37.402919
11.185,2.0,1.0,1.0,33.6,33.0,33.0,2.8,3.4,2.58,0.6890179525970149,-0.012697852878638791,0.7129308687158057,0.005081787239059453,-0.074393,-37.28019
11.185,2.0,1.0,1.0,33.6,33.0,33.0,2.8,3.4,2.5825,0.6833028605293301,-0.012923448019911157,0.7182769407167878,0.005042301502266732,-0.07524,-37.157039
11.185,2.0,1.0,1.0,33.6,33.0,33.0,2.8,3.4,2.585,0.6775128858201013,-0.013152744781760367,0.7236060066738621,0.0050000229088660066,-0.076103,-37.033459
11.185,2.0,1.0,1.0,33.6,33.0,33.0,2.8,3.4,2.5875,0.6716472216570464,-0.013385806232939812,0.7289173394554965,0.004954852840296598,-0.076982,-36.909442
11.185,2.0,1.0,1.0,33.6,33.0,33.0,2.8,3.4,2.59,0.6657050514128935,-0.013622696449510875,0.7342101898747431,0.00490668915373124,-0.077878,-36.78498
11.185,2.0,1.0,1.0,33.6,33.0,33.0,2.8,3.4,2.5925,0.6596855486477563,-0.01386348051818011,0.7394837860052149,0.0048554260455094525,-0.078791,-36.660064
11.185,2.0,1.0,1.0,33.6,33.0,33.0,2.8,3.4,2.595,0.6535878771202872,-0.014108224538484114,0.7447373324757088,0.004800953908799417,-0.079722,-36.534687
11.185,2.0,1.0,1.0,33.6,33.0,33.0,2.8,3.4,2.5975,0.6474111908081951,-0.0143569956237123,0.7499700097428267,0.004743159185221658,-0.080671,-36.408841
11.185,2.0,1.0,1.0,33.6,33.0,33.0,2.8,3.4,2.6,0.6411546339387727,-0.01460986190045264,0.7551809733408997,0.004681924210152896,-0.081639,-36.282517
11.185,2.0,1.0,1.0,33.6,33.0,33.0,2.8,3.4,2.6025,0.6348173410301162,-0.014866892506632293,0.7603693531085026,0.004617127051416225,-0.082626,-36.155707
11.185,2.0,1.0,1.0,33.6,33.0,33.0,2.8,3.4,2.605,0.6283984369437278,-0.015128157587919435,0.7655342523908423,0.004548641341046312,-0.083632,-36.028402
11.185,2.0,1.0,1.0,33.6,33.0,33.0,2.8,3.4,2.6075,0.6218970369492697,-0.01539372829233985,0.7706747472172607,0.0044763360998039585,-0.084658,-35.900593
11.185,2.0,1.0,1.0,33.6,33.0,33.0,2.8,3.4,2.61,0.6153122468022544,-0.015663676762952054,0.7757898854530855,0.004400075554096391,-0.085705,-35.772273
11.185,2.0,1.0,1.0,33.6,33.0,33.0,2.8,3.4,2.6125,0.6086431628355068,-0.015938076128412096,0.7808786859250284,0.004319718944942242,-0.086773,-35.643431
11.185,2.0,1.0,1.0,33.6,33.0,33.0,2.8,3.4,2.615,0.6018888720652782,-0.016217000491248044,0.7859401375193237,0.004235120328600484,-0.087863,-35.51406
11.185,2.0,1.0,1.0,33.6,33.0,33.0,2.8,3.4,2.6175,0.5950484523129509,-0.01650052491364827,0.7909731982517486,0.004146128368463291,-0.088975,-35.384149
11.185,2.0,1.0,1.0,33.6,33.0,33.0,2.8,3.4,2.62,0.5881209723433103,-0.016788725400553973,0.7959767943086737,0.004052586117791118,-0.090109,-35.253689
11.185,2.0,1.0,1.0,33.6,33.0,33.0,2.8,3.4,2.6225,0.5811054920204156,-0.01708167887983242,0.8009498190582452,0.003954330792844617,-0.091267,-35.122672
11.185,2.0,1.0,1.0,33.6,33.0,33.0,2.8,3.4,2.625,0.574001062482182,-0.0173794631792859,0.805891132030775,0.00385119353594667,-0.092449,-34.991087
11.185,2.0,1.0,1.0,33.6,33.0,33.0,2.8,3.4,2.6275,0.5668067263348003,-0.017682157000238365,0.8107995578674071,0.0037429991679787987,-0.093656,-34.858925
11.185,2.0,1.0,1.0,33.6,33.0,33.0,2.8,3.4,2.63,0.5595215178682351,-0.017989839887417012,0.8156738852360789,0.003629565929792936,-0.094888,-34.726175
11.185,2.0,1.0,1.0,33.6,33.0,33.0,2.8,3.4,2.6325,0.5521444632940694,-0.01830259219482827,0.8205128657137782,0.0035107052119879383,-0.096146,-34.592828
11.185,2.0,1.0,1.0,33.6,33.0,33.0,2.8,3.4,2.635,0.5446745810070567,-0.018620495047303974,0.8253152126340735,0.003386221272471568,-0.09743,-34.458874
11.185,2.0,1.0,1.0,33.6,33.0,33.0,2.8,3.4,2.6375,0.5371108818718133,-0.01894363029736582,0.830079599898849,0.0032559109411957636,-0.098742,-34.324301
11.185,2.0,1.0,1.0,33.6,33.0,33.0,2.8,3.4,2.64,0.5294523695361392,-0.019272080477035183,0.8348046607531671,0.003119563311418562,-0.100083,-34.1891
11.185,2.0,1.0,1.0,33.6,33.0,33.0,2.8,3.4,2.6425,0.5216980407725775,-0.019605928744179227,0.8394889865221301,0.0029769594168102586,-0.101452,-34.05326
11.185,2.0,1.0,1.0,33.6,33.0,33.0,2.8,3.4,2.645,0.5138468858498731,-0.019945258822961158,0.8441311253085938,0.002827871893681206,-0.102851,-33.91677
11.185,2.0,1.0,1.0,33.6,33.0,33.0,2.8,3.4,2.6475,0.505897888936107,-0.020290154937920562,0.8487295806505427,0.002672064627569153,-0.10428,-33.779619
11.185,2.0,1.0,1.0,33.6,33.0,33.0,2.8,3.4,2.65,0.49785002853535615,-0.020640701741180587,0.8532828101369196,0.0025092923833780045,-0.105741,-33.641795
11.185,2.0,1.0,1.0,33.6,33.0,33.0,2.8,3.4,2.6525,0.48970227795986926,-0.020996984232234284,0.8577892239806368,0.0023393004182149773,-0.107235,-33.503287
11.185,2.0,1.0,1.0,33.6,33.0,33.0,2.8,3.4,2.655,0.48145360583980673,-0.021359087669722235,0.8622471835474976,0.002161824076021383,-0.108761,-33.364083
11.185,2.0,1.0,1.0,33.6,33.0,33.0,2.8,3.4,2.6575,0.47310297667274714,-0.021727097474567296,0.8666549998396862,0.0019765883630402385,-0.110322,-33.224171
11.185,2.0,1.0,1.0,33.6,33.0,33.0,2.8,3.4,2.66,0.46464935141526265,-0.022101099123781477,0.8710109319324721,0.0017833075031065135,-0.111918,-33.083539
11.185,2.0,1.0,1.0,33.6,33.0,33.0,2.8,3.4,2.6625,0.4560916881190064,-0.022481178034206656,0.8753131853627091,0.0015816844716846665,-0.113551,-32.942174
11.185,2.0,1.0,1.0,33.6,33.0,33.0,2.8,3.4,2.665,0.4474289426138636,-0.02286741943539237,0.8795599104676939,0.0013714105075144,-0.115221,-32.800065
11.185,2.0,1.0,1.0,33.6,33.0,33.0,2.8,3.4,2.6675,0.4386600692409018,-0.023259908230748184,0.8837492006728868,0.0011521646006552519,-0.116929,-32.657197
11.185,2.0,1.0,1.0,33.6,33.0,33.0,2.8,3.4,2.67,0.4297840216379626,-0.023658728846042986,0.887879090726957,0.000923612955646492,-0.118677,-32.513558
11.185,2.0,1.0,1.0,33.6,33.0,33.0,2.8,3.4,2.6725,0.4207997535809202,-0.024063965064244082,0.8919475548825817,0.0006854084284205068,-0.120466,-32.369134
11.185,2.0,1.0,1.0,33.6,33.0,33.0,2.8,3.4,2.675,0.411706219883802,-0.02447569984561054,0.8959525050213537,0.00043718993552138404,-0.122297,-32.223912
11.185,2.0,1.0,1.0,33.6,33.0,33.0,2.8,3.4,2.6775,0.4025023773611361,-0.02489401513186492,0.8998917887211267,0.00017858183409108548,-0.124171,-32.077878
11.185,2.0,1.0,1.0,33.6,33.0,33.0,2.8,3.4,2.68,0.39318718585607465,-0.025318991633171615,0.9037631872640614,-9.080672901324533e-05,-0.12609,-31.931016
11.185,2.0,1.0,1.0,33.6,33.0,33.0,2.8,3.4,2.6825,0.3837596093380672,-0.025750708596544193,0.9075644135835748,-0.00037138250071105597,-0.128055,-31.783313
11.185,2.0,1.0,1.0,33.6,33.0,33.0,2.8,3.4,2.685,0.37421861707403914,-0.02618924355419035,0.9112931101483549,-0.0006635688396519569,-0.130068,-31.634754
11.185,2.0,1.0,1.0,33.6,33.0,33.0,2.8,3.4,2.6875,0.3645631848772794,-0.026634672050177565,0.9149468467815164,-0.0009678064706045276,-0.13213,-31.485323
11.185,2.0,1.0,1.0,33.6,33.0,33.0,2.8,3.4,2.69,0.3547922964384835,-0.027087067343664423,0.9185231184129261,-0.0012845542773817545,-0.134243,-31.335004
11.185,2.0,1.0,1.0,33.6,33.0,33.0,2.8,3.4,2.6925,0.3449049447436279,-0.027546500086797727,0.9220193427626483,-0.001614290136546693,-0.136408,-31.183782
11.185,2.0,1.0,1.0,33.6,33.0,33.0,2.8,3.4,2.695,0.3349001335836721,-0.02801303797520594,0.925432857953382,-0.001957511794287125,-0.138627,-31.031641
11.185,2.0,1.0,1.0,33.6,33.0,33.0,2.8,3.4,2.6975,0.3247768791613155,-0.02848674536884817,0.9287609200496932,-0.0023147377890138446,-0.140902,-30.878563
11.185,2.0,1.0,1.0,33.6,33.0,33.0,2.8,3.4,2.7,0.31453421180041236,-0.028967682880776523,0.9320007005217477,-0.002686508422406485,-0.143234,-30.724531
11.185,2.0,1.0,1.0,33.6,33.0,33.0,2.8,3.4,2.7025,0.30417117776392066,-0.029455906931158855,0.935149283631164,-0.0030733867818206473,-0.145626,-30.569528
11.185,2.0,1.0,1.0,33.6,33.0,33.0,2.8,3.4,2.705,0.2936868411866656,-0.029951469263672013,0.9382036637365075,-0.003475959817168798,-0.14808,-30.413536
11.185,2.0,1.0,1.0,33.6,33.0,33.0,2.8,3.4,2.7075,0.2830802861295439,-0.03045441642112017,0.9411607425158364,-0.0038948394756082847,-0.150597,-30.256536
11.185,2.0,1.0,1.0,33.6,33.0,33.0,2.8,3.4,2.71,0.2723506187622292,-0.030964789176843845,0.9440173261035917,-0.0043306638975996155,-0.153181,-30.098509
11.185,2.0,1.0,1.0,33.6,33.0,33.0,2.8,3.4,2.7125,0.26149696968185976,-0.03148262191818024,0.9467701221390089,-0.004784098678156137,-0.155833,-29.939436
11.185,2.0,1.0,1.0,33.6,33.0,33.0,2.8,3.4,2.715,0.25051849637567514,-0.032007941977886145,0.9494157367230723,-0.0052558381973771455,-0.158555,-29.779297
11.185,2.0,1.0,1.0,33.6,33.0,33.0,2.8,3.4,2.7175,0.2394143858360669,-0.032540768909056175,0.951950671280905,-0.005746607024652369,-0.161351,-29.618071
11.185,2.0,1.0,1.0,33.6,33.0,33.0,2.8,3.4,2.72,0.22818385733708474,-0.03308111369865632,0.9543713193262977,-0.006257161401247757,-0.164222,-29.455738
11.185,2.0,1.0,1.0,33.6,33.0,33.0,2.8,3.4,2.7225,0.21682616538197944,-0.03362897791432213,0.9566739631249278,-0.006788290806326655,-0.167172,-29.292276
11.185,2.0,1.0,1.0,33.6,33.0,33.0,2.8,3.4,2.725,0.20534060283208802,-0.03418435277856861,0.9588547702525958,-0.007340819611836905,-0.170203,-29.127662
11.185,2.0,1.0,1.0,33.6,33.0,33.0,2.8,3.4,2.7275,0.1937265042279761,-0.03474721816398774,0.9609097900446077,-0.007915608832100787,-0.173319,-28.961874
11.185,2.0,1.0,1.0,33.6,33.0,33.0,2.8,3.4,2.73,0.18198324931459675,-0.03531754150238646,0.9628349499321811,-0.008513557974384202,-0.176523,-28.794888
11.185,2.0,1.0,1.0,33.6,33.0,33.0,2.8,3.4,2.7325,0.1701102667829829,-0.03589527660011932,0.9646260516614903,-0.009135606997199456,-0.179818,-28.62668
11.185,2.0,1.0,1.0,33.6,33.0,33.0,2.8,3.4,2.735,0.15810703824194747,-0.03648036235110286,0.9662787673906813,-0.00978273838361432,-0.183207,-28.457225
11.185,2.0,1.0,1.0,33.6,33.0,33.0,2.8,3.4,2.7375,0.1459731024342146,-0.03707272133813562,0.9677886356598512,-0.01045597933740128,-0.186694,-28.286498
11.185,2.0,1.0,1.0,33.6,33.0,33.0,2.8,3.4,2.74,0.13370805971252142,-0.03767225831219465,0.9691510572286377,-0.011156404110470185,-0.190283,-28.114471
11.185,2.0,1.0,1.0,33.6,33.0,33.0,2.8,3.4,2.7425,0.12131157679238554,-0.03827885853831381,0.9703612907756721,-0.011885136470691551,-0.193979,-27.941118
11.185,2.0,1.0,1.0,33.6,33.0,33.0,2.8,3.4,2.745,0.10878339179957434,-0.0388923859954605,0.9714144484536983,-0.012643352319933639,-0.197785,-27.766411
11.185,2.0,1.0,1.0,33.6,33.0,33.0,2.8,3.4,2.7475,0.09612331963173538,-0.03951268141649995,0.9723054912936859,-0.013432282472919808,-0.201705,-27.590321
11.185,2.0,1.0,1.0,33.6,33.0,33.0,2.8,3.4,2.75,0.0833312576552524,-0.0401395601528484,0.973029224450731,-0.0142532156083571,-0.205746,-27.412817
11.185,2.0,1.0,1.0,33.6,33.0,33.0,2.8,3.4,2.7525,0.07040719176015814,-0.04077280984675756,0.9735802922839275,-0.015107501404711232,-0.209911,-27.233869
11.185,2.0,1.0,1.0,33.6,33.0,33.0,2.8,3.4,2.755,0.05735120279791399,-0.04141218789230053,0.9739531732617404,-0.0159965538739975,-0.214206,-27.053444
11.185,2.0,1.0,1.0,33.6,33.0,33.0,2.8,3.4,2.7575,0.04416347342900487,-0.04205741866403855,0.9741421746837015,-0.01692185490804666,-0.218636,-26.871511
11.185,2.0,1.0,1.0,33.6,33.0,33.0,2.8,3.4,2.76,0.030844295409813788,-0.042708190489990014,0.9741414272083992,-0.01788495805287825,-0.223208,-26.688033
11.185,2.0,1.0,1.0,33.6,33.0,33.0,2.8,3.4,2.7625,0.017394077350878834,-0.043364152342870096,0.9739448791768852,-0.018887492528091906,-0.227927,-26.502977
11.185,2.0,1.0,1.0,33.6,33.0,33.0,2.8,3.4,2.765,0.0038133529817615066,-0.04402491022057832,0.9735462907196114,-0.019931167509568845,-0.232801,-26.316305
11.185,2.0,1.0,1.0,33.6,33.0,33.0,2.8,3.4,2.7675,-0.009897210038863883,-0.044690023183534835,0.9729392276339295,-0.02101777669527495,-0.237836,-26.12798
11.185,2.0,1.0,1.0,33.6,33.0,33.0,2.8,3.4,2.77,-0.023736800725427634,-0.045358999012649164,0.9721170550180049,-0.022149203175574686,-0.24304,-25.937961
11.185,2.0,1.0,1.0,33.6,33.0,33.0,2.8,3.4,2.7725,-0.03770445473315156,-0.04603128944738268,0.9710729306456638,-0.023327424631215857,-0.248421,-25.746209
11.185,2.0,1.0,1.0,33.6,33.0,33.0,2.8,3.4,2.775,-0.051799043639482095,-0.046706284958465405,0.9697997980652804,-0.02455451888402811,-0.253986,-25.552681
11.185,2.0,1.0,1.0,33.6,33.0,33.0,2.8,3.4,2.7775,-0.06601926348197489,-0.047383309004268154,0.9682903794042218,-0.025832669827409067,-0.259745,-25.357333
11.185,2.0,1.0,1.0,33.6,33.0,33.0,2.8,3.4,2.78,-0.08036362248904858,-0.04806161171350321,0.9665371678586742,-0.027164173765845893,-0.265708,-25.16012
11.185,2.0,1.0,1.0,33.6,33.0,33.0,2.8,3.4,2.7825,-0.09483042793282052,-0.04874036292972649,0.9645324198468181,-0.028551446195044485,-0.271885,-24.960993
11.185,2.0,1.0,1.0,33.6,33.0,33.0,2.8,3.4,2.785,-0.1094177720251527,-0.049418644544906354,0.962268146801315,-0.029997029056723353,-0.278285,-24.759904
11.185,2.0,1.0,1.0,33.6,33.0,33.0,2.8,3.4,2.7875,-0.12412351676863516,-0.05009544203994146,0.9597361065749332,-0.03150359850474283,-0.284922,-24.556801
11.185,2.0,1.0,1.0,33.6,33.0,33.0,2.8,3.4,2.79,-0.1389452776636848,-0.050769635139293105,0.9569277944308519,-0.03307397322201739,-0.291807,-24.351631
11.185,2.0,1.0,1.0,33.6,33.0,33.0,2.8,3.4,2.7925,-0.1538804061606617,-0.05143998747460709,0.9538344335867622,-0.03471112333053395,-0.298953,-24.144339
11.185,2.0,1.0,1.0,33.6,33.0,33.0,2.8,3.4,2.795,-0.16892597073202817,-0.05210513513811774,0.9504469652793859,-0.03641817993979673,-0.306375,-23.934865
11.185,2.0,1.0,1.0,33.6,33.0,33.0,2.8,3.4,2.7975,-0.18407873642337727,-0.05276357399043252,0.9467560383134139,-0.038198445382055586,-0.314087,-23.723151
11.185,2.0,1.0,1.0,33.6,33.0,33.0,2.8,3.4,2.8,-0.19933514272378894,-0.05341364556867122,0.9427519980562784,-0.04005540418573527,-0.322107,-23.509132
11.185,2.0,1.0,1.0,33.6,33.0,33.0,2.8,3.4,2.8025,-0.2146912795745463,-0.054053521419472415,0.9384248748375844,-0.04199273484147007,-0.330451,-23.292744
11.185,2.0,1.0,1.0,33.6,33.0,33.0,2.8,3.4,2.805,-0.23014286131060863,-0.05468118565659426,0.933764371709619,-0.044014322417948774,-0.339138,-23.073916
11.185,2.0,1.0,1.0,33.6,33.0,33.0,2.8,3.4,2.8075,-0.24568519830072516,-0.05529441551420747,0.9287598515232158,-0.04612427208729069,-0.34819,-22.852579
11.185,2.0,1.0,1.0,33.6,33.0,33.0,2.8,3.4,2.81,-0.2613131660190092,-0.055890759633810745,0.9234003232715574,-0.048326923621658385,-0.357627,-22.628655
11.185,2.0,1.0,1.0,33.6,33.0,33.0,2.8,3.4,2.8125,-0.277021171242343,-0.0564675137842522,0.917674427653567,-0.0506268669240607,-0.367473,-22.402068
11.185,2.0,1.0,1.0,33.6,33.0,33.0,2.8,3.4,2.815,-0.2928031150234211,-0.057021693669681746,0.9115704218085684,-0.05302895865645948,-0.377755,-22.172735
11.185,2.0,1.0,1.0,33.6,33.0,33.0,2.8,3.4,2.8175,-0.3086523520371793,-0.0575500044283245,0.9050761631754544,-0.05553834002692952,-0.388499,-21.940569
11.185,2.0,1.0,1.0,33.6,33.0,33.0,2.8,3.4,2.82,-0.32456164583773833,-0.05804880636446023,0.8981790924331489,-0.05816045579415917,-0.399738,-21.705481
11.185,2.0,1.0,1.0,33.6,33.0,33.0,2.8,3.4,2.8225,-0.3405231194921496,-0.05851407638541658,0.890866215485519,-0.06090107454127497,-0.411502,-21.467376
11.185,2.0,1.0,1.0,33.6,33.0,33.0,2.8,3.4,2.825,-0.3565282009743623,-0.058941364532923715,0.883124084463968,-0.06376631026083363,-0.423829,-21.226156
11.185,2.0,1.0,1.0,33.6,33.0,33.0,2.8,3.4,2.8275,-0.3725675626058113,-0.05932574490173322,0.8749387777360785,-0.06676264527759926,-0.436757,-20.981716
