1,w,sub_t,h,l1,l2,l3,g1,g2,Freq,S11_re,S21_re,S11_img,S21_img,S11_dB,S21_dB
11.185,2.0,1.0,1.0,33.4,34.1,34.1,2.9,2.3,2.5,0.856586684363022,-0.00905328149706218,0.502642826746791,0.00841319505155625,-0.059511,-38.160365
11.185,2.0,1.0,1.0,33.4,34.1,34.1,2.9,2.3,2.5025,0.8531563497223648,-0.009250132986225776,0.508307982578982,0.008467506212262846,-0.060118,-38.033717
11.185,2.0,1.0,1.0,33.4,34.1,34.1,2.9,2.3,2.505,0.8496727067663912,-0.009451002794131035,0.5139733695189848,0.00852138731725046,-0.060736,-37.906579
11.185,2.0,1.0,1.0,33.4,34.1,34.1,2.9,2.3,2.5075,0.8461351954543425,-0.009655988949608016,0.5196387511716665,0.0085748054309182,-0.061367,-37.77894
11.185,2.0,1.0,1.0,33.4,34.1,34.1,2.9,2.3,2.51,0.8425432456572299,-0.009865192568506442,0.5253038836502781,0.00862772606671397,-0.062009,-37.650788
11.185,2.0,1.0,1.0,33.4,34.1,34.1,2.9,2.3,2.5125,0.8388962769329209,-0.010078717974003337,0.5309685153128049,0.008680113109110816,-0.062665,-37.52211
11.185,2.0,1.0,1.0,33.4,34.1,34.1,2.9,2.3,2.515,0.8351936982944898,-0.010296672822524684,0.5366323864882238,0.008731928731172508,-0.063333,-37.392895
11.185,2.0,1.0,1.0,33.4,34.1,34.1,2.9,2.3,2.5175,0.831434907971556,-0.010519168235586787,0.542295229192185,0.008783133307426975,-0.064015,-37.263129
11.185,2.0,1.0,1.0,33.4,34.1,34.1,2.9,2.3,2.52,0.8276192931642863,-0.010746318937883236,0.5479567668316442,0.00883368532174323,-0.064711,-37.132801
11.185,2.0,1.0,1.0,33.4,34.1,34.1,2.9,2.3,2.5225,0.8237462297897559,-0.010978243401962096,0.5536167138979057,0.008883541269888006,-0.06542,-37.001896
11.185,2.0,1.0,1.0,33.4,34.1,34.1,2.9,2.3,2.525,0.819815082220302,-0.01121506399986172,0.5592747756475414,0.008932655556412029,-0.066145,-36.870403
11.185,2.0,1.0,1.0,33.4,34.1,34.1,2.9,2.3,2.5275,0.8158252030135185,-0.011456907162095527,0.564930647770602,0.00898098038549172,-0.066884,-36.738307
11.185,2.0,1.0,1.0,33.4,34.1,34.1,2.9,2.3,2.53,0.8117759326334988,-0.01170390354440182,0.5705840160454929,0.009028465645323357,-0.067639,-36.605594
11.185,2.0,1.0,1.0,33.4,34.1,34.1,2.9,2.3,2.5325,0.8076665991629097,-0.011956188202701407,0.5762345559798653,0.009075058785636126,-0.068409,-36.472251
11.185,2.0,1.0,1.0,33.4,34.1,34.1,2.9,2.3,2.535,0.803496518005464,-0.012213900776734806,0.5818819324368311,0.009120704687858083,-0.069196,-36.338262
11.185,2.0,1.0,1.0,33.4,34.1,34.1,2.9,2.3,2.5375,0.7992649915783223,-0.012477185682881269,0.5875257992457497,0.009165345527433592,-0.07,-36.203615
11.185,2.0,1.0,1.0,33.4,34.1,34.1,2.9,2.3,2.54,0.7949713089939258,-0.012746192316695758,0.5931657987968102,0.009208920627750639,-0.070821,-36.068292
11.185,2.0,1.0,1.0,33.4,34.1,34.1,2.9,2.3,2.5425,0.7906147457307325,-0.013021075265735036,0.5988015616185702,0.009251366305096518,-0.07166,-35.93228
11.185,2.0,1.0,1.0,33.4,34.1,34.1,2.9,2.3,2.545,0.7861945632922909,-0.013301994533282688,0.6044327059375574,0.009292615704012257,-0.072518,-35.795561
11.185,2.0,1.0,1.0,33.4,34.1,34.1,2.9,2.3,2.5475,0.7817100088540573,-0.013589115773623522,0.6100588372189795,0.009332598622367612,-0.073394,-35.658121
11.185,2.0,1.0,1.0,33.4,34.1,34.1,2.9,2.3,2.55,0.7771603148972976,-0.013882610539563427,0.6156795476875413,0.009371241325424657,-0.07429,-35.519943
11.185,2.0,1.0,1.0,33.4,34.1,34.1,2.9,2.3,2.5525,0.7725446988294133,-0.014182656542936056,0.6212944158272664,0.009408466348097047,-0.075207,-35.38101
11.185,2.0,1.0,1.0,33.4,34.1,34.1,2.9,2.3,2.555,0.7678623625899361,-0.014489437928891619,0.6269030058591812,0.009444192284549567,-0.076144,-35.241305
11.185,2.0,1.0,1.0,33.4,34.1,34.1,2.9,2.3,2.5575,0.7631124922414174,-0.014803145564816487,0.6325048671956176,0.009478333564210892,-0.077103,-35.10081
11.185,2.0,1.0,1.0,33.4,34.1,34.1,2.9,2.3,2.56,0.75829425754438,-0.015123977344792315,0.6380995338698047,0.009510800213196122,-0.078084,-34.959507
11.185,2.0,1.0,1.0,33.4,34.1,34.1,2.9,2.3,2.5625,0.7534068115154247,-0.0154521385105678,0.6436865239393293,0.009541497600051697,-0.079088,-34.817378
11.185,2.0,1.0,1.0,33.4,34.1,34.1,2.9,2.3,2.565,0.7484492899675342,-0.01578784199008525,0.6492653388619429,0.009570326164643414,-0.080116,-34.674404
11.185,2.0,1.0,1.0,33.4,34.1,34.1,2.9,2.3,2.5675,0.7434208110315502,-0.016131308754678452,0.6548354628420672,0.009597181128907785,-0.081168,-34.530565
11.185,2.0,1.0,1.0,33.4,34.1,34.1,2.9,2.3,2.57,0.7383204746577067,-0.016482768196139537,0.6603963621462458,0.009621952188076446,-0.082245,-34.385842
11.185,2.0,1.0,1.0,33.4,34.1,34.1,2.9,2.3,2.5725,0.7331473620960417,-0.016842458524939444,0.6659474843856428,0.009644523180862879,-0.083349,-34.240214
11.185,2.0,1.0,1.0,33.4,34.1,34.1,2.9,2.3,2.575,0.727900535354407,-0.017210627190980425,0.6714882577635447,0.009664771736968824,-0.08448,-34.09366
11.185,2.0,1.0,1.0,33.4,34.1,34.1,2.9,2.3,2.5775,0.7225790366327103,-0.0175875313283611,0.6770180902856648,0.00968256890012054,-0.085639,-33.946159
11.185,2.0,1.0,1.0,33.4,34.1,34.1,2.9,2.3,2.58,0.7171818877319154,-0.01797343822574456,0.6825363689308674,0.009697778724686574,-0.086828,-33.797688
11.185,2.0,1.0,1.0,33.4,34.1,34.1,2.9,2.3,2.5825,0.7117080894362099,-0.01836862582403948,0.6880424587797527,0.009710257843752155,-0.088046,-33.648225
11.185,2.0,1.0,1.0,33.4,34.1,34.1,2.9,2.3,2.585,0.7061566208666432,-0.018773383243232678,0.6935357020983095,0.009719855006331183,-0.089295,-33.497746
11.185,2.0,1.0,1.0,33.4,34.1,34.1,2.9,2.3,2.5875,0.7005264388043833,-0.019188011340352158,0.6990154173736363,0.009726410581182905,-0.090577,-33.346228
11.185,2.0,1.0,1.0,33.4,34.1,34.1,2.9,2.3,2.59,0.6948164769816191,-0.01961282330069027,0.7044808982984606,0.009729756024465994,-0.091892,-33.193645
11.185,2.0,1.0,1.0,33.4,34.1,34.1,2.9,2.3,2.5925,0.6890256453379616,-0.020048145264582252,0.7099314127009112,0.009729713308199715,-0.093243,-33.039973
11.185,2.0,1.0,1.0,33.4,34.1,34.1,2.9,2.3,2.595,0.6831528292400474,-0.020494316992211725,0.7153662014156874,0.009726094306216734,-0.094629,-32.885185
11.185,2.0,1.0,1.0,33.4,34.1,34.1,2.9,2.3,2.5975,0.6771968886618317,-0.020951692569111075,0.7207844770924551,0.009718700133971504,-0.096052,-32.729254
11.185,2.0,1.0,1.0,33.4,34.1,34.1,2.9,2.3,2.6,0.6711566573228934,-0.021420641155232015,0.7261854229368737,0.009707320438216522,-0.097515,-32.572152
11.185,2.0,1.0,1.0,33.4,34.1,34.1,2.9,2.3,2.6025,0.6650309417818342,-0.021901547780691463,0.7315681913792952,0.009691732632166262,-0.099018,-32.413852
11.185,2.0,1.0,1.0,33.4,34.1,34.1,2.9,2.3,2.605,0.6588185204816148,-0.022394814191545938,0.7369319026656964,0.00967170107133605,-0.100563,-32.254323
11.185,2.0,1.0,1.0,33.4,34.1,34.1,2.9,2.3,2.6075,0.6525181427434251,-0.022900859749216716,0.7422756433648854,0.009646976164757959,-0.102152,-32.093535
11.185,2.0,1.0,1.0,33.4,34.1,34.1,2.9,2.3,2.61,0.6461285277053923,-0.023420122387481656,0.7475984647854861,0.009617293415741633,-0.103787,-31.931457
11.185,2.0,1.0,1.0,33.4,34.1,34.1,2.9,2.3,2.6125,0.6396483632021258,-0.023953059631269247,0.7528993812955581,0.009582372385747188,-0.105468,-31.768057
11.185,2.0,1.0,1.0,33.4,34.1,34.1,2.9,2.3,2.615,0.6330763045807555,-0.024500149681837023,0.758177368537025,0.009541915574273502,-0.1072,-31.6033
11.185,2.0,1.0,1.0,33.4,34.1,34.1,2.9,2.3,2.6175,0.6264109734487698,-0.02506189257329483,0.7634313615263004,0.009495607206918411,-0.108982,-31.437153
11.185,2.0,1.0,1.0,33.4,34.1,34.1,2.9,2.3,2.62,0.619650956348542,-0.025638811405844744,0.7686602526316355,0.009443111922936722,-0.110819,-31.26958
11.185,2.0,1.0,1.0,33.4,34.1,34.1,2.9,2.3,2.6225,0.6127948033530013,-0.026231453661558976,0.7738628894167693,0.009384073352692413,-0.112711,-31.100543
11.185,2.0,1.0,1.0,33.4,34.1,34.1,2.9,2.3,2.625,0.605841026576451,-0.0268403926090025,0.779038072339332,0.00931811257435583,-0.114662,-30.930006
11.185,2.0,1.0,1.0,33.4,34.1,34.1,2.9,2.3,2.6275,0.5987880985939739,-0.027466228803542297,0.7841845522913061,0.00924482643803056,-0.116673,-30.757928
11.185,2.0,1.0,1.0,33.4,34.1,34.1,2.9,2.3,2.63,0.5916344507623437,-0.02810959169076126,0.7893010279674426,0.00916378574417802,-0.118749,-30.584269
11.185,2.0,1.0,1.0,33.4,34.1,34.1,2.9,2.3,2.6325,0.5843784714347141,-0.028771141321026695,0.7943861430460335,0.009074533261732557,-0.120892,-30.408986
11.185,2.0,1.0,1.0,33.4,34.1,34.1,2.9,2.3,2.635,0.5770185040606978,-0.029451570183949886,0.7994384831647229,0.008976581569634799,-0.123104,-30.232036
11.185,2.0,1.0,1.0,33.4,34.1,34.1,2.9,2.3,2.6375,0.5695528451627181,-0.030151605172218786,0.8044565726721011,0.008869410703634643,-0.125389,-30.053372
11.185,2.0,1.0,1.0,33.4,34.1,34.1,2.9,2.3,2.64,0.5619797421786858,-0.030872009685101717,0.8094388711336817,0.008752465588097514,-0.127752,-29.872949
11.185,2.0,1.0,1.0,33.4,34.1,34.1,2.9,2.3,2.6425,0.5542973911602365,-0.03161358588279959,0.814383769568359,0.008625153230148943,-0.130194,-29.690717
11.185,2.0,1.0,1.0,33.4,34.1,34.1,2.9,2.3,2.645,0.5465039343147667,-0.03237717710378677,0.819289586388704,0.00848683965078006,-0.132722,-29.506625
11.185,2.0,1.0,1.0,33.4,34.1,34.1,2.9,2.3,2.6475,0.5385974573785126,-0.033163670458320145,0.82415456301529,0.008336846524458165,-0.135337,-29.320621
11.185,2.0,1.0,1.0,33.4,34.1,34.1,2.9,2.3,2.65,0.5305759868067738,-0.03397399961242611,0.8289768591316703,0.008174447495286606,-0.138046,-29.13265
11.185,2.0,1.0,1.0,33.4,34.1,34.1,2.9,2.3,2.6525,0.522437486766219,-0.034809147777891326,0.8337545475425614,0.007998864133782105,-0.140854,-28.942655
11.185,2.0,1.0,1.0,33.4,34.1,34.1,2.9,2.3,2.655,0.5141798559128484,-0.035670150925105865,0.8384856085931641,0.007809261493801063,-0.143764,-28.750577
11.185,2.0,1.0,1.0,33.4,34.1,34.1,2.9,2.3,2.6575,0.5058009239378333,-0.03655810123702006,0.8431679241022924,0.007604743223969668,-0.146783,-28.556354
11.185,2.0,1.0,1.0,33.4,34.1,34.1,2.9,2.3,2.66,0.4972984478619128,-0.03747415082400114,0.8477992707559309,0.0073843461820560915,-0.149917,-28.359922
11.185,2.0,1.0,1.0,33.4,34.1,34.1,2.9,2.3,2.6625,0.48867010805743705,-0.038419515720998526,0.8523773129009514,0.007147034493942189,-0.153172,-28.161213
11.185,2.0,1.0,1.0,33.4,34.1,34.1,2.9,2.3,2.665,0.4799135039753948,-0.03939548019015913,0.856899594670826,0.006891692991077313,-0.156555,-27.960159
11.185,2.0,1.0,1.0,33.4,34.1,34.1,2.9,2.3,2.6675,0.4710261495529898,-0.04040340135385507,0.8613635313660694,0.006617119951358263,-0.160073,-27.756687
11.185,2.0,1.0,1.0,33.4,34.1,34.1,2.9,2.3,2.67,0.4620054682753928,-0.041444714185004394,0.8657664000016972,0.00632201905808641,-0.163735,-27.55072
11.185,2.0,1.0,1.0,33.4,34.1,34.1,2.9,2.3,2.6725,0.45284878786332555,-0.04252093688354582,0.8701053289219504,0.006004990479782871,-0.167548,-27.342179
11.185,2.0,1.0,1.0,33.4,34.1,34.1,2.9,2.3,2.675,0.4435533345561386,-0.04363367666995667,0.8743772863685857,0.005664520959920957,-0.171523,-27.130981
11.185,2.0,1.0,1.0,33.4,34.1,34.1,2.9,2.3,2.6775,0.4341162269579905,-0.044784636028736995,0.8785790678729422,0.005298972789747806,-0.175668,-26.91704
11.185,2.0,1.0,1.0,33.4,34.1,34.1,2.9,2.3,2.68,0.4245344694127627,-0.04597561943676619,0.8827072823233018,0.004906571518931193,-0.179995,-26.700264
11.185,2.0,1.0,1.0,33.4,34.1,34.1,2.9,2.3,2.6825,0.4148049448715222,-0.04720854061329415,0.8867583365373415,0.004485392237340452,-0.184516,-26.480559
11.185,2.0,1.0,1.0,33.4,34.1,34.1,2.9,2.3,2.685,0.4049244072146805,-0.04848543032995659,0.8907284181441933,0.004033344236299474,-0.189243,-26.257825
11.185,2.0,1.0,1.0,33.4,34.1,34.1,2.9,2.3,2.6875,0.3948894729898011,-0.04980844482045176,0.8946134765511013,0.0035481538285107453,-0.19419,-26.031958
11.185,2.0,1.0,1.0,33.4,34.1,34.1,2.9,2.3,2.69,0.38469661252531795,-0.05117987483019125,0.8984092017351906,0.003027345071750333,-0.199373,-25.802847
11.185,2.0,1.0,1.0,33.4,34.1,34.1,2.9,2.3,2.6925,0.37434214038059316,-0.05260215534608644,0.9021110005603611,0.002468218101463599,-0.204806,-25.570378
11.185,2.0,1.0,1.0,33.4,34.1,34.1,2.9,2.3,2.695,0.3638222050941335,-0.05407787604528391,0.9057139702718702,0.0018678247304283065,-0.210509,-25.33443
11.185,2.0,1.0,1.0,33.4,34.1,34.1,2.9,2.3,2.6975,0.35313277819477096,-0.055609792498678166,0.9092128687651697,0.0012229409183455119,-0.216502,-25.094875
11.185,2.0,1.0,1.0,33.4,34.1,34.1,2.9,2.3,2.7,0.3422696424459646,-0.057200838159749294,0.9126020811596384,0.0005300356489534679,-0.222805,-24.851579
11.185,2.0,1.0,1.0,33.4,34.1,34.1,2.9,2.3,2.7025,0.3312283793017904,-0.05885413716090194,0.915875582129741,-0.00021476432494671373,-0.229442,-24.604402
11.185,2.0,1.0,1.0,33.4,34.1,34.1,2.9,2.3,2.705,0.3200043555658993,-0.06057301792688414,0.91902689335369,-0.0010157144996944052,-0.23644,-24.353195
11.185,2.0,1.0,1.0,33.4,34.1,34.1,2.9,2.3,2.7075,0.3085927092630944,-0.06236102759659734,0.9220490353297319,-0.0018774981421106939,-0.243826,-24.0978
11.185,2.0,1.0,1.0,33.4,34.1,34.1,2.9,2.3,2.71,0.29698833475928077,-0.06422194721869552,0.924934472679345,-0.0028052781834284023,-0.251634,-23.838052
11.185,2.0,1.0,1.0,33.4,34.1,34.1,2.9,2.3,2.7125,0.2851858672019324,-0.06615980765023118,0.9276750519003767,-0.0038047565099058266,-0.259897,-23.573776
11.185,2.0,1.0,1.0,33.4,34.1,34.1,2.9,2.3,2.715,0.2731796664034109,-0.06817890603774478,0.9302619303463309,-0.004882241859233748,-0.268655,-23.304786
11.185,2.0,1.0,1.0,33.4,34.1,34.1,2.9,2.3,2.7175,0.26096380035816263,-0.07028382269199158,0.93268549498392,-0.006044727753704016,-0.277952,-23.030887
11.185,2.0,1.0,1.0,33.4,34.1,34.1,2.9,2.3,2.72,0.24853202867823157,-0.07247943807473277,0.9349352692118555,-0.007299982167689977,-0.287835,-22.75187
11.185,2.0,1.0,1.0,33.4,34.1,34.1,2.9,2.3,2.7225,0.23587778635804676,-0.0747709494903669,0.9369998056997227,-0.008656650947998713,-0.298359,-22.467516
11.185,2.0,1.0,1.0,33.4,34.1,34.1,2.9,2.3,2.725,0.22299416845046463,-0.0771638869054063,0.938866562814861,-0.010124377392900846,-0.309585,-22.17759
11.185,2.0,1.0,1.0,33.4,34.1,34.1,2.9,2.3,2.7275,0.20987391646662296,-0.07966412708982991,0.9405217617327349,-0.011713940863646844,-0.321581,-21.881845
11.185,2.0,1.0,1.0,33.4,34.1,34.1,2.9,2.3,2.73,0.19650940762313862,-0.08227790496564963,0.9419502207546114,-0.013437417868653753,-0.334424,-21.580016
11.185,2.0,1.0,1.0,33.4,34.1,34.1,2.9,2.3,2.7325,0.1828926484793799,-0.0850118206318927,0.9431351626636615,-0.015308369746815638,-0.348201,-21.271822
11.185,2.0,1.0,1.0,33.4,34.1,34.1,2.9,2.3,2.735,0.16901527507311612,-0.08787283997375073,0.9440579901108934,-0.017342061908462804,-0.363011,-20.956966
11.185,2.0,1.0,1.0,33.4,34.1,34.1,2.9,2.3,2.7375,0.1548685624269947,-0.09086828600523333,0.9446980230039207,-0.019555720601507294,-0.378966,-20.635128
11.185,2.0,1.0,1.0,33.4,34.1,34.1,2.9,2.3,2.74,0.14044344733226338,-0.0940058170683867,0.9450321906376787,-0.021968834393046238,-0.396195,-20.30597
11.185,2.0,1.0,1.0,33.4,34.1,34.1,2.9,2.3,2.7425,0.12573056971840055,-0.09729338662051698,0.9450346698133407,-0.02460350903588279,-0.414845,-19.969129
11.185,2.0,1.0,1.0,33.4,34.1,34.1,2.9,2.3,2.745,0.11072033982336499,-0.10073917744924346,0.9446764583916561,-0.02748488617315219,-0.435086,-19.624221
11.185,2.0,1.0,1.0,33.4,34.1,34.1,2.9,2.3,2.7475,0.09540304097717453,-0.10435150057715226,0.9439248715673662,-0.03064163847401358,-0.457112,-19.270833
11.185,2.0,1.0,1.0,33.4,34.1,34.1,2.9,2.3,2.75,0.0797689813624404,-0.108138645594224,0.942742945581775,-0.0341065563394007,-0.481152,-18.908528
11.185,2.0,1.0,1.0,33.4,34.1,34.1,2.9,2.3,2.7525,0.06380871298328522,-0.11210866432615683,0.9410887305708872,-0.03791724430854693,-0.507469,-18.536837
11.185,2.0,1.0,1.0,33.4,34.1,34.1,2.9,2.3,2.755,0.047513342766773464,-0.11626906310632727,0.9389144507657387,-0.04211694874502284,-0.536372,-18.155263
11.185,2.0,1.0,1.0,33.4,34.1,34.1,2.9,2.3,2.7575,0.030874969948301665,-0.12062636976416338,0.9361655063709217,-0.04675554223439731,-0.568226,-17.763275
11.185,2.0,1.0,1.0,33.4,34.1,34.1,2.9,2.3,2.76,0.013887296647491014,-0.12518552878860312,0.9327792873180829,-0.051890694213635326,-0.60346,-17.360313
11.185,2.0,1.0,1.0,33.4,34.1,34.1,2.9,2.3,2.7625,-0.0034535237913682773,-0.12994906059832526,0.9286837651178079,-0.05758926128330215,-0.642583,-16.945781
11.185,2.0,1.0,1.0,33.4,34.1,34.1,2.9,2.3,2.765,-0.021147711614990666,-0.13491589654152963,0.9237958260087844,-0.06392893363993479,-0.686205,-16.519054
11.185,2.0,1.0,1.0,33.4,34.1,34.1,2.9,2.3,2.7675,-0.039190235557407256,-0.14007976752630127,0.9180193080199706,-0.0710001746257189,-0.735056,-16.079477
11.185,2.0,1.0,1.0,33.4,34.1,34.1,2.9,2.3,2.77,-0.0575685676487412,-0.1454269774728614,0.911242709122337,-0.07890848584352508,-0.79002,-15.626371
11.185,2.0,1.0,1.0,33.4,34.1,34.1,2.9,2.3,2.7725,-0.07625958279475904,-0.1509333283385986,0.9033365481217304,-0.08777701589345462,-0.852167,-15.159042
11.185,2.0,1.0,1.0,33.4,34.1,34.1,2.9,2.3,2.775,-0.09522527904273485,-0.15655987526090723,0.8941503926001299,-0.09774949835000613,-0.922809,-14.676794
11.185,2.0,1.0,1.0,33.4,34.1,34.1,2.9,2.3,2.7775,-0.11440687436600477,-0.16224707128631047,0.8835096331573695,-0.10899344011995712,-1.003555,-14.178948
11.185,2.0,1.0,1.0,33.4,34.1,34.1,2.9,2.3,2.78,-0.13371667745715904,-0.16790670415911058,0.8712122041572634,-0.12170336127211996,-1.0964,-13.664874
11.185,2.0,1.0,1.0,33.4,34.1,34.1,2.9,2.3,2.7825,-0.15302692960566003,-0.1734108289683873,0.8570256673176498,-0.13610367295398604,-1.203822,-13.134037
11.185,2.0,1.0,1.0,33.4,34.1,34.1,2.9,2.3,2.785,-0.1721545795811482,-0.17857666740368525,0.8406854489795567,-0.15245040845356894,-1.328926,-12.586061
11.185,2.0,1.0,1.0,33.4,34.1,34.1,2.9,2.3,2.7875,-0.19084071924221938,-0.1831462124002435,0.8218956530013836,-0.1710303964017801,-1.475611,-12.020823
11.185,2.0,1.0,1.0,33.4,34.1,34.1,2.9,2.3,2.79,-0.2087232737485266,-0.18675914472792185,0.8003349028304827,-0.19215544190472705,-1.648795,-11.438593
11.185,2.0,1.0,1.0,33.4,34.1,34.1,2.9,2.3,2.7925,-0.22530173772157278,-0.1889178647334125,0.775671286544096,-0.2161474745978034,-1.854682,-10.840217
11.185,2.0,1.0,1.0,33.4,34.1,34.1,2.9,2.3,2.795,-0.23989375906910496,-0.18894444567131524,0.7475928746888494,-0.24330824688719468,-2.101063,-10.227388
11.185,2.0,1.0,1.0,33.4,34.1,34.1,2.9,2.3,2.7975,-0.2515861075507259,-0.18593202933621172,0.7158634735934994,-0.2738640006667358,-2.397615,-9.602996
11.185,2.0,1.0,1.0,33.4,34.1,34.1,2.9,2.3,2.8,-0.25918855638782734,-0.17869912772501254,0.680416682542826,-0.30787214646556144,-2.756049,-8.971595
11.185,2.0,1.0,1.0,33.4,34.1,34.1,2.9,2.3,2.8025,-0.2612105392715206,-0.16576653438296407,0.6415028041678068,-0.34507553603549806,-3.189789,-8.339974
11.185,2.0,1.0,1.0,33.4,34.1,34.1,2.9,2.3,2.805,-0.2558986909224276,-0.1453946386431094,0.599897427694129,-0.3846955997856603,-3.712423,-7.717786
11.185,2.0,1.0,1.0,33.4,34.1,34.1,2.9,2.3,2.8075,-0.24139594969557243,-0.11574130474389734,0.5571576412619991,-0.4251783012287553,-4.333308,-7.11812
11.185,2.0,1.0,1.0,33.4,34.1,34.1,2.9,2.3,2.81,-0.2160952741961812,-0.07521272272084605,0.5158594366022683,-0.4639588137491595,-5.04722,-6.557753
11.185,2.0,1.0,1.0,33.4,34.1,34.1,2.9,2.3,2.8125,-0.179227944048897,-0.0230468045994364,0.479667047745381,-0.497392925216142,-5.813621,-6.056694
11.185,2.0,1.0,1.0,33.4,34.1,34.1,2.9,2.3,2.815,-0.13160036088674987,0.039956298028898204,0.45301445810615415,-0.5210730311039216,-6.525904,-5.636567
11.185,2.0,1.0,1.0,33.4,34.1,34.1,2.9,2.3,2.8175,-0.07617417570585461,0.11085916147222459,0.4402331774105719,-0.5306931054330767,-6.998226,-5.317636
11.185,2.0,1.0,1.0,33.4,34.1,34.1,2.9,2.3,2.82,-0.01802094008174987,0.18463228734454887,0.44425263133918635,-0.5233372874508208,-7.040259,-5.114902
11.185,2.0,1.0,1.0,33.4,34.1,34.1,2.9,2.3,2.8225,0.03664880868454642,0.25511695030190573,0.46543335230075733,-0.49863667262309197,-6.616006,-5.034534
11.185,2.0,1.0,1.0,33.4,34.1,34.1,2.9,2.3,2.825,0.08210587837211941,0.3166318681530127,0.5012508188027532,-0.4590826635147831,-5.883908,-5.07222
11.185,2.0,1.0,1.0,33.4,34.1,34.1,2.9,2.3,2.8275,0.11456186584062564,0.3654203586366635,0.5470950047858689,-0.40923409970037916,-5.05237,-5.214269
11.185,2.0,1.0,1.0,33.4,34.1,34.1,2.9,2.3,2.83,0.1327486723846771,0.40022507095455984,0.5977121724146045,-0.3542875239916935,-4.261054,-5.440901
