1,w,sub_t,h,l1,l2,l3,g1,g2,Freq,S11_re,S21_re,S11_img,S21_img,S11_dB,S21_dB
11.185,2.0,1.0,1.0,33.3,34.6,34.6,3.3,1.9,2.5,0.869999771805863,-0.00878815472418191,0.479103683847595,0.00864074765722368,-0.059294,-38.184589
11.185,2.0,1.0,1.0,33.3,34.6,34.6,3.3,1.9,2.5025,0.866797475839443,-0.008989598645372111,0.4847261453312811,0.008709151813158164,-0.059922,-38.050358
11.185,2.0,1.0,1.0,33.3,34.6,34.6,3.3,1.9,2.505,0.863543965319279,-0.00919556110034918,0.4903503920731479,0.008777574802308709,-0.060563,-37.915475
11.185,2.0,1.0,1.0,33.3,34.6,34.6,3.3,1.9,2.5075,0.8602386797468388,-0.009406169745682839,0.49597623546291875,0.008845996727117403,-0.061218,-37.779923
11.185,2.0,1.0,1.0,33.3,34.6,34.6,3.3,1.9,2.51,0.856881047098798,-0.009621557040437777,0.5016034806816155,0.008914396471600493,-0.061886,-37.643685
11.185,2.0,1.0,1.0,33.3,34.6,34.6,3.3,1.9,2.5125,0.85347048349158,-0.009841860473480837,0.5072319264673213,0.008982751625324777,-0.06257,-37.506743
11.185,2.0,1.0,1.0,33.3,34.6,34.6,3.3,1.9,2.515,0.8500063928313109,-0.010067222803763994,0.5128613648707601,0.009051038402062558,-0.063268,-37.36908
11.185,2.0,1.0,1.0,33.3,34.6,34.6,3.3,1.9,2.5175,0.8464881664483248,-0.010297792314449964,0.5184915810001021,0.009119231552702407,-0.063981,-37.230676
11.185,2.0,1.0,1.0,33.3,34.6,34.6,3.3,1.9,2.52,0.8429151827152528,-0.01053372308181474,0.5241223527543908,0.00918730427195572,-0.064711,-37.091513
11.185,2.0,1.0,1.0,33.3,34.6,34.6,3.3,1.9,2.5225,0.839286806647689,-0.010775175259932504,0.529753450544896,0.00925522809835684,-0.065457,-36.951571
11.185,2.0,1.0,1.0,33.3,34.6,34.6,3.3,1.9,2.525,0.8356023894863208,-0.01102231538222842,0.5353846370036961,0.009322972807009356,-0.066219,-36.81083
11.185,2.0,1.0,1.0,33.3,34.6,34.6,3.3,1.9,2.5275,0.8318612682593453,-0.011275316681068364,0.5410156666787046,0.009390506294480544,-0.067,-36.66927
11.185,2.0,1.0,1.0,33.3,34.6,34.6,3.3,1.9,2.53,0.8280627653238885,-0.011534359426649075,0.5466462857142949,0.00945779445519012,-0.067798,-36.526869
11.185,2.0,1.0,1.0,33.3,34.6,34.6,3.3,1.9,2.5325,0.8242061878850536,-0.011799631286552674,0.5522762315166238,0.009524801048578557,-0.068615,-36.383607
11.185,2.0,1.0,1.0,33.3,34.6,34.6,3.3,1.9,2.535,0.8202908274910954,-0.01207132770743995,0.5579052324026755,0.00959148755627221,-0.069452,-36.23946
11.185,2.0,1.0,1.0,33.3,34.6,34.6,3.3,1.9,2.5375,0.8163159595031287,-0.012349652320477657,0.5635330072319523,0.009657813028387406,-0.070309,-36.094406
11.185,2.0,1.0,1.0,33.3,34.6,34.6,3.3,1.9,2.54,0.8122808425376091,-0.012634817372226782,0.569159265019668,0.009723733918033087,-0.071186,-35.948422
11.185,2.0,1.0,1.0,33.3,34.6,34.6,3.3,1.9,2.5425,0.808184717879711,-0.012927044182860977,0.5747837045301897,0.009789203902979455,-0.072085,-35.801483
11.185,2.0,1.0,1.0,33.3,34.6,34.6,3.3,1.9,2.545,0.8040268088655511,-0.013226563633744711,0.5804060138493652,0.009854173693358066,-0.073006,-35.653565
11.185,2.0,1.0,1.0,33.3,34.6,34.6,3.3,1.9,2.5475,0.7998063202310505,-0.013533616686569307,0.5860258699342472,0.009918590824145826,-0.07395,-35.504642
11.185,2.0,1.0,1.0,33.3,34.6,34.6,3.3,1.9,2.55,0.795522437425012,-0.013848454936436615,0.5916429381386124,0.009982399431059701,-0.074919,-35.354687
11.185,2.0,1.0,1.0,33.3,34.6,34.6,3.3,1.9,2.5525,0.7911743258838194,-0.014171341201484939,0.5972568717124827,0.010045540008348479,-0.075912,-35.203674
11.185,2.0,1.0,1.0,33.3,34.6,34.6,3.3,1.9,2.555,0.7867611302649014,-0.014502550151880355,0.602867311273747,0.010107949146812708,-0.07693,-35.051575
11.185,2.0,1.0,1.0,33.3,34.6,34.6,3.3,1.9,2.5575,0.7822819736358705,-0.014842368981244919,0.6084738842497486,0.010169559250209934,-0.077976,-34.89836
11.185,2.0,1.0,1.0,33.3,34.6,34.6,3.3,1.9,2.56,0.7777359566159764,-0.015191098123867744,0.6140762042865267,0.0102302982280081,-0.07905,-34.744001
11.185,2.0,1.0,1.0,33.3,34.6,34.6,3.3,1.9,2.5625,0.7731221564661964,-0.015549052021347565,0.6196738706231663,0.010290089162233425,-0.080152,-34.588466
11.185,2.0,1.0,1.0,33.3,34.6,34.6,3.3,1.9,2.565,0.7684396261239574,-0.01591655994264613,0.6252664674284595,0.010348849945916595,-0.081285,-34.431723
11.185,2.0,1.0,1.0,33.3,34.6,34.6,3.3,1.9,2.5675,0.763687393178121,-0.01629396686189982,0.6308535630967869,0.010406492890368862,-0.082448,-34.273741
11.185,2.0,1.0,1.0,33.3,34.6,34.6,3.3,1.9,2.57,0.7588644587794476,-0.01668163439874027,0.6364347094998349,0.010462924298215192,-0.083645,-34.114485
11.185,2.0,1.0,1.0,33.3,34.6,34.6,3.3,1.9,2.5725,0.7539697964813101,-0.01707994182632228,0.6420094411903828,0.010518043998768975,-0.084875,-33.95392
11.185,2.0,1.0,1.0,33.3,34.6,34.6,3.3,1.9,2.575,0.749002351004927,-0.017489287152750967,0.6475772745540165,0.010571744841947634,-0.08614,-33.792011
11.185,2.0,1.0,1.0,33.3,34.6,34.6,3.3,1.9,2.5775,0.7439610369228444,-0.01791008828214656,0.6531377069041673,0.010623912146495145,-0.087443,-33.628719
11.185,2.0,1.0,1.0,33.3,34.6,34.6,3.3,1.9,2.58,0.7388447372537732,-0.018342784262191065,0.6586902155153654,0.010674423097788027,-0.088784,-33.464006
11.185,2.0,1.0,1.0,33.3,34.6,34.6,3.3,1.9,2.5825,0.733652301961215,-0.01878783662567425,0.6642342565890632,0.010723146089949608,-0.090165,-33.297832
11.185,2.0,1.0,1.0,33.3,34.6,34.6,3.3,1.9,2.585,0.7283825463475669,-0.01924573083430003,0.6697692641456846,0.010769940006372667,-0.091588,-33.130156
11.185,2.0,1.0,1.0,33.3,34.6,34.6,3.3,1.9,2.5875,0.7230342493345413,-0.01971697783384594,0.6752946488359066,0.010814653432043627,-0.093054,-32.960934
11.185,2.0,1.0,1.0,33.3,34.6,34.6,3.3,1.9,2.59,0.7176061516198295,-0.02020211573068829,0.680809796663287,0.010857123790259401,-0.094567,-32.790121
11.185,2.0,1.0,1.0,33.3,34.6,34.6,3.3,1.9,2.5925,0.7120969536988768,-0.020701711600735993,0.6863140676094824,0.010897176395417117,-0.096127,-32.617672
11.185,2.0,1.0,1.0,33.3,34.6,34.6,3.3,1.9,2.595,0.7065053137395064,-0.021216363442958543,0.6918067941521973,0.010934623412520566,-0.097738,-32.443537
11.185,2.0,1.0,1.0,33.3,34.6,34.6,3.3,1.9,2.5975,0.7008298452958104,-0.02174670229097588,0.697287279664848,0.010969262712866508,-0.099401,-32.267668
11.185,2.0,1.0,1.0,33.3,34.6,34.6,3.3,1.9,2.6,0.6950691148463072,-0.02229339449760542,0.7027547966855251,0.011000876614025825,-0.101119,-32.090012
11.185,2.0,1.0,1.0,33.3,34.6,34.6,3.3,1.9,2.6025,0.6892216391397369,-0.022857144208859852,0.7082085850412616,0.01102923049069422,-0.102896,-31.910514
11.185,2.0,1.0,1.0,33.3,34.6,34.6,3.3,1.9,2.605,0.6832858823300582,-0.023438696045684184,0.713647849811887,0.011054071241221658,-0.104733,-31.72912
11.185,2.0,1.0,1.0,33.3,34.6,34.6,3.3,1.9,2.6075,0.6772602528801807,-0.0240388380137258,0.7190717591156178,0.01107512559260595,-0.106634,-31.545769
11.185,2.0,1.0,1.0,33.3,34.6,34.6,3.3,1.9,2.61,0.6711431002116945,-0.024658404663688602,0.7244794416962264,0.011092098224408282,-0.108602,-31.360401
11.185,2.0,1.0,1.0,33.3,34.6,34.6,3.3,1.9,2.6125,0.6649327110752792,-0.025298280527357896,0.7298699842889163,0.011104669689369318,-0.110641,-31.172952
11.185,2.0,1.0,1.0,33.3,34.6,34.6,3.3,1.9,2.615,0.6586273056136045,-0.025959403857235934,0.7352424287389004,0.011112494105412646,-0.112755,-30.983357
11.185,2.0,1.0,1.0,33.3,34.6,34.6,3.3,1.9,2.6175,0.6522250330852828,-0.026642770700941187,0.7405957688430513,0.011115196590149399,-0.114947,-30.791544
11.185,2.0,1.0,1.0,33.3,34.6,34.6,3.3,1.9,2.62,0.6457239672147551,-0.027349439345153263,0.7459289468808574,0.011112370404857632,-0.117223,-30.597443
11.185,2.0,1.0,1.0,33.3,34.6,34.6,3.3,1.9,2.6225,0.6391221011288544,-0.02808053516797985,0.751240849796028,0.011103573770106215,-0.119586,-30.400976
11.185,2.0,1.0,1.0,33.3,34.6,34.6,3.3,1.9,2.625,0.632417341836117,-0.0288372559432506,0.756530304984473,0.0110883263096039,-0.122043,-30.202066
11.185,2.0,1.0,1.0,33.3,34.6,34.6,3.3,1.9,2.6275,0.6256075041995789,-0.02962087764548847,0.7617960756378347,0.01106610507233946,-0.124597,-30.000629
11.185,2.0,1.0,1.0,33.3,34.6,34.6,3.3,1.9,2.63,0.6186903043478129,-0.030432760810243698,0.7670368555840348,0.011036340075467388,-0.127257,-29.796579
11.185,2.0,1.0,1.0,33.3,34.6,34.6,3.3,1.9,2.6325,0.6116633524621157,-0.03127435751121647,0.7722512635573696,0.010998409301479535,-0.130026,-29.589824
11.185,2.0,1.0,1.0,33.3,34.6,34.6,3.3,1.9,2.635,0.6045241448700232,-0.03214721902324357,0.7774378368201276,0.010951633072740392,-0.132914,-29.380268
11.185,2.0,1.0,1.0,33.3,34.6,34.6,3.3,1.9,2.6375,0.5972700553665148,-0.03305300424892001,0.7825950240453025,0.010895267714150987,-0.135926,-29.167813
11.185,2.0,1.0,1.0,33.3,34.6,34.6,3.3,1.9,2.64,0.5898983256742367,-0.033993488996523616,0.7877211773553903,0.010828498400182098,-0.139072,-28.952352
11.185,2.0,1.0,1.0,33.3,34.6,34.6,3.3,1.9,2.6425,0.5824060549426705,-0.03497057620817063,0.7928145433949453,0.010750431065338776,-0.142361,-28.733774
11.185,2.0,1.0,1.0,33.3,34.6,34.6,3.3,1.9,2.645,0.5747901881731549,-0.03598630724996996,0.7978732532940943,0.010660083236745789,-0.1458,-28.511964
11.185,2.0,1.0,1.0,33.3,34.6,34.6,3.3,1.9,2.6475,0.5670475034418313,-0.037042874390572876,0.8028953113558452,0.01055637362331807,-0.149403,-28.286798
11.185,2.0,1.0,1.0,33.3,34.6,34.6,3.3,1.9,2.65,0.5591745977756458,-0.03814263461120494,0.8078785822709783,0.010438110267090833,-0.153179,-28.058147
11.185,2.0,1.0,1.0,33.3,34.6,34.6,3.3,1.9,2.6525,0.551167871517263,-0.039288124909295764,0.8128207766295518,0.010303977027732003,-0.157141,-27.825875
11.185,2.0,1.0,1.0,33.3,34.6,34.6,3.3,1.9,2.655,0.5430235109926572,-0.04048207927953637,0.8177194344564241,0.010152518129811747,-0.161304,-27.589837
11.185,2.0,1.0,1.0,33.3,34.6,34.6,3.3,1.9,2.6575,0.5347374692700695,-0.0417274475809307,0.8225719064480205,0.009982120452530755,-0.165683,-27.349881
11.185,2.0,1.0,1.0,33.3,34.6,34.6,3.3,1.9,2.66,0.5263054447703504,-0.043027416526593025,0.8273753325270935,0.009790993181403751,-0.170293,-27.105845
11.185,2.0,1.0,1.0,33.3,34.6,34.6,3.3,1.9,2.6625,0.5177228574561621,-0.04438543306508455,0.8321266172589076,0.009577144368483552,-0.175154,-26.857559
11.185,2.0,1.0,1.0,33.3,34.6,34.6,3.3,1.9,2.665,0.508984822290484,-0.045805230458445756,0.8368224015832689,0.00933835385910804,-0.180287,-26.604842
11.185,2.0,1.0,1.0,33.3,34.6,34.6,3.3,1.9,2.6675,0.5000861196130534,-0.04729085740319669,0.841459030208186,0.009072141935111949,-0.185713,-26.3475
11.185,2.0,1.0,1.0,33.3,34.6,34.6,3.3,1.9,2.67,0.4910211620361383,-0.04884671058688518,0.8460325138780987,0.008775732892224495,-0.191458,-26.08533
11.185,2.0,1.0,1.0,33.3,34.6,34.6,3.3,1.9,2.6725,0.4817839574082108,-0.05047757112456697,0.8505384855663582,0.008446012606970735,-0.19755,-25.818114
11.185,2.0,1.0,1.0,33.3,34.6,34.6,3.3,1.9,2.675,0.472368067335367,-0.05218864537707141,0.8549721494403859,0.008079478948157788,-0.20402,-25.54562
11.185,2.0,1.0,1.0,33.3,34.6,34.6,3.3,1.9,2.6775,0.4627665606858578,-0.053985610715885,0.8593282211988253,0.007672183640182621,-0.210904,-25.2676
11.185,2.0,1.0,1.0,33.3,34.6,34.6,3.3,1.9,2.68,0.45297196143350654,-0.05587466686729631,0.8636008580703642,0.0072196638773983765,-0.21824,-24.983791
11.185,2.0,1.0,1.0,33.3,34.6,34.6,3.3,1.9,2.6825,0.44297619012250694,-0.05786259353958016,0.8677835763775978,0.006716861604450984,-0.226074,-24.693911
11.185,2.0,1.0,1.0,33.3,34.6,34.6,3.3,1.9,2.685,0.43277049816188384,-0.05995681510863987,0.8718691540850493,0.006158027895913522,-0.234455,-24.397656
11.185,2.0,1.0,1.0,33.3,34.6,34.6,3.3,1.9,2.6875,0.42234539408756216,-0.06216547320476226,0.8758495151412005,0.005536609262503913,-0.24344,-24.094702
11.185,2.0,1.0,1.0,33.3,34.6,34.6,3.3,1.9,2.69,0.4116905608715071,-0.06449750809791273,0.8797155916540186,0.0048451119451692354,-0.253094,-23.784702
11.185,2.0,1.0,1.0,33.3,34.6,34.6,3.3,1.9,2.6925,0.400794763323534,-0.06696274980834986,0.883457158961488,0.004074939285837724,-0.26349,-23.467281
11.185,2.0,1.0,1.0,33.3,34.6,34.6,3.3,1.9,2.695,0.3896457446425692,-0.06957201985279636,0.8870626374112429,0.0032161960234918015,-0.274714,-23.142037
11.185,2.0,1.0,1.0,33.3,34.6,34.6,3.3,1.9,2.6975,0.3782301112618931,-0.07233724444211789,0.8905188530652504,0.0022574517755996307,-0.286862,-22.808533
11.185,2.0,1.0,1.0,33.3,34.6,34.6,3.3,1.9,2.7,0.36653320534670003,-0.07527157972494723,0.8938107474888095,0.0011854539208581581,-0.300047,-22.466302
11.185,2.0,1.0,1.0,33.3,34.6,34.6,3.3,1.9,2.7025,0.35453896471798946,-0.07838954924671414,0.8969210241246374,-1.5222542528522037e-05,-0.314399,-22.114836
11.185,2.0,1.0,1.0,33.3,34.6,34.6,3.3,1.9,2.705,0.34222977071205823,-0.08170719304742248,0.8998297153017356,-0.0013626040173816654,-0.330071,-21.753587
11.185,2.0,1.0,1.0,33.3,34.6,34.6,3.3,1.9,2.7075,0.32958628572078885,-0.08524222657290445,0.9025136494308323,-0.0028778465287625887,-0.34724,-21.381957
11.185,2.0,1.0,1.0,33.3,34.6,34.6,3.3,1.9,2.71,0.31658728417490306,-0.08901420554290321,0.9049457920549058,-0.00458588930988418,-0.366115,-20.999302
11.185,2.0,1.0,1.0,33.3,34.6,34.6,3.3,1.9,2.7125,0.30320948396496983,-0.09304468967106384,0.9070944267043385,-0.006516267579194981,-0.386946,-20.604919
11.185,2.0,1.0,1.0,33.3,34.6,34.6,3.3,1.9,2.715,0.28942739041927235,-0.09735739299159596,0.9089221313580428,-0.008704128405868495,-0.410027,-20.198046
11.185,2.0,1.0,1.0,33.3,34.6,34.6,3.3,1.9,2.7175,0.27521317303038234,-0.10197830046075616,0.9103844929585986,-0.011191506806697447,-0.435712,-19.777852
11.185,2.0,1.0,1.0,33.3,34.6,34.6,3.3,1.9,2.72,0.26053660780194227,-0.10693571781424209,0.911428484879849,-0.01402893661738426,-0.464427,-19.343434
11.185,2.0,1.0,1.0,33.3,34.6,34.6,3.3,1.9,2.7225,0.2453651379898862,-0.11226020176654346,0.9119904092759162,-0.017277493441069373,-0.49669,-18.893812
11.185,2.0,1.0,1.0,33.3,34.6,34.6,3.3,1.9,2.725,0.22966413728311547,-0.117984286405886,0.9119932764412712,-0.021011396481506534,-0.533133,-18.42792
11.185,2.0,1.0,1.0,33.3,34.6,34.6,3.3,1.9,2.7275,0.21339750869979146,-0.12414187250455994,0.9113434552808852,-0.025321333683065845,-0.574536,-17.944607
11.185,2.0,1.0,1.0,33.3,34.6,34.6,3.3,1.9,2.73,0.19652883017852654,-0.13076706896856077,0.9099263818767733,-0.030318721125586773,-0.621865,-17.442633
11.185,2.0,1.0,1.0,33.3,34.6,34.6,3.3,1.9,2.7325,0.17902338078007793,-0.13789215312178316,0.9076010579387569,-0.03614116199483576,-0.676333,-16.920671
11.185,2.0,1.0,1.0,33.3,34.6,34.6,3.3,1.9,2.735,0.16085157621154603,-0.14554412249355195,0.9041930133908866,-0.04295942683401207,-0.739467,-16.377324
11.185,2.0,1.0,1.0,33.3,34.6,34.6,3.3,1.9,2.7375,0.14199465089385405,-0.1537390036880786,0.8994853642252432,-0.050986318325205116,-0.813216,-15.811142
11.185,2.0,1.0,1.0,33.3,34.6,34.6,3.3,1.9,2.74,0.12245391034537793,-0.16247259993543503,0.8932076089351395,-0.06048776959072284,-0.900084,-15.220671
11.185,2.0,1.0,1.0,33.3,34.6,34.6,3.3,1.9,2.7425,0.10226563678854766,-0.17170560439990104,0.885021966230081,-0.07179636307283693,-1.003315,-14.604531
11.185,2.0,1.0,1.0,33.3,34.6,34.6,3.3,1.9,2.745,0.08152488896969913,-0.18133985639511094,0.8745075599274891,-0.0853269512643974,-1.127149,-13.96154
11.185,2.0,1.0,1.0,33.3,34.6,34.6,3.3,1.9,2.7475,0.06042312638094735,-0.19118084263981602,0.8611440079115967,-0.10159280831235212,-1.277155,-13.290938
11.185,2.0,1.0,1.0,33.3,34.6,34.6,3.3,1.9,2.75,0.0393068317606362,-0.200879325956079,0.844298764954044,-0.121217952459271,-1.460674,-12.592719
11.185,2.0,1.0,1.0,33.3,34.6,34.6,3.3,1.9,2.7525,0.018766660335213743,-0.2098426675883967,0.8232283655955034,-0.14493550093772276,-1.687337,-11.868178
11.185,2.0,1.0,1.0,33.3,34.6,34.6,3.3,1.9,2.755,-0.00023275075742274542,-0.21710585944785346,0.7971148953721885,-0.17355078922922862,-1.969581,-11.120744
11.185,2.0,1.0,1.0,33.3,34.6,34.6,3.3,1.9,2.7575,-0.016178763883938903,-0.22115892701056022,0.7651784646713777,-0.20782866694942725,-2.322804,-10.357214
11.185,2.0,1.0,1.0,33.3,34.6,34.6,3.3,1.9,2.76,-0.026815606647994567,-0.21975401098110378,0.7269342068559487,-0.24823689873349267,-2.764192,-9.589494
11.185,2.0,1.0,1.0,33.3,34.6,34.6,3.3,1.9,2.7625,-0.029021301058590267,-0.2097852904213351,0.682683870867621,-0.2944565007332057,-3.307766,-8.836762
11.185,2.0,1.0,1.0,33.3,34.6,34.6,3.3,1.9,2.765,-0.01898500530286033,-0.18746922639219654,0.634291787626384,-0.34461062822666383,-3.950329,-8.12758
11.185,2.0,1.0,1.0,33.3,34.6,34.6,3.3,1.9,2.7675,0.006934002404963665,-0.14920358267992612,0.5860719821486734,-0.39438636712656167,-4.640373,-7.500626
11.185,2.0,1.0,1.0,33.3,34.6,34.6,3.3,1.9,2.77,0.05037574772731628,-0.0933901433659109,0.5451141961184668,-0.4367198816267684,-5.233318,-7.001747
11.185,2.0,1.0,1.0,33.3,34.6,34.6,3.3,1.9,2.7725,0.10868565596764065,-0.022709309344293774,0.519939009022565,-0.46314634028255935,-5.495213,-6.675206
11.185,2.0,1.0,1.0,33.3,34.6,34.6,3.3,1.9,2.775,0.17400747166299446,0.054996257415530006,0.5170896847521753,-0.4671944911234579,-5.26279,-6.550278
11.185,2.0,1.0,1.0,33.3,34.6,34.6,3.3,1.9,2.7775,0.23560072411153932,0.12904578719917287,0.5375763756177264,-0.4479097944446479,-4.628157,-6.629882
11.185,2.0,1.0,1.0,33.3,34.6,34.6,3.3,1.9,2.78,0.284368516540581,0.19042519983019135,0.5763173701364097,-0.4103847376747744,-3.840424,-6.889301
11.185,2.0,1.0,1.0,33.3,34.6,34.6,3.3,1.9,2.7825,0.3160391623889099,0.2349332833297455,0.6251081282719686,-0.36278975598260943,-3.092362,-7.285998
11.185,2.0,1.0,1.0,33.3,34.6,34.6,3.3,1.9,2.785,0.3310665337175721,0.26306225741969474,0.6763193923719358,-0.3126983269516907,-2.46407,-7.773304
11.185,2.0,1.0,1.0,33.3,34.6,34.6,3.3,1.9,2.7875,0.33254977793185775,0.2779200514887441,0.7248339172536474,-0.26517369097992327,-1.965609,-8.310412
11.185,2.0,1.0,1.0,33.3,34.6,34.6,3.3,1.9,2.79,0.32421870781869194,0.28322831904638174,0.768100167198808,-0.2227261968610933,-1.579554,-8.866409
11.185,2.0,1.0,1.0,33.3,34.6,34.6,3.3,1.9,2.7925,0.30933151812970516,0.28223137326156206,0.8053521325473465,-0.18609413246412448,-1.282648,-9.420086
11.185,2.0,1.0,1.0,33.3,34.6,34.6,3.3,1.9,2.795,0.29033935404337735,0.2773670656634608,0.8368016218149579,-0.15504782950074114,-1.053883,-9.957977
11.185,2.0,1.0,1.0,33.3,34.6,34.6,3.3,1.9,2.7975,0.26893721905745693,0.27032013601911625,0.8630829816466163,-0.12894101621435425,-0.876507,-10.472136
11.185,2.0,1.0,1.0,33.3,34.6,34.6,3.3,1.9,2.8,0.24623673177011612,0.26219536323813813,0.8849432388428745,-0.1070177636034915,-0.737826,-10.958299
11.185,2.0,1.0,1.0,33.3,34.6,34.6,3.3,1.9,2.8025,0.22293944677733585,0.2536904750351375,0.9030950734942444,-0.0885576776799943,-0.62842,-11.414549
11.185,2.0,1.0,1.0,33.3,34.6,34.6,3.3,1.9,2.805,0.19947297915286308,0.24523167347562794,0.9181601747407754,-0.07293148484154552,-0.541339,-11.840401
11.185,2.0,1.0,1.0,33.3,34.6,34.6,3.3,1.9,2.8075,0.17608736811745843,0.23706945515703096,0.9306569694726252,-0.05961272161488552,-0.47145,-12.236214
11.185,2.0,1.0,1.0,33.3,34.6,34.6,3.3,1.9,2.81,0.15291980289896626,0.22934291627338751,0.9410075287469805,-0.04817051459181602,-0.414936,-12.602808
11.185,2.0,1.0,1.0,33.3,34.6,34.6,3.3,1.9,2.8125,0.130036879142507,0.222121709632018,0.949551114410257,-0.0382558594437119,-0.368939,-12.941229
11.185,2.0,1.0,1.0,33.3,34.6,34.6,3.3,1.9,2.815,0.1074617463452055,0.21543299249278,0.9565586522103413,-0.029587038685583208,-0.3313,-13.252604
11.185,2.0,1.0,1.0,33.3,34.6,34.6,3.3,1.9,2.8175,0.0851913776623199,0.20927857332531327,0.9622458290206135,-0.021936439239312645,-0.300371,-13.538049
11.185,2.0,1.0,1.0,33.3,34.6,34.6,3.3,1.9,2.82,0.06320747495230937,0.20364575128970472,0.9667841109351084,-0.015119450060057242,-0.274886,-13.79862
11.185,2.0,1.0,1.0,33.3,34.6,34.6,3.3,1.9,2.8225,0.04148330142582912,0.19851412684114356,0.9703096714477292,-0.008985437417260565,-0.253862,-14.035283
11.185,2.0,1.0,1.0,33.3,34.6,34.6,3.3,1.9,2.825,0.019987916569136857,0.19385984858457542,0.9729304791246379,-0.00341054010574326,-0.236531,-14.248899
11.185,2.0,1.0,1.0,33.3,34.6,34.6,3.3,1.9,2.8275,-0.001311244163555384,0.18965823276673272,0.9747318592306067,0.0017080360808386513,-0.222289,-14.440214
11.185,2.0,1.0,1.0,33.3,34.6,34.6,3.3,1.9,2.83,-0.022446843884103285,0.18588535287692376,0.975780827886026,0.006456528891256261,-0.210657,-14.60986
