1,w,sub_t,h,l1,l2,l3,g1,g2,Freq,S11_re,S21_re,S11_img,S21_img,S11_dB,S21_dB
11.185,2.0,1.0,1.0,34.4,34.8,34.8,3.4,2.8,2.5,0.714447682242807,-0.0140126089725841,0.68703594221539,0.00667902195286736,-0.076878,-36.180505
11.185,2.0,1.0,1.0,34.4,34.8,34.8,3.4,2.8,2.5025,0.7088354801551164,-0.014300526323833778,0.6926638705283109,0.006665033816999211,-0.077864,-36.039267
11.185,2.0,1.0,1.0,34.4,34.8,34.8,3.4,2.8,2.505,0.7031460743759587,-0.014594819837917635,0.6982753643774577,0.0066484274547801685,-0.078872,-35.897116
11.185,2.0,1.0,1.0,34.4,34.8,34.8,3.4,2.8,2.5075,0.6973785863079919,-0.01489567791575756,0.703869691403204,0.006629082951504636,-0.079905,-35.754026
11.185,2.0,1.0,1.0,34.4,34.8,34.8,3.4,2.8,2.51,0.6915321220238427,-0.015203296615900476,0.7094460962724767,0.006606874382661266,-0.080962,-35.609975
11.185,2.0,1.0,1.0,34.4,34.8,34.8,3.4,2.8,2.5125,0.6856057718693983,-0.01551788005657902,0.7150037998398567,0.00658166945028025,-0.082045,-35.464936
11.185,2.0,1.0,1.0,34.4,34.8,34.8,3.4,2.8,2.515,0.6795986100468819,-0.015839640843608973,0.7205419982693526,0.006553329092850471,-0.083155,-35.318886
11.185,2.0,1.0,1.0,34.4,34.8,34.8,3.4,2.8,2.5175,0.6735096941760961,-0.016168800526074556,0.726059862114242,0.006521707066547071,-0.084292,-35.171796
11.185,2.0,1.0,1.0,34.4,34.8,34.8,3.4,2.8,2.52,0.6673380648320252,-0.01650559008192126,0.7315565353521679,0.0064866494952869275,-0.085457,-35.02364
11.185,2.0,1.0,1.0,34.4,34.8,34.8,3.4,2.8,2.5225,0.6610827450568686,-0.016850250435759436,0.7370311343723936,0.006447994386883778,-0.086652,-34.874389
11.185,2.0,1.0,1.0,34.4,34.8,34.8,3.4,2.8,2.525,0.6547427398443335,-0.01720303301138553,0.742482746911873,0.006405571112298207,-0.087878,-34.724014
11.185,2.0,1.0,1.0,34.4,34.8,34.8,3.4,2.8,2.5275,0.6483170355938406,-0.01756420032175101,0.7479104309364417,0.006359199844672887,-0.089135,-34.572486
11.185,2.0,1.0,1.0,34.4,34.8,34.8,3.4,2.8,2.53,0.6418045995320706,-0.017934026599351127,0.7533132134631176,0.006308690954501735,-0.090426,-34.419771
11.185,2.0,1.0,1.0,34.4,34.8,34.8,3.4,2.8,2.5325,0.6352043790989986,-0.0183127984702774,0.7586900893190733,0.006253844356899607,-0.091751,-34.265839
11.185,2.0,1.0,1.0,34.4,34.8,34.8,3.4,2.8,2.535,0.6285153012953026,-0.018700815675473277,0.7640400198324474,0.006194448806513802,-0.093111,-34.110656
11.185,2.0,1.0,1.0,34.4,34.8,34.8,3.4,2.8,2.5375,0.6217362719877266,-0.019098391843058112,0.7693619314496354,0.006130281135141322,-0.094508,-33.954188
11.185,2.0,1.0,1.0,34.4,34.8,34.8,3.4,2.8,2.54,0.6148661751686113,-0.019505855315946487,0.7746547142731869,0.006061105426580112,-0.095944,-33.796397
11.185,2.0,1.0,1.0,34.4,34.8,34.8,3.4,2.8,2.5425,0.6079038721654454,-0.01992355003938669,0.7799172205138092,0.005986672122642831,-0.09742,-33.637247
11.185,2.0,1.0,1.0,34.4,34.8,34.8,3.4,2.8,2.545,0.6008482007958557,-0.020351836513482085,0.7851482628492861,0.005906717053586802,-0.098937,-33.476699
11.185,2.0,1.0,1.0,34.4,34.8,34.8,3.4,2.8,2.5475,0.5936979744629998,-0.020791092816244527,0.7903466126823672,0.005820960385452677,-0.100499,-33.314714
11.185,2.0,1.0,1.0,34.4,34.8,34.8,3.4,2.8,2.55,0.586451981185771,-0.021241715703268868,0.7955109982888007,0.005729105475949647,-0.102105,-33.151249
11.185,2.0,1.0,1.0,34.4,34.8,34.8,3.4,2.8,2.5525,0.5791089825577004,-0.021704121790710185,0.800640102845696,0.00563083762955679,-0.103759,-32.986261
11.185,2.0,1.0,1.0,34.4,34.8,34.8,3.4,2.8,2.555,0.5716677126277349,-0.022178748828910473,0.80573256232932,0.005525822741416546,-0.105462,-32.819705
11.185,2.0,1.0,1.0,34.4,34.8,34.8,3.4,2.8,2.5575,0.5641268766953972,-0.02266605707475122,0.8107869632701472,0.005413705818358698,-0.107217,-32.651535
11.185,2.0,1.0,1.0,34.4,34.8,34.8,3.4,2.8,2.56,0.5564851500120245,-0.02316653077162468,0.8158018403515851,0.00529410936398849,-0.109026,-32.481701
11.185,2.0,1.0,1.0,34.4,34.8,34.8,3.4,2.8,2.5625,0.5487411763788869,-0.023680679746821535,0.8207756738371704,0.005166631613175677,-0.110891,-32.310153
11.185,2.0,1.0,1.0,34.4,34.8,34.8,3.4,2.8,2.565,0.54089356663199,-0.0242090411371399,0.8257068868092009,0.005030844599465995,-0.112816,-32.136838
11.185,2.0,1.0,1.0,34.4,34.8,34.8,3.4,2.8,2.5675,0.5329408970022921,-0.024752181254641438,0.8305938421996726,0.004886292036865455,-0.114802,-31.9617
11.185,2.0,1.0,1.0,34.4,34.8,34.8,3.4,2.8,2.57,0.5248817073387813,-0.025310697605730157,0.835434839592008,0.0047324869950822225,-0.116854,-31.784682
11.185,2.0,1.0,1.0,34.4,34.8,34.8,3.4,2.8,2.5725,0.5167144991805191,-0.025885221078123726,0.8402281117693254,0.004568909344606133,-0.118974,-31.605725
11.185,2.0,1.0,1.0,34.4,34.8,34.8,3.4,2.8,2.575,0.5084377336621893,-0.02647641831184016,0.8449718209818652,0.00439500294490278,-0.121165,-31.424765
11.185,2.0,1.0,1.0,34.4,34.8,34.8,3.4,2.8,2.5775,0.500049829235983,-0.027084994272058644,0.8496640549026085,0.004210172545437528,-0.123432,-31.241736
11.185,2.0,1.0,1.0,34.4,34.8,34.8,3.4,2.8,2.58,0.4915491591907039,-0.027711695043654835,0.8543028222359607,0.004013780365144823,-0.125778,-31.056571
11.185,2.0,1.0,1.0,34.4,34.8,34.8,3.4,2.8,2.5825,0.4829340489468188,-0.02835731086937694,0.858886047939638,0.0038051423112300466,-0.128208,-30.869197
11.185,2.0,1.0,1.0,34.4,34.8,34.8,3.4,2.8,2.585,0.4742027731037613,-0.029022679456054523,0.8634115680143503,0.0035835237927308544,-0.130726,-30.679539
11.185,2.0,1.0,1.0,34.4,34.8,34.8,3.4,2.8,2.5875,0.4653535522130792,-0.029708689575944792,0.8678771238095287,0.003348135077936356,-0.133337,-30.487518
11.185,2.0,1.0,1.0,34.4,34.8,34.8,3.4,2.8,2.59,0.45638454924797606,-0.030416284993355344,0.87228035578591,0.0030981261374245788,-0.136046,-30.293051
11.185,2.0,1.0,1.0,34.4,34.8,34.8,3.4,2.8,2.5925,0.44729386573638685,-0.031146468750082035,0.8766187966672128,0.0028325809059378056,-0.138859,-30.096052
11.185,2.0,1.0,1.0,34.4,34.8,34.8,3.4,2.8,2.595,0.43807953752092815,-0.03190030784699647,0.880889863903072,0.0025505108863621145,-0.141782,-29.896429
11.185,2.0,1.0,1.0,34.4,34.8,34.8,3.4,2.8,2.5975,0.42873953010476057,-0.03267893836337498,0.8850908513537009,0.0022508480074417713,-0.144822,-29.694086
11.185,2.0,1.0,1.0,34.4,34.8,34.8,3.4,2.8,2.6,0.41927173353764724,-0.033483571060307776,0.8892189200929873,0.0019324366332315983,-0.147986,-29.488923
11.185,2.0,1.0,1.0,34.4,34.8,34.8,3.4,2.8,2.6025,0.4096739567911424,-0.03431549751983508,0.8932710882105993,0.0015940246062793118,-0.151281,-29.280833
11.185,2.0,1.0,1.0,34.4,34.8,34.8,3.4,2.8,2.605,0.3999439215658584,-0.03517609687737681,0.8972442194746748,0.0012342531876815739,-0.154716,-29.069703
11.185,2.0,1.0,1.0,34.4,34.8,34.8,3.4,2.8,2.6075,0.3900792554671446,-0.03606684321160377,0.9011350106942392,0.0008516457348954745,-0.158301,-28.855417
11.185,2.0,1.0,1.0,34.4,34.8,34.8,3.4,2.8,2.61,0.3800774844781057,-0.03698931366321014,0.9049399775939068,0.0004445949318336353,-0.162045,-28.637847
11.185,2.0,1.0,1.0,34.4,34.8,34.8,3.4,2.8,2.6125,0.3699360246507242,-0.037945197362130825,0.908655438981912,1.134835447410036e-05,-0.165959,-28.416863
11.185,2.0,1.0,1.0,34.4,34.8,34.8,3.4,2.8,2.615,0.3596521729268359,-0.038936305251645216,0.9122774989549137,-0.0004500078820546731,-0.170056,-28.192325
11.185,2.0,1.0,1.0,34.4,34.8,34.8,3.4,2.8,2.6175,0.3492230969908649,-0.039964580907538794,0.9158020268381664,-0.00094156769347516,-0.174348,-27.964085
11.185,2.0,1.0,1.0,34.4,34.8,34.8,3.4,2.8,2.62,0.33864582404550264,-0.04103211246105021,0.9192246345058703,-0.001465626165361266,-0.178849,-27.731985
11.185,2.0,1.0,1.0,34.4,34.8,34.8,3.4,2.8,2.6225,0.32791722839001913,-0.04214114574564135,0.9225406506618672,-0.002024703677188052,-0.183576,-27.49586
11.185,2.0,1.0,1.0,34.4,34.8,34.8,3.4,2.8,2.625,0.317034017668793,-0.0432940987995542,0.925745091582876,-0.00262157350483696,-0.188546,-27.255531
11.185,2.0,1.0,1.0,34.4,34.8,34.8,3.4,2.8,2.6275,0.30599271764504726,-0.04449357786841308,0.9288326277321103,-0.003259293488596141,-0.193779,-27.010811
11.185,2.0,1.0,1.0,34.4,34.8,34.8,3.4,2.8,2.63,0.2947896553423374,-0.045742395064342425,0.93179754553648,-0.003941242467409732,-0.199295,-26.7615
11.185,2.0,1.0,1.0,34.4,34.8,34.8,3.4,2.8,2.6325,0.28342094038449583,-0.04704358784954622,0.9346337034808718,-0.004671162318758244,-0.205119,-26.507382
11.185,2.0,1.0,1.0,34.4,34.8,34.8,3.4,2.8,2.635,0.2718824443547111,-0.04840044052195834,0.9373344815020446,-0.005453206613169293,-0.211277,-26.24823
11.185,2.0,1.0,1.0,34.4,34.8,34.8,3.4,2.8,2.6375,0.2601697779877154,-0.049816507886862066,0.9398927224546656,-0.006291997100699566,-0.217799,-25.9838
11.185,2.0,1.0,1.0,34.4,34.8,34.8,3.4,2.8,2.64,0.24827826600799666,-0.05129564129891563,0.9423006641630732,-0.0071926895036581616,-0.224718,-25.71383
11.185,2.0,1.0,1.0,34.4,34.8,34.8,3.4,2.8,2.6425,0.23620291943517083,-0.05284201725032927,0.9445498602516723,-0.008161050407958536,-0.232071,-25.438038
11.185,2.0,1.0,1.0,34.4,34.8,34.8,3.4,2.8,2.645,0.22393840520007385,-0.05446016865790143,0.9466310875481692,-0.009203547441045613,-0.239901,-25.156126
11.185,2.0,1.0,1.0,34.4,34.8,34.8,3.4,2.8,2.6475,0.21147901295946478,-0.05615501895673145,0.9485342373559739,-0.010327455418267469,-0.248254,-24.867767
11.185,2.0,1.0,1.0,34.4,34.8,34.8,3.4,2.8,2.65,0.1988186190742819,-0.05793191903074059,0.9502481872676356,-0.011540981759032981,-0.257184,-24.572615
11.185,2.0,1.0,1.0,34.4,34.8,34.8,3.4,2.8,2.6525,0.18595064784250132,-0.05979668688359314,0.9517606494045003,-0.01285341525446529,-0.266754,-24.270292
11.185,2.0,1.0,1.0,34.4,34.8,34.8,3.4,2.8,2.655,0.17286803027597167,-0.06175564975479323,0.9530579899722496,-0.014275303255775428,-0.277032,-23.960393
11.185,2.0,1.0,1.0,34.4,34.8,34.8,3.4,2.8,2.6575,0.15956316101623208,-0.0638156880801374,0.9541250137564087,-0.01581866360787601,-0.2881,-23.642477
11.185,2.0,1.0,1.0,34.4,34.8,34.8,3.4,2.8,2.66,0.14602785444777383,-0.06598428023262998,0.9549447055657199,-0.017497239255730088,-0.30005,-23.316068
11.185,2.0,1.0,1.0,34.4,34.8,34.8,3.4,2.8,2.6625,0.13225330176419986,-0.0682695462843762,0.9554979185580866,-0.019326805507055667,-0.312989,-22.980647
11.185,2.0,1.0,1.0,34.4,34.8,34.8,3.4,2.8,2.665,0.1182300317850967,-0.07068028799040228,0.9557629967125949,-0.021325542583954638,-0.327042,-22.635651
11.185,2.0,1.0,1.0,34.4,34.8,34.8,3.4,2.8,2.6675,0.10394787987681377,-0.07322602064524357,0.9557153152551899,-0.023514489522912806,-0.342355,-22.280466
11.185,2.0,1.0,1.0,34.4,34.8,34.8,3.4,2.8,2.67,0.08939597165018877,-0.07591699015227042,0.9553267183571327,-0.025918099932840485,-0.359098,-21.914422
11.185,2.0,1.0,1.0,34.4,34.8,34.8,3.4,2.8,2.6725,0.07456273157370222,-0.07876416519541418,0.9545648275767258,-0.028564925918915886,-0.377474,-21.536784
11.185,2.0,1.0,1.0,34.4,34.8,34.8,3.4,2.8,2.675,0.05943593183170865,-0.08177918923649202,0.9533921868748357,-0.031488464052859426,-0.397722,-21.14675
11.185,2.0,1.0,1.0,34.4,34.8,34.8,3.4,2.8,2.6775,0.04400280456497744,-0.08497426929365927,0.9517652000418816,-0.03472820717358362,-0.420131,-20.743438
11.185,2.0,1.0,1.0,34.4,34.8,34.8,3.4,2.8,2.68,0.028250252432337305,-0.08836196671913162,0.9496328033107171,-0.03833095874562882,-0.445044,-20.325878
11.185,2.0,1.0,1.0,34.4,34.8,34.8,3.4,2.8,2.6825,0.012165210374527035,-0.09195483735480196,0.9469347989092011,-0.042352483362819944,-0.472882,-19.893005
11.185,2.0,1.0,1.0,34.4,34.8,34.8,3.4,2.8,2.685,-0.004264761084123834,-0.09576484115455439,0.9435997532992358,-0.04685958877644432,-0.504155,-19.443646
11.185,2.0,1.0,1.0,34.4,34.8,34.8,3.4,2.8,2.6875,-0.0210505283603086,-0.0998023993264239,0.939542335814186,-0.0519327625748295,-0.539493,-18.97651
11.185,2.0,1.0,1.0,34.4,34.8,34.8,3.4,2.8,2.69,-0.03819989488934272,-0.10407491183691622,0.9346599386591923,-0.057669521008906946,-0.579679,-18.490177
11.185,2.0,1.0,1.0,34.4,34.8,34.8,3.4,2.8,2.6925,-0.055715277920809984,-0.10858444624914045,0.9288283783491733,-0.06418866785543854,-0.625692,-17.983089
11.185,2.0,1.0,1.0,34.4,34.8,34.8,3.4,2.8,2.695,-0.073590099918442,-0.11332414871274002,0.9218964355013237,-0.07163570375175375,-0.678772,-17.453544
11.185,2.0,1.0,1.0,34.4,34.8,34.8,3.4,2.8,2.6975,-0.09180318756820893,-0.11827267488190223,0.9136789561523015,-0.08018965946765841,-0.740503,-16.899696
11.185,2.0,1.0,1.0,34.4,34.8,34.8,3.4,2.8,2.7,-0.11031006759143841,-0.12338553775211088,0.903948242617859,-0.09007162103702539,-0.812932,-16.319571
11.185,2.0,1.0,1.0,34.4,34.8,34.8,3.4,2.8,2.7025,-0.1290294101114265,-0.12858163592066396,0.8924235726236354,-0.10155510363223792,-0.898729,-15.711095
11.185,2.0,1.0,1.0,34.4,34.8,34.8,3.4,2.8,2.705,-0.14782187096579757,-0.1337222345322361,0.8787590504551008,-0.11497806696517968,-1.001419,-15.072174
11.185,2.0,1.0,1.0,34.4,34.8,34.8,3.4,2.8,2.7075,-0.1664570584812853,-0.13857815836211668,0.8625309312513872,-0.13075543186582936,-1.125698,-14.400827
11.185,2.0,1.0,1.0,34.4,34.8,34.8,3.4,2.8,2.71,-0.18456214497104165,-0.142778771579124,0.8432277321113896,-0.14938879738464575,-1.277877,-13.695437
11.185,2.0,1.0,1.0,34.4,34.8,34.8,3.4,2.8,2.7125,-0.20154283975260376,-0.1457335446596595,0.8202511818799644,-0.17146534986449713,-1.466477,-12.95518
11.185,2.0,1.0,1.0,34.4,34.8,34.8,3.4,2.8,2.715,-0.216465065633977,-0.14651466930434537,0.7929458661597582,-0.19762821957687465,-1.702973,-12.180762
11.185,2.0,1.0,1.0,34.4,34.8,34.8,3.4,2.8,2.7175,-0.22788768126543277,-0.14369120157143264,0.7606943823894377,-0.22848172702923789,-2.002538,-11.375641
11.185,2.0,1.0,1.0,34.4,34.8,34.8,3.4,2.8,2.72,-0.23365453084079255,-0.13512307681117086,0.723147340863138,-0.26436271408861434,-2.384206,-10.547979
11.185,2.0,1.0,1.0,34.4,34.8,34.8,3.4,2.8,2.7225,-0.2307155611883248,-0.11778441573104786,0.6806995313222246,-0.3048675927715295,-2.868611,-9.713579
11.185,2.0,1.0,1.0,34.4,34.8,34.8,3.4,2.8,2.725,-0.21519911535972622,-0.087836790457496,0.635331045571659,-0.34801759897203144,-3.468298,-8.899778
11.185,2.0,1.0,1.0,34.4,34.8,34.8,3.4,2.8,2.7275,-0.18321856224366187,-0.0414319158277539,0.5917534874642981,-0.38912253188648066,-4.159615,-8.149314
11.185,2.0,1.0,1.0,34.4,34.8,34.8,3.4,2.8,2.73,-0.1330305115545797,0.023144798396471017,0.5581634761244442,-0.42003669138479244,-4.824827,-7.521089
11.185,2.0,1.0,1.0,34.4,34.8,34.8,3.4,2.8,2.7325,-0.06834187078955234,0.10219410141206205,0.5448957148847454,-0.43050173635921885,-5.205947,-7.082419
11.185,2.0,1.0,1.0,34.4,34.8,34.8,3.4,2.8,2.735,-0.00014906568763075264,0.18478597076263645,0.559581051019676,-0.4129560869554659,-5.04274,-6.889276
11.185,2.0,1.0,1.0,34.4,34.8,34.8,3.4,2.8,2.7375,0.05674223222317173,0.2562246026475821,0.6013508260852936,-0.36828146817409807,-4.378946,-6.961944
11.185,2.0,1.0,1.0,34.4,34.8,34.8,3.4,2.8,2.74,0.09143855088536491,0.3057138608131832,0.6602828682534378,-0.30633883017084135,-3.5229,-7.274519
11.185,2.0,1.0,1.0,34.4,34.8,34.8,3.4,2.8,2.7425,0.10170180744744063,0.3310544799623942,0.7234316946443551,-0.23997396763204626,-2.727055,-7.768038
11.185,2.0,1.0,1.0,34.4,34.8,34.8,3.4,2.8,2.745,0.09208436062581504,0.3367812741470863,0.7811456687436735,-0.17875036151207466,-2.085423,-8.375153
11.185,2.0,1.0,1.0,34.4,34.8,34.8,3.4,2.8,2.7475,0.06932627393800565,0.32959087098192996,0.8289524398378246,-0.12708613455445922,-1.599138,-9.038514
11.185,2.0,1.0,1.0,34.4,34.8,34.8,3.4,2.8,2.75,0.0392589265021154,0.315270752158422,0.866173443751462,-0.0856350531326416,-1.23899,-9.717175
11.185,2.0,1.0,1.0,34.4,34.8,34.8,3.4,2.8,2.7525,0.0058866611305838385,0.29779132457614904,0.8939724262261932,-0.053225274033104175,-0.973329,-10.385191
11.185,2.0,1.0,1.0,34.4,34.8,34.8,3.4,2.8,2.755,-0.028390555210461053,0.2795293611929239,0.9140564959164773,-0.02814824121284588,-0.776352,-11.027635
11.185,2.0,1.0,1.0,34.4,34.8,34.8,3.4,2.8,2.7575,-0.062274401002935104,0.26176815668600023,0.9280625939084385,-0.008766702056014377,-0.628944,-11.636795
11.185,2.0,1.0,1.0,34.4,34.8,34.8,3.4,2.8,2.76,-0.0951371393878933,0.24512578053863346,0.9373500872688582,0.006280265574399837,-0.517454,-12.20937
11.185,2.0,1.0,1.0,34.4,34.8,34.8,3.4,2.8,2.7625,-0.12673039368919187,0.22984418317539038,0.9429773026516742,0.01805454598781825,-0.432234,-12.744615
11.185,2.0,1.0,1.0,34.4,34.8,34.8,3.4,2.8,2.765,-0.15700823030162317,0.21596471896785224,0.945743282529011,0.02736080778898461,-0.366458,-13.24319
11.185,2.0,1.0,1.0,34.4,34.8,34.8,3.4,2.8,2.7675,-0.18602568897126223,0.20342875587628673,0.9462429922148173,0.03480154112430248,-0.315258,-13.706474
11.185,2.0,1.0,1.0,34.4,34.8,34.8,3.4,2.8,2.77,-0.2138827423548135,0.19213320267729062,0.9449172143341229,0.040826743318266016,-0.275128,-14.136154
11.185,2.0,1.0,1.0,34.4,34.8,34.8,3.4,2.8,2.7725,-0.24069436513693862,0.18196013913928605,0.942092347924083,0.045773543104473895,-0.243514,-14.533992
11.185,2.0,1.0,1.0,34.4,34.8,34.8,3.4,2.8,2.775,-0.26657520990732736,0.17279196579733286,0.9380104618307005,0.04989613353795828,-0.218533,-14.901702
11.185,2.0,1.0,1.0,34.4,34.8,34.8,3.4,2.8,2.7775,-0.2916322963140518,0.16451861426785716,0.9328514138650557,0.05338782562181977,-0.198779,-15.240873
11.185,2.0,1.0,1.0,34.4,34.8,34.8,3.4,2.8,2.78,-0.3159620087685177,0.15704049146777735,0.9267489482069273,0.05639712981471981,-0.183193,-15.552941
11.185,2.0,1.0,1.0,34.4,34.8,34.8,3.4,2.8,2.7825,-0.33964934598851315,0.15026919583673493,0.9198023688782284,0.05903945752471469,-0.170968,-15.839175
11.185,2.0,1.0,1.0,34.4,34.8,34.8,3.4,2.8,2.785,-0.36276829184682363,0.1441271249611231,0.9120850101264323,0.061405659226131566,-0.161483,-16.100673
11.185,2.0,1.0,1.0,34.4,34.8,34.8,3.4,2.8,2.7875,-0.38538269363927974,0.13854658166235218,0.90365039861872,0.06356829190856474,-0.154259,-16.338371
11.185,2.0,1.0,1.0,34.4,34.8,34.8,3.4,2.8,2.79,-0.40754732075567424,0.1334687011613723,0.894536750326102,0.06558625857352972,-0.148921,-16.553042
11.185,2.0,1.0,1.0,34.4,34.8,34.8,3.4,2.8,2.7925,-0.4293089352211335,0.12884236472614619,0.8847702596221506,0.06750827908073499,-0.145176,-16.745311
11.185,2.0,1.0,1.0,34.4,34.8,34.8,3.4,2.8,2.795,-0.4507072923946545,0.12462317895566839,0.8743675049909947,0.06937552041580951,-0.142792,-16.915658
11.185,2.0,1.0,1.0,34.4,34.8,34.8,3.4,2.8,2.7975,-0.4717760369273615,0.1207725531231604,0.863337201063752,0.07122362173572366,-0.141589,-17.064427
11.185,2.0,1.0,1.0,34.4,34.8,34.8,3.4,2.8,2.8,-0.4925434835813499,0.11725688221838339,0.8516814594708193,0.07308428446248832,-0.141424,-17.191829
11.185,2.0,1.0,1.0,34.4,34.8,34.8,3.4,2.8,2.8025,-0.51303328457829,0.11404683063883082,0.8393966730191105,0.07498655219362094,-0.142189,-17.29795
11.185,2.0,1.0,1.0,34.4,34.8,34.8,3.4,2.8,2.805,-0.53326499030817,0.11111670533131873,0.8264741030833931,0.07695787355348024,-0.1438,-17.382748
11.185,2.0,1.0,1.0,34.4,34.8,34.8,3.4,2.8,2.8075,-0.5532545115454751,0.10844390443319263,0.8129002246506665,0.07902501934073597,-0.146196,-17.446061
11.185,2.0,1.0,1.0,34.4,34.8,34.8,3.4,2.8,2.81,-0.573014490455006,0.10600842629866444,0.7986568641950322,0.08121491071562856,-0.149337,-17.487598
11.185,2.0,1.0,1.0,34.4,34.8,34.8,3.4,2.8,2.8125,-0.592554585470762,0.10379242314686,0.78372115033171,0.0835554059051189,-0.153198,-17.506947
11.185,2.0,1.0,1.0,34.4,34.8,34.8,3.4,2.8,2.815,-0.6118816719527121,0.10177978274159995,0.7680652843886452,0.08607608783250313,-0.157773,-17.503561
11.185,2.0,1.0,1.0,34.4,34.8,34.8,3.4,2.8,2.8175,-0.63099995638975,0.09995571998117352,0.7516561263592573,0.08880909354602942,-0.16307,-17.476762
11.185,2.0,1.0,1.0,34.4,34.8,34.8,3.4,2.8,2.82,-0.6499109965782426,0.09830635752656271,0.7344545800429934,0.09179002807739159,-0.169117,-17.425723
11.185,2.0,1.0,1.0,34.4,34.8,34.8,3.4,2.8,2.8225,-0.6686136131454985,0.09681827000246142,0.7164147484509017,0.09505901051907327,-0.175957,-17.349464
11.185,2.0,1.0,1.0,34.4,34.8,34.8,3.4,2.8,2.825,-0.6871036681378504,0.09547795898522923,0.697482815552672,0.09866190915809692,-0.183654,-17.246837
11.185,2.0,1.0,1.0,34.4,34.8,34.8,3.4,2.8,2.8275,-0.7053736727760432,0.0942712146144249,0.6775955917135901,0.10265183636884222,-0.192298,-17.11651
11.185,2.0,1.0,1.0,34.4,34.8,34.8,3.4,2.8,2.83,-0.723412166724038,0.09318230215105057,0.6566786358183908,0.10709099413410854,-0.202004,-16.956943
