1,w,sub_t,h,l1,l2,l3,g1,g2,Freq,S11_re,S21_re,S11_img,S21_img,S11_dB,S21_dB
11.185,2.0,1.0,1.0,33.1,33.2,33.2,2.7,4.3,2.5,0.889763001857479,-0.00469174631037492,0.443799401064589,0.00409016166646247,-0.049635,-44.11819
11.185,2.0,1.0,1.0,33.1,33.2,33.2,2.7,4.3,2.5025,0.8869380656186415,-0.004786934943524908,0.44931376903552583,0.0041092626731599555,-0.050049,-44.001084
11.185,2.0,1.0,1.0,33.1,33.2,33.2,2.7,4.3,2.505,0.8840677372523846,-0.004883690456701833,0.4548303382780093,0.004127903804581586,-0.050469,-43.883827
11.185,2.0,1.0,1.0,33.1,33.2,33.2,2.7,4.3,2.5075,0.8811515962242834,-0.004982040121613039,0.46034895225231254,0.0041460664328419996,-0.050895,-43.766412
11.185,2.0,1.0,1.0,33.1,33.2,33.2,2.7,4.3,2.51,0.8781892152913698,-0.005082011792053054,0.46586944968333227,0.004163731306521732,-0.051329,-43.648833
11.185,2.0,1.0,1.0,33.1,33.2,33.2,2.7,4.3,2.5125,0.8751801603900023,-0.005183633918172645,0.4713916644036962,0.004180878527933627,-0.051769,-43.531083
11.185,2.0,1.0,1.0,33.1,33.2,33.2,2.7,4.3,2.515,0.8721239905220385,-0.005286935561126471,0.47691542519178987,0.004197487529479069,-0.052217,-43.413154
11.185,2.0,1.0,1.0,33.1,33.2,33.2,2.7,4.3,2.5175,0.869020257639301,-0.005391946408109756,0.4824405556045073,0.004213537049053846,-0.052672,-43.295038
11.185,2.0,1.0,1.0,33.1,33.2,33.2,2.7,4.3,2.52,0.8658685065263255,-0.005498696787794711,0.4879668738045671,0.004229005104461398,-0.053134,-43.17673
11.185,2.0,1.0,1.0,33.1,33.2,33.2,2.7,4.3,2.5225,0.8626682746813883,-0.0056072176861773635,0.49349419238217695,0.0042438689667894216,-0.053604,-43.058222
11.185,2.0,1.0,1.0,33.1,33.2,33.2,2.7,4.3,2.525,0.8594190921957983,-0.005717540762846216,0.4990223181708769,0.004258105132703263,-0.054082,-42.939505
11.185,2.0,1.0,1.0,33.1,33.2,33.2,2.7,4.3,2.5275,0.8561204816314526,-0.00582969836768405,0.5045510520573439,0.0042716892956073645,-0.054567,-42.820574
11.185,2.0,1.0,1.0,33.1,33.2,33.2,2.7,4.3,2.53,0.8527719578966511,-0.005943723558014577,0.5100801887849495,0.004284596315623772,-0.055061,-42.701421
11.185,2.0,1.0,1.0,33.1,33.2,33.2,2.7,4.3,2.5325,0.8493730281201682,-0.006059650116205726,0.5156095167508526,0.004296800188333714,-0.055563,-42.582037
11.185,2.0,1.0,1.0,33.1,33.2,33.2,2.7,4.3,2.535,0.8459231915235753,-0.00617751256774236,0.521138817796404,0.004308274012226366,-0.056073,-42.462417
11.185,2.0,1.0,1.0,33.1,33.2,33.2,2.7,4.3,2.5375,0.8424219392918247,-0.006297346199780116,0.5266678669906165,0.004318989954794854,-0.056592,-42.342551
11.185,2.0,1.0,1.0,33.1,33.2,33.2,2.7,4.3,2.54,0.8388687544420892,-0.006419187080193819,0.5321964324064681,0.004328919217217805,-0.05712,-42.222434
11.185,2.0,1.0,1.0,33.1,33.2,33.2,2.7,4.3,2.5425,0.8352631116908683,-0.006543072077133214,0.5377242748897786,0.004338031997560728,-0.057656,-42.102056
11.185,2.0,1.0,1.0,33.1,33.2,33.2,2.7,4.3,2.545,0.8316044773193638,-0.006669038879099403,0.543251147820397,0.00434629745242833,-0.058202,-41.981411
11.185,2.0,1.0,1.0,33.1,33.2,33.2,2.7,4.3,2.5475,0.8278923090371428,-0.006797126015555411,0.5487767968654205,0.004353683656995745,-0.058758,-41.86049
11.185,2.0,1.0,1.0,33.1,33.2,33.2,2.7,4.3,2.55,0.8241260558440885,-0.006927372878084949,0.5543009597241754,0.004360157563342009,-0.059323,-41.739286
11.185,2.0,1.0,1.0,33.1,33.2,33.2,2.7,4.3,2.5525,0.8203051578906705,-0.007059819742113165,0.5598233658646432,0.004365684957006288,-0.059898,-41.617791
11.185,2.0,1.0,1.0,33.1,33.2,33.2,2.7,4.3,2.555,0.8164290463365407,-0.007194507789203804,0.5653437362510427,0.004370230411681961,-0.060482,-41.495997
11.185,2.0,1.0,1.0,33.1,33.2,33.2,2.7,4.3,2.5575,0.812497143207481,-0.0073314791299474375,0.570861783062245,0.004373757241960317,-0.061078,-41.373896
11.185,2.0,1.0,1.0,33.1,33.2,33.2,2.7,4.3,2.56,0.8085088612507324,-0.007470776827455139,0.5763772094006818,0.004376227454029914,-0.061683,-41.25148
11.185,2.0,1.0,1.0,33.1,33.2,33.2,2.7,4.3,2.5625,0.8044636037887309,-0.007612444921472941,0.5818897089914125,0.00437760169423371,-0.0623,-41.12874
11.185,2.0,1.0,1.0,33.1,33.2,33.2,2.7,4.3,2.565,0.8003607645712841,-0.007756528453131871,0.5873989658709883,0.004377839195379442,-0.062927,-41.005669
11.185,2.0,1.0,1.0,33.1,33.2,33.2,2.7,4.3,2.5675,0.7961997276262325,-0.007903073490349008,0.5929046540657366,0.00437689772069493,-0.063566,-40.882257
11.185,2.0,1.0,1.0,33.1,33.2,33.2,2.7,4.3,2.57,0.79197986710863,-0.00805212715389477,0.5984064372590855,0.0043747335053119975,-0.064217,-40.758498
11.185,2.0,1.0,1.0,33.1,33.2,33.2,2.7,4.3,2.5725,0.7877005471484999,-0.008203737644142301,0.6039039684475216,0.004371301195158159,-0.064879,-40.634381
11.185,2.0,1.0,1.0,33.1,33.2,33.2,2.7,4.3,2.575,0.7833611216972122,-0.008357954268514097,0.6093968895847642,0.004366553783127583,-0.065553,-40.509898
11.185,2.0,1.0,1.0,33.1,33.2,33.2,2.7,4.3,2.5775,0.7789609343725479,-0.008514827469641766,0.6148848312137181,0.004360442542395919,-0.06624,-40.385042
11.185,2.0,1.0,1.0,33.1,33.2,33.2,2.7,4.3,2.58,0.7744993183025132,-0.008674408854254462,0.6203674120857486,0.004352916956736418,-0.066939,-40.259802
11.185,2.0,1.0,1.0,33.1,33.2,33.2,2.7,4.3,2.5825,0.7699755959679749,-0.008836751222811516,0.6258442387668154,0.004343924647686068,-0.067651,-40.13417
11.185,2.0,1.0,1.0,33.1,33.2,33.2,2.7,4.3,2.585,0.7653890790441958,-0.009001908599894727,0.6313149052299628,0.004333411298403107,-0.068377,-40.008137
11.185,2.0,1.0,1.0,33.1,33.2,33.2,2.7,4.3,2.5875,0.7607390682413574,-0.009169936265375787,0.6367789924336656,0.0043213205740467945,-0.069116,-39.881694
11.185,2.0,1.0,1.0,33.1,33.2,33.2,2.7,4.3,2.59,0.7560248531441649,-0.009340890786373604,0.6422360678854852,0.004307594038502279,-0.069869,-39.754831
11.185,2.0,1.0,1.0,33.1,33.2,33.2,2.7,4.3,2.5925,0.7512457120506334,-0.009514830050016545,0.6476856851904943,0.004292171067261985,-0.070637,-39.627539
11.185,2.0,1.0,1.0,33.1,33.2,33.2,2.7,4.3,2.595,0.7464009118101762,-0.009691813297023703,0.6531273835838759,0.0042749887562647405,-0.071419,-39.499809
11.185,2.0,1.0,1.0,33.1,33.2,33.2,2.7,4.3,2.5975,0.7414897076611042,-0.009871901156119512,0.6585606874471085,0.004255981826482386,-0.072216,-39.371631
11.185,2.0,1.0,1.0,33.1,33.2,33.2,2.7,4.3,2.6,0.736511343067677,-0.010055155679294594,0.6639851058071021,0.004235082524030621,-0.073028,-39.242995
11.185,2.0,1.0,1.0,33.1,33.2,33.2,2.7,4.3,2.6025,0.731465049556849,-0.010241640377925585,0.669400131817624,0.004212220515568938,-0.073857,-39.113891
11.185,2.0,1.0,1.0,33.1,33.2,33.2,2.7,4.3,2.605,0.726350046554857,-0.01043142025976575,0.6748052422223441,0.004187322778739162,-0.074701,-38.984309
11.185,2.0,1.0,1.0,33.1,33.2,33.2,2.7,4.3,2.6075,0.721165541223825,-0.010624561866817301,0.6801998967987747,0.0041603134873785825,-0.075562,-38.85424
11.185,2.0,1.0,1.0,33.1,33.2,33.2,2.7,4.3,2.61,0.7159107282985624,-0.010821133314094535,0.6855835377823662,0.004131113891226647,-0.07644,-38.723671
11.185,2.0,1.0,1.0,33.1,33.2,33.2,2.7,4.3,2.6125,0.7105847899237504,-0.011021204329286674,0.6909555892699796,0.0040996421898283515,-0.077336,-38.592594
11.185,2.0,1.0,1.0,33.1,33.2,33.2,2.7,4.3,2.615,0.705186895491723,-0.01122484629332685,0.6963154566019301,0.004065813400318296,-0.078249,-38.460998
11.185,2.0,1.0,1.0,33.1,33.2,33.2,2.7,4.3,2.6175,0.6997162014810762,-0.011432132281872372,0.7016625257217473,0.004029539218751398,-0.079181,-38.328871
11.185,2.0,1.0,1.0,33.1,33.2,33.2,2.7,4.3,2.62,0.6941718512963402,-0.011643137107698954,0.7069961625127724,0.003990727874624018,-0.080132,-38.196202
11.185,2.0,1.0,1.0,33.1,33.2,33.2,2.7,4.3,2.6225,0.6885529751089751,-0.011857937364010085,0.7123157121106698,0.003949283978208983,-0.081102,-38.062981
11.185,2.0,1.0,1.0,33.1,33.2,33.2,2.7,4.3,2.625,0.682858689699983,-0.012076611468659,0.717620498190875,0.00390510836030323,-0.082092,-37.929195
11.185,2.0,1.0,1.0,33.1,33.2,33.2,2.7,4.3,2.6275,0.6770880983044196,-0.012299239709278851,0.7229098222299865,0.0038580979039619322,-0.083102,-37.794834
11.185,2.0,1.0,1.0,33.1,33.2,33.2,2.7,4.3,2.63,0.6712402904581427,-0.012525904289312531,0.7281829627400273,0.003808145367766224,-0.084134,-37.659886
11.185,2.0,1.0,1.0,33.1,33.2,33.2,2.7,4.3,2.6325,0.6653143418471368,-0.012756689374930217,0.7334391744744819,0.0037551392001426436,-0.085187,-37.524338
11.185,2.0,1.0,1.0,33.1,33.2,33.2,2.7,4.3,2.635,0.6593093141597892,-0.012991681142818227,0.7386776876049436,0.0036989633442211047,-0.086262,-37.388178
11.185,2.0,1.0,1.0,33.1,33.2,33.2,2.7,4.3,2.6375,0.6532242549425225,-0.013230967828818026,0.7438977068671573,0.0036394970326860503,-0.087359,-37.251394
11.185,2.0,1.0,1.0,33.1,33.2,33.2,2.7,4.3,2.64,0.6470581974591938,-0.013474639777389106,0.7490984106751986,0.0035766145720383643,-0.088481,-37.113974
11.185,2.0,1.0,1.0,33.1,33.2,33.2,2.7,4.3,2.6425,0.6408101605547416,-0.013722789491862727,0.754278950202444,0.003510185115649026,-0.089626,-36.975904
11.185,2.0,1.0,1.0,33.1,33.2,33.2,2.7,4.3,2.645,0.6344791485235548,-0.013975511685447473,0.759438448427944,0.003440072424943504,-0.090796,-36.837171
11.185,2.0,1.0,1.0,33.1,33.2,33.2,2.7,4.3,2.6475,0.6280641509831,-0.014232903332939232,0.7645759991467269,0.0033661346180120346,-0.091991,-36.697762
11.185,2.0,1.0,1.0,33.1,33.2,33.2,2.7,4.3,2.65,0.6215641427533602,-0.014495063723080397,0.7696906659425108,0.00328822390489415,-0.093213,-36.557664
11.185,2.0,1.0,1.0,33.1,33.2,33.2,2.7,4.3,2.6525,0.6149780837427075,-0.014762094511502503,0.7747814811211827,0.0032061863087341673,-0.094461,-36.416861
11.185,2.0,1.0,1.0,33.1,33.2,33.2,2.7,4.3,2.655,0.6083049188408326,-0.015034099774176942,0.7798474446033771,0.003119861371950597,-0.095737,-36.275341
11.185,2.0,1.0,1.0,33.1,33.2,33.2,2.7,4.3,2.6575,0.6015435778194441,-0.015311186061285578,0.7848875227743523,0.0030290818465022,-0.097042,-36.133089
11.185,2.0,1.0,1.0,33.1,33.2,33.2,2.7,4.3,2.66,0.5946929752414636,-0.015593462451409898,0.7899006472892983,0.002933673367271702,-0.098376,-35.990089
11.185,2.0,1.0,1.0,33.1,33.2,33.2,2.7,4.3,2.6625,0.587752010379525,-0.015881040605922325,0.7948857138320943,0.0028334541075181316,-0.09974,-35.846328
11.185,2.0,1.0,1.0,33.1,33.2,33.2,2.7,4.3,2.665,0.5807195671446136,-0.01617403482344691,0.799841580825455,0.0027282344152761303,-0.101135,-35.701788
11.185,2.0,1.0,1.0,33.1,33.2,33.2,2.7,4.3,2.6675,0.5735945140257693,-0.01647256209423707,0.8047670680902557,0.0026178164295006102,-0.102563,-35.556456
11.185,2.0,1.0,1.0,33.1,33.2,33.2,2.7,4.3,2.67,0.5663757040418211,-0.016776742154297825,0.809660955451746,0.0025019936746691887,-0.104023,-35.410314
11.185,2.0,1.0,1.0,33.1,33.2,33.2,2.7,4.3,2.6725,0.5590619747061983,-0.017086697539056457,0.8145219812902166,0.0023805506324624894,-0.105518,-35.263346
11.185,2.0,1.0,1.0,33.1,33.2,33.2,2.7,4.3,2.675,0.5516521480059453,-0.017402553636358918,0.8193488410335403,0.0022532622890413492,-0.107048,-35.115535
11.185,2.0,1.0,1.0,33.1,33.2,33.2,2.7,4.3,2.6775,0.5441450303961353,-0.01772443873854037,0.8241401855888905,0.002119893656332636,-0.108614,-34.966865
11.185,2.0,1.0,1.0,33.1,33.2,33.2,2.7,4.3,2.68,0.5365394128109684,-0.018052484093285824,0.8288946197107567,0.001980199265616724,-0.110217,-34.817317
11.185,2.0,1.0,1.0,33.1,33.2,33.2,2.7,4.3,2.6825,0.5288340706929462,-0.018386823952959278,0.8336107003022333,0.0018339226315838254,-0.111859,-34.666874
11.185,2.0,1.0,1.0,33.1,33.2,33.2,2.7,4.3,2.685,0.5210277640415896,-0.018727595622040197,0.8382869346463692,0.0016807956848876903,-0.113541,-34.515517
11.185,2.0,1.0,1.0,33.1,33.2,33.2,2.7,4.3,2.6875,0.5131192374833002,-0.01907493950225918,0.8429217785641807,0.0015205381710761462,-0.115264,-34.363228
11.185,2.0,1.0,1.0,33.1,33.2,33.2,2.7,4.3,2.69,0.5051072203640765,-0.01942899913497395,0.8475136344957176,0.001352857013616645,-0.11703,-34.209986
11.185,2.0,1.0,1.0,33.1,33.2,33.2,2.7,4.3,2.6925,0.4969904268669043,-0.019789921240269747,0.852060849500372,0.0011774456385574869,-0.11884,-34.055772
11.185,2.0,1.0,1.0,33.1,33.2,33.2,2.7,4.3,2.695,0.4887675561558189,-0.020157855752202764,0.8565617131723495,0.0009939832581761334,-0.120694,-33.900566
11.185,2.0,1.0,1.0,33.1,33.2,33.2,2.7,4.3,2.6975,0.480437292548736,-0.020532955849534972,0.8610144554670128,0.0008021341107563737,-0.122596,-33.744348
11.185,2.0,1.0,1.0,33.1,33.2,33.2,2.7,4.3,2.7,0.4719983057213568,-0.020915377981226026,0.8654172444334852,0.000601546653411859,-0.124547,-33.587095
11.185,2.0,1.0,1.0,33.1,33.2,33.2,2.7,4.3,2.7025,0.46344925094459277,-0.021305281885859173,0.8697681838486445,0.00039185270462583445,-0.126547,-33.428785
11.185,2.0,1.0,1.0,33.1,33.2,33.2,2.7,4.3,2.705,0.4547887693581741,-0.021702830604074564,0.87406531074729,0.00017266653290960604,-0.128599,-33.269398
11.185,2.0,1.0,1.0,33.1,33.2,33.2,2.7,4.3,2.7075,0.44601548828329324,-0.022108190482971125,0.8783065928429371,-5.641611231016296e-05,-0.130706,-33.108908
11.185,2.0,1.0,1.0,33.1,33.2,33.2,2.7,4.3,2.71,0.4371280215773841,-0.022521531171307896,0.8824899258333033,-0.00029581903178402106,-0.132868,-32.947293
11.185,2.0,1.0,1.0,33.1,33.2,33.2,2.7,4.3,2.7125,0.42812497003436417,-0.022943025604193427,0.8866131305841551,-0.000545986674070141,-0.135087,-32.784527
11.185,2.0,1.0,1.0,33.1,33.2,33.2,2.7,4.3,2.715,0.4190049218339563,-0.023372849975787802,0.8906739501847328,-0.0008073853046389705,-0.137366,-32.620587
11.185,2.0,1.0,1.0,33.1,33.2,33.2,2.7,4.3,2.7175,0.4097664530439976,-0.023811183698360376,0.8946700468674991,-0.0010805042518068643,-0.139708,-32.455447
11.185,2.0,1.0,1.0,33.1,33.2,33.2,2.7,4.3,2.72,0.40040812817998184,-0.02425820934583942,0.8985989987844225,-0.0013658572353065779,-0.142113,-32.289079
11.185,2.0,1.0,1.0,33.1,33.2,33.2,2.7,4.3,2.7225,0.39092850082641145,-0.024714112579759202,0.9024582966314575,-0.0016639837838025458,-0.144585,-32.121456
11.185,2.0,1.0,1.0,33.1,33.2,33.2,2.7,4.3,2.725,0.38132611432498914,-0.025179082055245564,0.9062453401122368,-0.0019754507482035383,-0.147127,-31.952552
11.185,2.0,1.0,1.0,33.1,33.2,33.2,2.7,4.3,2.7275,0.37159950253504254,-0.02565330930438844,0.9099574342313405,-0.002300853918226302,-0.14974,-31.782336
11.185,2.0,1.0,1.0,33.1,33.2,33.2,2.7,4.3,2.73,0.3617471906721354,-0.026136988594012207,0.9135917854067472,-0.0026408197503188977,-0.152428,-31.610778
11.185,2.0,1.0,1.0,33.1,33.2,33.2,2.7,4.3,2.7325,0.35176769623129106,-0.026630316754478967,0.917145497390278,-0.002996007215776437,-0.155193,-31.437849
11.185,2.0,1.0,1.0,33.1,33.2,33.2,2.7,4.3,2.735,0.34165953000189564,-0.02713349297572935,0.9206155669839476,-0.0033671097786749744,-0.158039,-31.263517
11.185,2.0,1.0,1.0,33.1,33.2,33.2,2.7,4.3,2.7375,0.33142119718197555,-0.02764671856628201,0.9239988795391761,-0.003754857514122161,-0.160969,-31.087749
11.185,2.0,1.0,1.0,33.1,33.2,33.2,2.7,4.3,2.74,0.3210511986003018,-0.028170196670360054,0.9272922042247413,-0.0041600193782851385,-0.163987,-30.91051
11.185,2.0,1.0,1.0,33.1,33.2,33.2,2.7,4.3,2.7425,0.31054803205557335,-0.02870413193768963,0.9304921890481923,-0.004583405642714786,-0.167095,-30.731768
11.185,2.0,1.0,1.0,33.1,33.2,33.2,2.7,4.3,2.745,0.29991019378286693,-0.029248730139802347,0.9335953556141514,-0.005025870506654101,-0.170297,-30.551485
11.185,2.0,1.0,1.0,33.1,33.2,33.2,2.7,4.3,2.7475,0.2891361800585495,-0.029804197725866715,0.9365980936015208,-0.005488314902305557,-0.173599,-30.369625
11.185,2.0,1.0,1.0,33.1,33.2,33.2,2.7,4.3,2.75,0.278224488956004,-0.0303707413101505,0.939496654940051,-0.00597168950945757,-0.177003,-30.18615
11.185,2.0,1.0,1.0,33.1,33.2,33.2,2.7,4.3,2.7525,0.2671736222658158,-0.030948567082166444,0.9422871476650104,-0.0064769979974406205,-0.180515,-30.001019
11.185,2.0,1.0,1.0,33.1,33.2,33.2,2.7,4.3,2.755,0.2559820875955216,-0.031537880129352554,0.9449655294267958,-0.007005300514125011,-0.184139,-29.814193
11.185,2.0,1.0,1.0,33.1,33.2,33.2,2.7,4.3,2.7575,0.2446484006656344,-0.03213888366076979,0.9475276006302344,-0.007557717443597142,-0.18788,-29.625628
11.185,2.0,1.0,1.0,33.1,33.2,33.2,2.7,4.3,2.76,0.23317108782056747,-0.032751778118727565,0.9499689971759985,-0.008135433456282771,-0.191744,-29.43528
11.185,2.0,1.0,1.0,33.1,33.2,33.2,2.7,4.3,2.7625,0.22154868877511946,-0.03337676016345312,0.9522851827740001,-0.008739701877651848,-0.195735,-29.243105
11.185,2.0,1.0,1.0,33.1,33.2,33.2,2.7,4.3,2.765,0.20977975961960552,-0.03401402151385686,0.9544714407957836,-0.009371849404260363,-0.19986,-29.049056
11.185,2.0,1.0,1.0,33.1,33.2,33.2,2.7,4.3,2.7675,0.19786287610942027,-0.034663747625077394,0.956522865629781,-0.010033281198795454,-0.204126,-28.853083
11.185,2.0,1.0,1.0,33.1,33.2,33.2,2.7,4.3,2.77,0.18579663726788265,-0.03532611618076802,0.9584343534997979,-0.010725486399025569,-0.208539,-28.655135
11.185,2.0,1.0,1.0,33.1,33.2,33.2,2.7,4.3,2.7725,0.17357966933476712,-0.036001295374946424,0.9602005927032186,-0.01145004407914835,-0.213106,-28.455161
11.185,2.0,1.0,1.0,33.1,33.2,33.2,2.7,4.3,2.775,0.16121063009693234,-0.03668944195461439,0.9618160532210863,-0.01220862970602845,-0.217834,-28.253106
11.185,2.0,1.0,1.0,33.1,33.2,33.2,2.7,4.3,2.7775,0.14868821364209103,-0.037390698990174734,0.9632749756474241,-0.013003022137262843,-0.222733,-28.048914
11.185,2.0,1.0,1.0,33.1,33.2,33.2,2.7,4.3,2.78,0.1360111555820485,-0.03810519333584214,0.9645713593798069,-0.013835111212965823,-0.22781,-27.842525
11.185,2.0,1.0,1.0,33.1,33.2,33.2,2.7,4.3,2.7825,0.12317823879788758,-0.03883303273664647,0.9656989500072477,-0.014706905998675919,-0.233074,-27.633878
11.185,2.0,1.0,1.0,33.1,33.2,33.2,2.7,4.3,2.785,0.11018829976653945,-0.03957430253213899,0.9666512258248204,-0.015620543742939797,-0.238537,-27.42291
11.185,2.0,1.0,1.0,33.1,33.2,33.2,2.7,4.3,2.7875,0.09704023553640055,-0.04032906189936693,0.9674213833970613,-0.016578299619968255,-0.244207,-27.209555
11.185,2.0,1.0,1.0,33.1,33.2,33.2,2.7,4.3,2.79,0.08373301142899356,-0.04109733956890977,0.9680023220839256,-0.017582597335403738,-0.250097,-26.993743
11.185,2.0,1.0,1.0,33.1,33.2,33.2,2.7,4.3,2.7925,0.07026566955465767,-0.04187912893754194,0.9683866274339108,-0.018636020681742606,-0.256219,-26.775403
11.185,2.0,1.0,1.0,33.1,33.2,33.2,2.7,4.3,2.795,0.05663733824287947,-0.042674382489150633,0.9685665533386828,-0.019741326139451527,-0.262586,-26.55446
11.185,2.0,1.0,1.0,33.1,33.2,33.2,2.7,4.3,2.7975,0.0428472425027615,-0.04348300542157428,0.9685340028321183,-0.020901456630385676,-0.269211,-26.330837
11.185,2.0,1.0,1.0,33.1,33.2,33.2,2.7,4.3,2.8,0.028894715646290904,-0.044304848360679674,0.9682805074039458,-0.022119556541903042,-0.276111,-26.104451
11.185,2.0,1.0,1.0,33.1,33.2,33.2,2.7,4.3,2.8025,0.01477921222731651,-0.0451396990238082,0.9677972046839375,-0.02339898815318105,-0.2833,-25.875218
11.185,2.0,1.0,1.0,33.1,33.2,33.2,2.7,4.3,2.805,0.0005003224728257265,-0.04598727267216749,0.9670748143368315,-0.02474334960982585,-0.290797,-25.643049
11.185,2.0,1.0,1.0,33.1,33.2,33.2,2.7,4.3,2.8075,-0.013942211589132279,-0.04684720116519049,0.9661036119905679,-0.02615649460906469,-0.298621,-25.407851
11.185,2.0,1.0,1.0,33.1,33.2,33.2,2.7,4.3,2.81,-0.028548478067795733,-0.047719020398551235,0.964873401000907,-0.027642553975773067,-0.306793,-25.169528
11.185,2.0,1.0,1.0,33.1,33.2,33.2,2.7,4.3,2.8125,-0.0433183749386052,-0.048602155870493,0.963373481833879,-0.0292059593294434,-0.315334,-24.927977
11.185,2.0,1.0,1.0,33.1,33.2,33.2,2.7,4.3,2.815,-0.05825158724143307,-0.049495906077272576,0.9615926188236235,-0.030851469064114578,-0.324269,-24.683094
11.185,2.0,1.0,1.0,33.1,33.2,33.2,2.7,4.3,2.8175,-0.07334756137279683,-0.05039942338648914,0.9595190040368536,-0.03258419688733178,-0.333625,-24.434766
11.185,2.0,1.0,1.0,33.1,33.2,33.2,2.7,4.3,2.82,-0.08860547603262385,-0.051311691975208074,0.9571402179463394,-0.03440964319049777,-0.343429,-24.182877
11.185,2.0,1.0,1.0,33.1,33.2,33.2,2.7,4.3,2.8225,-0.10402420930985401,-0.05223150234610739,0.9544431865843742,-0.036333729551516696,-0.353714,-23.927306
11.185,2.0,1.0,1.0,33.1,33.2,33.2,2.7,4.3,2.825,-0.11960230130023215,-0.053157421846929655,0.9514141348131719,-0.03836283670134575,-0.364513,-23.667923
11.185,2.0,1.0,1.0,33.1,33.2,33.2,2.7,4.3,2.8275,-0.13533791154105057,-0.054087760513351506,0.9480385353127445,-0.040503846318751875,-0.375864,-23.404596
