1,w,sub_t,h,l1,l2,l3,g1,g2,Freq,S11_re,S21_re,S11_img,S21_img,S11_dB,S21_dB
11.185,2.0,1.0,1.0,33.0,33.0,33.0,3.7,3.2,2.5,0.898309699989637,-0.00408286978970274,0.427278533098593,0.00374104657653094,-0.045722,-45.133534
11.185,2.0,1.0,1.0,33.0,33.0,33.0,3.7,3.2,2.5025,0.8956921536581232,-0.004165366728717472,0.43264578870918924,0.003760128950073371,-0.046075,-45.018432
11.185,2.0,1.0,1.0,33.0,33.0,33.0,3.7,3.2,2.505,0.893033011929408,-0.004249185586245574,0.43801503284914206,0.003778855473275797,-0.046434,-44.903227
11.185,2.0,1.0,1.0,33.0,33.0,33.0,3.7,3.2,2.5075,0.8903319171462903,-0.004334348535603608,0.44338613655126535,0.0037972119889841806,-0.046798,-44.787913
11.185,2.0,1.0,1.0,33.0,33.0,33.0,3.7,3.2,2.51,0.8875885060383859,-0.004420878221716699,0.4487589671275514,0.0038151838864192112,-0.047168,-44.672483
11.185,2.0,1.0,1.0,33.0,33.0,33.0,3.7,3.2,2.5125,0.8848024096320075,-0.004508797772942888,0.4541333880471721,0.0038327560850687416,-0.047543,-44.556928
11.185,2.0,1.0,1.0,33.0,33.0,33.0,3.7,3.2,2.515,0.8819732531587565,-0.004598130813231854,0.4595092588106892,0.0038499130179521705,-0.047925,-44.441243
11.185,2.0,1.0,1.0,33.0,33.0,33.0,3.7,3.2,2.5175,0.8791006559628188,-0.0046889014746290016,0.46488643482032843,0.003866638614230057,-0.048312,-44.32542
11.185,2.0,1.0,1.0,33.0,33.0,33.0,3.7,3.2,2.52,0.8761842314069558,-0.0047811344101366966,0.47026476724621336,0.003882916281130076,-0.048706,-44.209452
11.185,2.0,1.0,1.0,33.0,33.0,33.0,3.7,3.2,2.5225,0.8732235867771916,-0.004874854806943649,0.4756441028883936,0.0038987288851594234,-0.049105,-44.093332
11.185,2.0,1.0,1.0,33.0,33.0,33.0,3.7,3.2,2.525,0.8702183231861862,-0.004970088400034451,0.48102428403455605,0.00391405873257278,-0.049512,-43.977052
11.185,2.0,1.0,1.0,33.0,33.0,33.0,3.7,3.2,2.5275,0.8671680354752895,-0.005066861486192472,0.48640514831326337,0.003928887549062394,-0.049924,-43.860605
11.185,2.0,1.0,1.0,33.0,33.0,33.0,3.7,3.2,2.53,0.8640723121152831,-0.005165200938407706,0.4917865285425689,0.003943196458636396,-0.050343,-43.743985
11.185,2.0,1.0,1.0,33.0,33.0,33.0,3.7,3.2,2.5325,0.860930735105797,-0.005265134220704379,0.4971682525738569,0.003956965961648532,-0.050769,-43.627183
11.185,2.0,1.0,1.0,33.0,33.0,33.0,3.7,3.2,2.535,0.8577428798734087,-0.005366689403401396,0.5025501431307543,0.003970175911941808,-0.051202,-43.510192
11.185,2.0,1.0,1.0,33.0,33.0,33.0,3.7,3.2,2.5375,0.8545083151684258,-0.0054698951788198225,0.507932017642933,0.003982805493065971,-0.051642,-43.393006
11.185,2.0,1.0,1.0,33.0,33.0,33.0,3.7,3.2,2.54,0.8512266029603497,-0.005574780877453327,0.5133136880746485,0.0039948331935265174,-0.052089,-43.275615
11.185,2.0,1.0,1.0,33.0,33.0,33.0,3.7,3.2,2.5425,0.847897298332028,-0.0056813764846159525,0.5186949607478254,0.004006236781021968,-0.052544,-43.158014
11.185,2.0,1.0,1.0,33.0,33.0,33.0,3.7,3.2,2.545,0.8445199493725017,-0.005789712657584274,0.5240756361595161,0.004016993275622145,-0.053005,-43.040195
11.185,2.0,1.0,1.0,33.0,33.0,33.0,3.7,3.2,2.5475,0.8410940970685543,-0.005899820743250015,0.5294555087935244,0.004027078921839428,-0.053475,-42.922149
11.185,2.0,1.0,1.0,33.0,33.0,33.0,3.7,3.2,2.55,0.8376192751949681,-0.006011732796300736,0.5348343669260238,0.004036469159541442,-0.053952,-42.803869
11.185,2.0,1.0,1.0,33.0,33.0,33.0,3.7,3.2,2.5525,0.8340950102035073,-0.006125481597946487,0.5402119924249331,0.004045138593651492,-0.054438,-42.685348
11.185,2.0,1.0,1.0,33.0,33.0,33.0,3.7,3.2,2.555,0.8305208211106326,-0.006241100675211243,0.5455881605428625,0.004053060962579788,-0.054931,-42.566577
11.185,2.0,1.0,1.0,33.0,33.0,33.0,3.7,3.2,2.5575,0.8268962193839675,-0.0063586243208086255,0.5509626397034018,0.004060209105325673,-0.055433,-42.447549
11.185,2.0,1.0,1.0,33.0,33.0,33.0,3.7,3.2,2.56,0.8232207088275318,-0.006478087613621431,0.5563351912805151,0.00406655492718882,-0.055943,-42.328257
11.185,2.0,1.0,1.0,33.0,33.0,33.0,3.7,3.2,2.5625,0.819493785465767,-0.006599526439807055,0.5617055693708148,0.00407206936402177,-0.056462,-42.208691
11.185,2.0,1.0,1.0,33.0,33.0,33.0,3.7,3.2,2.565,0.8157149374263679,-0.006722977514549822,0.5670735205584667,0.004076722344955182,-0.05699,-42.088844
11.185,2.0,1.0,1.0,33.0,33.0,33.0,3.7,3.2,2.5675,0.8118836448219592,-0.006848478404481958,0.5724387836724646,0.004080482753522094,-0.057527,-41.968708
11.185,2.0,1.0,1.0,33.0,33.0,33.0,3.7,3.2,2.57,0.8079993796306315,-0.006976067550799217,0.5778010895360177,0.004083318387102958,-0.058073,-41.848275
11.185,2.0,1.0,1.0,33.0,33.0,33.0,3.7,3.2,2.5725,0.8040616055753811,-0.0071057842930928004,0.5831601607077749,0.004085195914610624,-0.058629,-41.727536
11.185,2.0,1.0,1.0,33.0,33.0,33.0,3.7,3.2,2.575,0.8000697780024795,-0.007237668893924962,0.5885157112145987,0.004086080832328104,-0.059195,-41.606483
11.185,2.0,1.0,1.0,33.0,33.0,33.0,3.7,3.2,2.5775,0.7960233437588182,-0.007371762564173572,0.5938674462755921,0.004085937417808797,-0.05977,-41.485107
11.185,2.0,1.0,1.0,33.0,33.0,33.0,3.7,3.2,2.58,0.7919217410682695,-0.007508107489173184,0.5992150620170702,0.0040847286817427605,-0.060356,-41.3634
11.185,2.0,1.0,1.0,33.0,33.0,33.0,3.7,3.2,2.5825,0.7877643994071091,-0.007646746855681987,0.6045582451781674,0.0040824163176869455,-0.060952,-41.241354
11.185,2.0,1.0,1.0,33.0,33.0,33.0,3.7,3.2,2.585,0.7835507393785524,-0.007787724879703297,0.6098966728067309,0.004078960649553412,-0.061558,-41.118959
11.185,2.0,1.0,1.0,33.0,33.0,33.0,3.7,3.2,2.5875,0.7792801725864601,-0.00793108683519258,0.6152300119451761,0.004074320576740689,-0.062175,-40.996207
11.185,2.0,1.0,1.0,33.0,33.0,33.0,3.7,3.2,2.59,0.7749521015082744,-0.008076879083682792,0.620557919305927,0.004068453516789635,-0.062804,-40.873089
11.185,2.0,1.0,1.0,33.0,33.0,33.0,3.7,3.2,2.5925,0.7705659193672497,-0.00822514910486104,0.6258800409360874,0.004061315345435764,-0.063444,-40.749595
11.185,2.0,1.0,1.0,33.0,33.0,33.0,3.7,3.2,2.595,0.7661210100040519,-0.0083759455281304,0.631196011870938,0.004052860333925517,-0.064096,-40.625717
11.185,2.0,1.0,1.0,33.0,33.0,33.0,3.7,3.2,2.5975,0.7616167477477983,-0.008529318165194621,0.6365054557758738,0.004043041083452711,-0.064759,-40.501445
11.185,2.0,1.0,1.0,33.0,33.0,33.0,3.7,3.2,2.6,0.7570524972866236,-0.008685318043702211,0.6418079845763552,0.004031808456566073,-0.065435,-40.376769
11.185,2.0,1.0,1.0,33.0,33.0,33.0,3.7,3.2,2.6025,0.7524276135378628,-0.008843997441989304,0.6471031980754348,0.004019111505388074,-0.066123,-40.251681
11.185,2.0,1.0,1.0,33.0,33.0,33.0,3.7,3.2,2.605,0.747741441517941,-0.009005409924961476,0.6523906835584159,0.004004897396476109,-0.066824,-40.126171
11.185,2.0,1.0,1.0,33.0,33.0,33.0,3.7,3.2,2.6075,0.7429933162120788,-0.009169610381158384,0.6576700153841658,0.003989111332147558,-0.067539,-40.000227
11.185,2.0,1.0,1.0,33.0,33.0,33.0,3.7,3.2,2.61,0.7381825624439221,-0.009336655061042962,0.6629407545625904,0.003971696468078221,-0.068267,-39.873842
11.185,2.0,1.0,1.0,33.0,33.0,33.0,3.7,3.2,2.6125,0.7333084947452128,-0.00950660161656331,0.6682024483177651,0.003952593826973293,-0.069008,-39.747004
11.185,2.0,1.0,1.0,33.0,33.0,33.0,3.7,3.2,2.615,0.7283704172256257,-0.009679509142033395,0.6734546296361893,0.003931742208096572,-0.069764,-39.619703
11.185,2.0,1.0,1.0,33.0,33.0,33.0,3.7,3.2,2.6175,0.723367623442914,-0.009855438216382757,0.6786968167996031,0.003909078092431336,-0.070534,-39.491929
11.185,2.0,1.0,1.0,33.0,33.0,33.0,3.7,3.2,2.62,0.7182993962735015,-0.010034450946826569,0.6839285129017928,0.003884535543230862,-0.071319,-39.363671
11.185,2.0,1.0,1.0,33.0,33.0,33.0,3.7,3.2,2.6225,0.7131650077836755,-0.010216611014010871,0.6891492053487855,0.0038580461017025435,-0.07212,-39.234919
11.185,2.0,1.0,1.0,33.0,33.0,33.0,3.7,3.2,2.625,0.707963719101558,-0.0104019837186865,0.69435836534179,0.00382953867755327,-0.072936,-39.10566
11.185,2.0,1.0,1.0,33.0,33.0,33.0,3.7,3.2,2.6275,0.7026947802900101,-0.010590636029972993,0.6995554473422436,0.0037989394341042164,-0.073768,-38.975886
11.185,2.0,1.0,1.0,33.0,33.0,33.0,3.7,3.2,2.63,0.6973574302206789,-0.010782636635269311,0.7047398885182685,0.0037661716676682263,-0.074616,-38.845582
11.185,2.0,1.0,1.0,33.0,33.0,33.0,3.7,3.2,2.6325,0.6919508964493714,-0.010978055991877797,0.7099111081718256,0.0037311556808589724,-0.075482,-38.71474
11.185,2.0,1.0,1.0,33.0,33.0,33.0,3.7,3.2,2.635,0.6864743950929763,-0.011176966380403545,0.715068507145816,0.0036938086494818748,-0.076365,-38.583345
11.185,2.0,1.0,1.0,33.0,33.0,33.0,3.7,3.2,2.6375,0.6809271307081618,-0.011379441959998769,0.7202114672103433,0.0036540444826336535,-0.077265,-38.451388
11.185,2.0,1.0,1.0,33.0,33.0,33.0,3.7,3.2,2.64,0.6753082961720802,-0.011585558825523087,0.7253393504273327,0.00361177367561014,-0.078184,-38.318855
11.185,2.0,1.0,1.0,33.0,33.0,33.0,3.7,3.2,2.6425,0.6696170725653489,-0.011795395066690476,0.730451498492631,0.003566903155198576,-0.079122,-38.185734
11.185,2.0,1.0,1.0,33.0,33.0,33.0,3.7,3.2,2.645,0.6638526290575675,-0.012009030829281625,0.7355472320547097,0.003519336116899105,-0.080079,-38.052012
11.185,2.0,1.0,1.0,33.0,33.0,33.0,3.7,3.2,2.6475,0.6580141227956754,-0.012226548378498387,0.7406258500090135,0.0034689718535902627,-0.081056,-37.917676
11.185,2.0,1.0,1.0,33.0,33.0,33.0,3.7,3.2,2.65,0.6521006987954326,-0.012448032164543928,0.7456866287669945,0.0034157055751194145,-0.082053,-37.782714
11.185,2.0,1.0,1.0,33.0,33.0,33.0,3.7,3.2,2.6525,0.6461114898363851,-0.012673568890510432,0.7507288214987706,0.0033594282182640668,-0.083072,-37.647112
11.185,2.0,1.0,1.0,33.0,33.0,33.0,3.7,3.2,2.655,0.6400456163606224,-0.012903247582664869,0.7557516573483507,0.0033000262464688195,-0.084111,-37.510856
11.185,2.0,1.0,1.0,33.0,33.0,33.0,3.7,3.2,2.6575,0.6339021863757237,-0.0131371596632212,0.7607543406202749,0.0032373814387240624,-0.085173,-37.373933
11.185,2.0,1.0,1.0,33.0,33.0,33.0,3.7,3.2,2.66,0.6276802953622658,-0.013375399025693992,0.765736049936484,0.003171370666903078,-0.086258,-37.236327
11.185,2.0,1.0,1.0,33.0,33.0,33.0,3.7,3.2,2.6625,0.621379026186313,-0.013618062112928778,0.770695937362152,0.0031018656608294897,-0.087366,-37.098024
11.185,2.0,1.0,1.0,33.0,33.0,33.0,3.7,3.2,2.665,0.6149974490173191,-0.013865247997909504,0.7756331274991736,0.003028732760290257,-0.088499,-36.95901
11.185,2.0,1.0,1.0,33.0,33.0,33.0,3.7,3.2,2.6675,0.6085346212519167,-0.014117058467445313,0.7805467165459028,0.0029518326531542036,-0.089656,-36.819269
11.185,2.0,1.0,1.0,33.0,33.0,33.0,3.7,3.2,2.67,0.6019895874440755,-0.014373598108841045,0.7854357713216842,0.0028710200986934572,-0.090839,-36.678786
11.185,2.0,1.0,1.0,33.0,33.0,33.0,3.7,3.2,2.6725,0.5953613792421502,-0.014634974399660196,0.7902993282546317,0.0027861436351372805,-0.092048,-36.537545
11.185,2.0,1.0,1.0,33.0,33.0,33.0,3.7,3.2,2.675,0.5886490153333801,-0.014901297800690026,0.7951363923310185,0.0026970452704148406,-0.093284,-36.395529
11.185,2.0,1.0,1.0,33.0,33.0,33.0,3.7,3.2,2.6775,0.5818515013964152,-0.01517268185222112,0.7999459360045573,0.0026035601549649966,-0.094549,-36.252722
11.185,2.0,1.0,1.0,33.0,33.0,33.0,3.7,3.2,2.68,0.5749678300624929,-0.015449243273755462,0.804726898063751,0.002505516235403463,-0.095842,-36.109106
11.185,2.0,1.0,1.0,33.0,33.0,33.0,3.7,3.2,2.6825,0.5679969808859254,-0.015731102067259434,0.8094781824553814,0.0024027338877454342,-0.097164,-35.964665
11.185,2.0,1.0,1.0,33.0,33.0,33.0,3.7,3.2,2.685,0.5609379203245892,-0.016018381624077656,0.8141986570620983,0.002295025528778994,-0.098518,-35.81938
11.185,2.0,1.0,1.0,33.0,33.0,33.0,3.7,3.2,2.6875,0.5537896017311554,-0.01631120883562485,0.8188871524319407,0.002182195204074146,-0.099903,-35.673233
11.185,2.0,1.0,1.0,33.0,33.0,33.0,3.7,3.2,2.69,0.546550965355855,-0.016609714207972495,0.8235424604574925,0.002064038150991068,-0.10132,-35.526204
11.185,2.0,1.0,1.0,33.0,33.0,33.0,3.7,3.2,2.6925,0.539220938361589,-0.016914031980445512,0.8281633330022335,0.001940340334919934,-0.102772,-35.378276
11.185,2.0,1.0,1.0,33.0,33.0,33.0,3.7,3.2,2.695,0.5317984348522923,-0.01722430024834166,0.832748480471483,0.0018108779568399202,-0.104258,-35.229427
11.185,2.0,1.0,1.0,33.0,33.0,33.0,3.7,3.2,2.6975,0.5242823559154582,-0.017540661089883985,0.8372965703251783,0.0016754169301290832,-0.10578,-35.079638
11.185,2.0,1.0,1.0,33.0,33.0,33.0,3.7,3.2,2.7,0.5166715896798452,-0.017863260697508994,0.8418062255295335,0.0015337123243839561,-0.107339,-34.928888
11.185,2.0,1.0,1.0,33.0,33.0,33.0,3.7,3.2,2.7025,0.5089650113893973,-0.018192249513589585,0.8462760229444385,0.0013855077738209563,-0.108936,-34.777155
11.185,2.0,1.0,1.0,33.0,33.0,33.0,3.7,3.2,2.705,0.5011614834945216,-0.01852778237067899,0.8507044916432287,0.001230534847625031,-0.110573,-34.624416
11.185,2.0,1.0,1.0,33.0,33.0,33.0,3.7,3.2,2.7075,0.493259855761903,-0.018870018636354426,0.8550901111612377,0.0010685123793859953,-0.112251,-34.470651
11.185,2.0,1.0,1.0,33.0,33.0,33.0,3.7,3.2,2.71,0.4852589654041422,-0.01921912236272033,0.8594313096692735,0.0008991457525168965,-0.113972,-34.315834
11.185,2.0,1.0,1.0,33.0,33.0,33.0,3.7,3.2,2.7125,0.4771576372305566,-0.019575262440615925,0.863726462067885,0.0007221261382745233,-0.115736,-34.159942
11.185,2.0,1.0,1.0,33.0,33.0,33.0,3.7,3.2,2.715,0.46895468382061073,-0.019938612758549135,0.8679738879979866,0.0005371296827075225,-0.117545,-34.002951
11.185,2.0,1.0,1.0,33.0,33.0,33.0,3.7,3.2,2.7175,0.46064890572150097,-0.02030935236635014,0.8721718497630608,0.0003438166385269092,-0.119402,-33.844834
11.185,2.0,1.0,1.0,33.0,33.0,33.0,3.7,3.2,2.72,0.45223909167157117,-0.020687665643505236,0.8763185501577943,0.00014183043753429752,-0.121308,-33.685566
11.185,2.0,1.0,1.0,33.0,33.0,33.0,3.7,3.2,2.7225,0.44372401885130097,-0.02107374247209674,0.8804121301976173,-6.920330115635474e-05,-0.123264,-33.52512
11.185,2.0,1.0,1.0,33.0,33.0,33.0,3.7,3.2,2.725,0.43510245316379714,-0.0214677784142169,0.884450666743136,-0.00028967783230346975,-0.125272,-33.363467
11.185,2.0,1.0,1.0,33.0,33.0,33.0,3.7,3.2,2.7275,0.4263731495467941,-0.021869974893680092,0.8884321700130009,-0.0005200064208182708,-0.127335,-33.20058
11.185,2.0,1.0,1.0,33.0,33.0,33.0,3.7,3.2,2.73,0.4175348523183876,-0.022280539381777383,0.8923545809781833,-0.0007606235593594953,-0.129454,-33.036428
11.185,2.0,1.0,1.0,33.0,33.0,33.0,3.7,3.2,2.7325,0.4085862955588391,-0.022699685586746628,0.896215768630054,-0.0010119862740596986,-0.131631,-32.87098
11.185,2.0,1.0,1.0,33.0,33.0,33.0,3.7,3.2,2.735,0.39952620353103085,-0.02312763364653091,0.9000135271139975,-0.0012745755258514932,-0.13387,-32.704206
11.185,2.0,1.0,1.0,33.0,33.0,33.0,3.7,3.2,2.7375,0.39035329114231615,-0.023564610324286823,0.9037455727195628,-0.0015488977155921403,-0.136172,-32.536072
11.185,2.0,1.0,1.0,33.0,33.0,33.0,3.7,3.2,2.74,0.3810662644507841,-0.024010849205969215,0.9074095407173544,-0.0018354863019915024,-0.138539,-32.366545
11.185,2.0,1.0,1.0,33.0,33.0,33.0,3.7,3.2,2.7425,0.3716638212191864,-0.024466590899164118,0.9110029820319625,-0.0021349035422440926,-0.140975,-32.195589
11.185,2.0,1.0,1.0,33.0,33.0,33.0,3.7,3.2,2.745,0.3621446515201012,-0.02493208323215225,0.9145233597392449,-0.0024477423662656187,-0.143483,-32.023169
11.185,2.0,1.0,1.0,33.0,33.0,33.0,3.7,3.2,2.7475,0.35250743839621723,-0.02540758145196761,0.9179680453751538,-0.0027746283965426684,-0.146064,-31.849247
11.185,2.0,1.0,1.0,33.0,33.0,33.0,3.7,3.2,2.75,0.342750858580015,-0.0258933484199563,0.921334315042083,-0.00311622212684517,-0.148723,-31.673785
11.185,2.0,1.0,1.0,33.0,33.0,33.0,3.7,3.2,2.7525,0.33287358327753686,-0.026389654803035335,0.9246193452973177,-0.0034732212744294395,-0.151462,-31.496742
11.185,2.0,1.0,1.0,33.0,33.0,33.0,3.7,3.2,2.755,0.32287427902144683,-0.026896779258491533,0.9278202088066368,-0.0038463633219094286,-0.154285,-31.318076
11.185,2.0,1.0,1.0,33.0,33.0,33.0,3.7,3.2,2.7575,0.3127516085990881,-0.027415008609735805,0.9309338697443966,-0.004236428266694885,-0.157196,-31.137744
11.185,2.0,1.0,1.0,33.0,33.0,33.0,3.7,3.2,2.76,0.3025042320619546,-0.0279446380099277,0.9339571789194879,-0.004644241597836623,-0.160199,-30.955702
11.185,2.0,1.0,1.0,33.0,33.0,33.0,3.7,3.2,2.7625,0.2921308078236442,-0.028485971089796336,0.9368868686044013,-0.005070677522284432,-0.163298,-30.771903
11.185,2.0,1.0,1.0,33.0,33.0,33.0,3.7,3.2,2.765,0.2816299938542728,-0.02903932008528561,0.9397195470421871,-0.005516662465004187,-0.166497,-30.586299
11.185,2.0,1.0,1.0,33.0,33.0,33.0,3.7,3.2,2.7675,0.2710004489802534,-0.02960500593982937,0.9424516926033732,-0.005983178870138615,-0.169801,-30.398838
11.185,2.0,1.0,1.0,33.0,33.0,33.0,3.7,3.2,2.77,0.26024083429949374,-0.03018335837509225,0.9450796475618064,-0.00647126933348229,-0.173214,-30.20947
11.185,2.0,1.0,1.0,33.0,33.0,33.0,3.7,3.2,2.7725,0.2493498147233745,-0.030774715922861847,0.9475996114549048,-0.006982041100020323,-0.176743,-30.018139
11.185,2.0,1.0,1.0,33.0,33.0,33.0,3.7,3.2,2.775,0.23832606065839,-0.03137942590941594,0.950007633989872,-0.007516670964204041,-0.180393,-29.824789
11.185,2.0,1.0,1.0,33.0,33.0,33.0,3.7,3.2,2.7775,0.22716824984213288,-0.031997844382082224,0.9522996074529735,-0.008076410615078548,-0.18417,-29.62936
11.185,2.0,1.0,1.0,33.0,33.0,33.0,3.7,3.2,2.78,0.21587506935036838,-0.03263033596579439,0.9544712585739321,-0.008662592473397733,-0.18808,-29.431792
11.185,2.0,1.0,1.0,33.0,33.0,33.0,3.7,3.2,2.7825,0.20444521779444969,-0.033277273635178885,0.9565181397917633,-0.009276636073557007,-0.19213,-29.23202
11.185,2.0,1.0,1.0,33.0,33.0,33.0,3.7,3.2,2.785,0.1928774077311453,-0.03393903838501443,0.958435619861888,-0.009920055049639711,-0.196327,-29.029976
11.185,2.0,1.0,1.0,33.0,33.0,33.0,3.7,3.2,2.7875,0.18117036831044972,-0.03461601877869668,0.9602188737369388,-0.01059446479222019,-0.20068,-28.825592
11.185,2.0,1.0,1.0,33.0,33.0,33.0,3.7,3.2,2.79,0.16932284819090798,-0.03530861035050951,0.9618628716452458,-0.011301590850927842,-0.205197,-28.618793
11.185,2.0,1.0,1.0,33.0,33.0,33.0,3.7,3.2,2.7925,0.15733361875685828,-0.03601721483294416,0.9633623672813723,-0.012043278167315355,-0.209887,-28.409503
11.185,2.0,1.0,1.0,33.0,33.0,33.0,3.7,3.2,2.795,0.1452014776776131,-0.036742239174847056,0.9647118850120585,-0.012821501233461239,-0.21476,-28.197643
11.185,2.0,1.0,1.0,33.0,33.0,33.0,3.7,3.2,2.7975,0.13292525285549878,-0.03748409430963344,0.9659057059883407,-0.013638375284178937,-0.219826,-27.983127
11.185,2.0,1.0,1.0,33.0,33.0,33.0,3.7,3.2,2.8,0.1205038068176924,-0.03824319362496463,0.9669378530401942,-0.014496168644962644,-0.225096,-27.765869
11.185,2.0,1.0,1.0,33.0,33.0,33.0,3.7,3.2,2.8025,0.10793604161659008,-0.03901995107585509,0.9678020742134796,-0.015397316374141401,-0.230584,-27.545777
11.185,2.0,1.0,1.0,33.0,33.0,33.0,3.7,3.2,2.805,0.09522090431511634,-0.03981477887182355,0.9684918247899307,-0.016344435356478927,-0.236301,-27.322753
11.185,2.0,1.0,1.0,33.0,33.0,33.0,3.7,3.2,2.8075,0.08235739314741852,-0.04062808465499971,0.9690002476090205,-0.01734034102704486,-0.242263,-27.096696
11.185,2.0,1.0,1.0,33.0,33.0,33.0,3.7,3.2,2.81,0.0693445644623767,-0.04146026806953887,0.9693201514852839,-0.0183880659290397,-0.248485,-26.867499
11.185,2.0,1.0,1.0,33.0,33.0,33.0,3.7,3.2,2.8125,0.0561815405779056,-0.0423117166026151,0.969443987485526,-0.0194908803379202,-0.254984,-26.635051
11.185,2.0,1.0,1.0,33.0,33.0,33.0,3.7,3.2,2.815,0.04286751869887818,-0.043182800552893086,0.9693638227966649,-0.02065231521728398,-0.261779,-26.399233
11.185,2.0,1.0,1.0,33.0,33.0,33.0,3.7,3.2,2.8175,0.02940178108181026,-0.04407386695269422,0.9690713118759846,-0.021876187810246264,-0.268889,-26.159921
11.185,2.0,1.0,1.0,33.0,33.0,33.0,3.7,3.2,2.82,0.01578370666635085,-0.044985232233855886,0.968557664530426,-0.0231666302143602,-0.276337,-25.916983
11.185,2.0,1.0,1.0,33.0,33.0,33.0,3.7,3.2,2.8225,0.0020127844387387416,-0.04591717338296581,0.9678136105191798,-0.02452812133948956,-0.284147,-25.670282
11.185,2.0,1.0,1.0,33.0,33.0,33.0,3.7,3.2,2.825,-0.011911371152257074,-0.04686991727729916,0.9668293602131011,-0.025965522707626348,-0.292344,-25.419672
11.185,2.0,1.0,1.0,33.0,33.0,33.0,3.7,3.2,2.8275,-0.025989002338413326,-0.047843627825913254,0.9655945607738432,-0.02748411862281541,-0.300959,-25.164998
