1,w,sub_t,h,l1,l2,l3,g1,g2,Freq,S11_re,S21_re,S11_img,S21_img,S11_dB,S21_dB
11.185,2.0,1.0,1.0,34.7,34.3,34.3,3.9,4.4,2.5,0.664809408484135,-0.00953480409260279,0.735969341656011,0.00221708398190949,-0.071716,-40.185078
11.185,2.0,1.0,1.0,34.7,34.3,34.3,3.9,4.4,2.5025,0.6585732812515985,-0.009691582667770236,0.7414326549527661,0.0021608935505019545,-0.072516,-40.061397
11.185,2.0,1.0,1.0,34.7,34.3,34.3,3.9,4.4,2.505,0.6522571159921934,-0.009850721710156465,0.7468714949140316,0.0021022168317757386,-0.073332,-39.937221
11.185,2.0,1.0,1.0,34.7,34.3,34.3,3.9,4.4,2.5075,0.6458601717266232,-0.010012260419463789,0.7522849568031178,0.0020409743172501034,-0.074164,-39.81254
11.185,2.0,1.0,1.0,34.7,34.3,34.3,3.9,4.4,2.51,0.6393817019675042,-0.010176238796227836,0.7576721114434604,0.00197708369402917,-0.075013,-39.687342
11.185,2.0,1.0,1.0,34.7,34.3,34.3,3.9,4.4,2.5125,0.6328209548667381,-0.010342697664221261,0.763032004549314,0.0019104597268822918,-0.075878,-39.561614
11.185,2.0,1.0,1.0,34.7,34.3,34.3,3.9,4.4,2.515,0.626177173374722,-0.010511678693839722,0.7683636560381533,0.0018410141342621348,-0.07676,-39.435345
11.185,2.0,1.0,1.0,34.7,34.3,34.3,3.9,4.4,2.5175,0.6194495954119561,-0.010683224426531034,0.7736660593242317,0.00176865545787959,-0.07766,-39.308522
11.185,2.0,1.0,1.0,34.7,34.3,34.3,3.9,4.4,2.52,0.6126374540535866,-0.010857378300333823,0.7789381805927585,0.0016932889254252048,-0.078578,-39.181133
11.185,2.0,1.0,1.0,34.7,34.3,34.3,3.9,4.4,2.5225,0.605739977727498,-0.011034184676595374,0.7841789580540877,0.0016148163059965693,-0.079515,-39.053163
11.185,2.0,1.0,1.0,34.7,34.3,34.3,3.9,4.4,2.525,0.598756390426529,-0.0112136888679451,0.78938730117733,0.0015331357577565126,-0.080471,-38.924599
11.185,2.0,1.0,1.0,34.7,34.3,34.3,3.9,4.4,2.5275,0.5916859119354421,-0.011395937167604264,0.7945620899027505,0.0014481416673105799,-0.081446,-38.795429
11.185,2.0,1.0,1.0,34.7,34.3,34.3,3.9,4.4,2.53,0.584527758073299,-0.011580976880118886,0.7997021738322726,0.0013597244802520303,-0.082441,-38.665637
11.185,2.0,1.0,1.0,34.7,34.3,34.3,3.9,4.4,2.5325,0.5772811409518948,-0.011768856353609197,0.8048063713974065,0.0012677705222788852,-0.083457,-38.535209
11.185,2.0,1.0,1.0,34.7,34.3,34.3,3.9,4.4,2.535,0.5699452692509369,-0.011959625013635752,0.8098734690038613,0.001172161810239576,-0.084494,-38.40413
11.185,2.0,1.0,1.0,34.7,34.3,34.3,3.9,4.4,2.5375,0.5625193485106843,-0.012153333398788966,0.8149022201520658,0.0010727758524121638,-0.085552,-38.272384
11.185,2.0,1.0,1.0,34.7,34.3,34.3,3.9,4.4,2.54,0.555002581442766,-0.012350033198117501,0.8198913445327872,0.0009694854372645581,-0.086633,-38.139957
11.185,2.0,1.0,1.0,34.7,34.3,34.3,3.9,4.4,2.5425,0.5473941682599307,-0.012549777290518548,0.8248395270969898,0.0008621584098811844,-0.087736,-38.006831
11.185,2.0,1.0,1.0,34.7,34.3,34.3,3.9,4.4,2.545,0.5396933070255013,-0.012752619786222053,0.8297454170990141,0.0007506574351732032,-0.088864,-37.87299
11.185,2.0,1.0,1.0,34.7,34.3,34.3,3.9,4.4,2.5475,0.531899194023335,-0.012958616070510433,0.8346076271121079,0.0006348397469147896,-0.090015,-37.738417
11.185,2.0,1.0,1.0,34.7,34.3,34.3,3.9,4.4,2.55,0.5240110241490843,-0.013167822849825709,0.839424732015294,0.0005145568815654643,-0.091191,-37.603094
11.185,2.0,1.0,1.0,34.7,34.3,34.3,3.9,4.4,2.5525,0.5160279913236323,-0.013380298200425925,0.8441952679504514,0.00038965439574923066,-0.092393,-37.467003
11.185,2.0,1.0,1.0,34.7,34.3,34.3,3.9,4.4,2.555,0.5079492889295281,-0.013596101619765284,0.848917731248457,0.000259971566161529,-0.09362,-37.330124
11.185,2.0,1.0,1.0,34.7,34.3,34.3,3.9,4.4,2.5575,0.49977411027131996,-0.013815294080783977,0.8535905773231249,0.00012534107056642188,-0.094875,-37.19244
11.185,2.0,1.0,1.0,34.7,34.3,34.3,3.9,4.4,2.56,0.49150164906069693,-0.014037938089306446,0.8582122195315828,-1.4411351572985085e-05,-0.096158,-37.053929
11.185,2.0,1.0,1.0,34.7,34.3,34.3,3.9,4.4,2.5625,0.48313109992735104,-0.014264097744761162,0.8627810279996486,-0.00015946726042069466,-0.09747,-36.914571
11.185,2.0,1.0,1.0,34.7,34.3,34.3,3.9,4.4,2.565,0.4746616589565097,-0.0144938388044492,0.8672953284106284,-0.0003100159007856741,-0.098811,-36.774345
11.185,2.0,1.0,1.0,34.7,34.3,34.3,3.9,4.4,2.5675,0.46609252425411446,-0.014727228751603887,0.8717534007558402,-0.0004662546127273425,-0.100182,-36.633229
11.185,2.0,1.0,1.0,34.7,34.3,34.3,3.9,4.4,2.57,0.45742289654062135,-0.014964336867500571,0.8761534780450334,-0.0006283892698230418,-0.101585,-36.491199
11.185,2.0,1.0,1.0,34.7,34.3,34.3,3.9,4.4,2.5725,0.44865197977443005,-0.01520523430789201,0.8804937449746983,-0.0007966347473682808,-0.10302,-36.348233
11.185,2.0,1.0,1.0,34.7,34.3,34.3,3.9,4.4,2.575,0.4397789818059728,-0.015449994184062517,0.8847723365521015,-0.0009712154229990198,-0.104489,-36.204306
11.185,2.0,1.0,1.0,34.7,34.3,34.3,3.9,4.4,2.5775,0.4308031150635003,-0.015698691648812532,0.888987336672661,-0.001152365712466967,-0.105992,-36.059392
11.185,2.0,1.0,1.0,34.7,34.3,34.3,3.9,4.4,2.58,0.4217235972716322,-0.015951403987703842,0.8931367766480769,-0.0013403306435677944,-0.107531,-35.913467
11.185,2.0,1.0,1.0,34.7,34.3,34.3,3.9,4.4,2.5825,0.41253965220373706,-0.01620821071591582,0.897218633682364,-0.0015353664715206943,-0.109107,-35.766502
11.185,2.0,1.0,1.0,34.7,34.3,34.3,3.9,4.4,2.585,0.40325051046924854,-0.016469193681081896,0.9012308292926633,-0.0017377413394302646,-0.11072,-35.618469
11.185,2.0,1.0,1.0,34.7,34.3,34.3,3.9,4.4,2.5875,0.39385541033701094,-0.01673443717249627,0.9051712276713886,-0.0019477359878319728,-0.112373,-35.46934
11.185,2.0,1.0,1.0,34.7,34.3,34.3,3.9,4.4,2.59,0.38435359859579304,-0.017004028037099717,0.909037633985909,-0.002165644517735771,-0.114067,-35.319083
11.185,2.0,1.0,1.0,34.7,34.3,34.3,3.9,4.4,2.5925,0.3747443314530908,-0.017278055802673657,0.91282779261157,-0.002391775212044456,-0.115802,-35.167668
11.185,2.0,1.0,1.0,34.7,34.3,34.3,3.9,4.4,2.595,0.3650268754733909,-0.01755661280868846,0.9165393852934013,-0.002626451420738781,-0.117582,-35.015063
11.185,2.0,1.0,1.0,34.7,34.3,34.3,3.9,4.4,2.5975,0.3552005085570374,-0.017839794345270422,0.9201700292313558,-0.002870012515801123,-0.119406,-34.861232
11.185,2.0,1.0,1.0,34.7,34.3,34.3,3.9,4.4,2.6,0.34526452096089416,-0.018127698800764824,0.923717275083338,-0.0031228149224967468,-0.121277,-34.70614
11.185,2.0,1.0,1.0,34.7,34.3,34.3,3.9,4.4,2.6025,0.33521821636201277,-0.018420427818384186,0.9271786048796276,-0.0033852332343607128,-0.123197,-34.549751
11.185,2.0,1.0,1.0,34.7,34.3,34.3,3.9,4.4,2.605,0.32506091296548817,-0.018718086462437902,0.9305514298415885,-0.0036576614200578977,-0.125167,-34.392027
11.185,2.0,1.0,1.0,34.7,34.3,34.3,3.9,4.4,2.6075,0.3147919446577756,-0.019020783394640146,0.9338330880966683,-0.0039405141312055915,-0.12719,-34.232926
11.185,2.0,1.0,1.0,34.7,34.3,34.3,3.9,4.4,2.61,0.3044106622067111,-0.01932863106098581,0.9370208422807876,-0.004234228121288934,-0.129266,-34.072409
11.185,2.0,1.0,1.0,34.7,34.3,34.3,3.9,4.4,2.6125,0.29391643450954047,-0.019641745889668587,0.9401118770181089,-0.004539263786975226,-0.1314,-33.91043
11.185,2.0,1.0,1.0,34.7,34.3,34.3,3.9,4.4,2.615,0.28330864989028604,-0.019960248500485347,0.9431032962669464,-0.00485610684446281,-0.133592,-33.746945
11.185,2.0,1.0,1.0,34.7,34.3,34.3,3.9,4.4,2.6175,0.27258671744785795,-0.020284263926125208,0.9459921205191738,-0.005185270155006853,-0.135845,-33.581905
11.185,2.0,1.0,1.0,34.7,34.3,34.3,3.9,4.4,2.62,0.2617500684563618,-0.020613921845676272,0.9487752838388838,-0.0055272957154755935,-0.138162,-33.415261
11.185,2.0,1.0,1.0,34.7,34.3,34.3,3.9,4.4,2.6225,0.25079815781914827,-0.020949356830590998,0.9514496307242127,-0.0058827568317351316,-0.140546,-33.246962
11.185,2.0,1.0,1.0,34.7,34.3,34.3,3.9,4.4,2.625,0.239730465578288,-0.0212907086032258,0.954011912774158,-0.00625226049487501,-0.142999,-33.076952
11.185,2.0,1.0,1.0,34.7,34.3,34.3,3.9,4.4,2.6275,0.22854649848126396,-0.021638122307907032,0.9564587851397763,-0.006636449982815536,-0.145525,-32.905174
11.185,2.0,1.0,1.0,34.7,34.3,34.3,3.9,4.4,2.63,0.21724579160690743,-0.021991748794257537,0.9587868027364347,-0.007036007712724658,-0.148126,-32.731568
11.185,2.0,1.0,1.0,34.7,34.3,34.3,3.9,4.4,2.6325,0.20582791005280635,-0.022351744912239135,0.9609924161905725,-0.007451658372980916,-0.150806,-32.556071
11.185,2.0,1.0,1.0,34.7,34.3,34.3,3.9,4.4,2.635,0.19429245068677925,-0.022718273818006427,0.9630719674907716,-0.007884172367214004,-0.15357,-32.378617
11.185,2.0,1.0,1.0,34.7,34.3,34.3,3.9,4.4,2.6375,0.18263904396537609,-0.023091505289207996,0.9650216853087363,-0.008334369607316853,-0.15642,-32.199137
11.185,2.0,1.0,1.0,34.7,34.3,34.3,3.9,4.4,2.64,0.17086735582286022,-0.023471616047789575,0.966837679950884,-0.008803123697351133,-0.159361,-32.017557
11.185,2.0,1.0,1.0,34.7,34.3,34.3,3.9,4.4,2.6425,0.15897708963486434,-0.023858790087614254,0.9685159378955841,-0.009291366556067587,-0.162399,-31.8338
11.185,2.0,1.0,1.0,34.7,34.3,34.3,3.9,4.4,2.645,0.14696798826162244,-0.02425321900328517,0.9700523158645671,-0.009800093532477084,-0.165537,-31.647786
11.185,2.0,1.0,1.0,34.7,34.3,34.3,3.9,4.4,2.6475,0.13483983617684914,-0.024655102315382746,0.9714425343693535,-0.010330369076689428,-0.16878,-31.459427
11.185,2.0,1.0,1.0,34.7,34.3,34.3,3.9,4.4,2.65,0.1225924616895579,-0.02506464778585426,0.9726821706647201,-0.010883333037282282,-0.172136,-31.268634
11.185,2.0,1.0,1.0,34.7,34.3,34.3,3.9,4.4,2.6525,0.11022573926790227,-0.025482071715437173,0.9737666510308283,-0.01146020766699458,-0.175609,-31.075312
11.185,2.0,1.0,1.0,34.7,34.3,34.3,3.9,4.4,2.655,0.09773959197615821,-0.025907599212670787,0.9746912422935335,-0.012062305430843055,-0.179206,-30.879359
11.185,2.0,1.0,1.0,34.7,34.3,34.3,3.9,4.4,2.6575,0.08513399403871962,-0.026341464421119048,0.9754510424781754,-0.012691037725155703,-0.182935,-30.680668
11.185,2.0,1.0,1.0,34.7,34.3,34.3,3.9,4.4,2.66,0.07240897354835935,-0.02678391068774725,0.9760409704754461,-0.013347924632915828,-0.186803,-30.479126
11.185,2.0,1.0,1.0,34.7,34.3,34.3,3.9,4.4,2.6625,0.05956461534034738,-0.027235190650758856,0.9764557545782402,-0.014034605860691137,-0.190818,-30.274613
11.185,2.0,1.0,1.0,34.7,34.3,34.3,3.9,4.4,2.665,0.04660106405943382,-0.027695566219360868,0.9766899197251455,-0.014752853025884315,-0.19499,-30.067
11.185,2.0,1.0,1.0,34.7,34.3,34.3,3.9,4.4,2.6675,0.03351852745368159,-0.02816530841055332,0.9767377732586918,-0.015504583490794399,-0.199329,-29.856153
11.185,2.0,1.0,1.0,34.7,34.3,34.3,3.9,4.4,2.67,0.02031727993792011,-0.028644696998723948,0.9765933889737399,-0.01629187597291798,-0.203845,-29.641926
11.185,2.0,1.0,1.0,34.7,34.3,34.3,3.9,4.4,2.6725,0.006997666480733605,-0.02913401992202399,0.9762505891924529,-0.01711698820011652,-0.208551,-29.424167
11.185,2.0,1.0,1.0,34.7,34.3,34.3,3.9,4.4,2.675,-0.006439893116764074,-0.029633572374512855,0.9757029245557215,-0.017982376926071006,-0.213459,-29.20271
11.185,2.0,1.0,1.0,34.7,34.3,34.3,3.9,4.4,2.6775,-0.01999489946393298,-0.030143655493978884,0.9749436511651017,-0.018890720677487288,-0.218583,-28.977381
11.185,2.0,1.0,1.0,34.7,34.3,34.3,3.9,4.4,2.68,-0.033666768235644344,-0.030664574530982504,0.9739657046423148,-0.0198449456718454,-0.223941,-28.747992
11.185,2.0,1.0,1.0,34.7,34.3,34.3,3.9,4.4,2.6825,-0.047454824099566195,-0.031196636353468837,0.9727616705923849,-0.020848255425650164,-0.229548,-28.514344
11.185,2.0,1.0,1.0,34.7,34.3,34.3,3.9,4.4,2.685,-0.061358293737376654,-0.03174014610121007,0.97132375085866,-0.021904164671321103,-0.235424,-28.276221
11.185,2.0,1.0,1.0,34.7,34.3,34.3,3.9,4.4,2.6875,-0.07537629773162752,-0.03229540275263861,0.9696437248390448,-0.023016538320034183,-0.241591,-28.033392
11.185,2.0,1.0,1.0,34.7,34.3,34.3,3.9,4.4,2.69,-0.08950784102522437,-0.03286269329970414,0.9677129049878723,-0.02418963635301558,-0.248073,-27.78561
11.185,2.0,1.0,1.0,34.7,34.3,34.3,3.9,4.4,2.6925,-0.10375180157622241,-0.033442285139386636,0.9655220854506298,-0.025428165701323467,-0.254895,-27.532607
11.185,2.0,1.0,1.0,34.7,34.3,34.3,3.9,4.4,2.695,-0.11810691672021771,-0.03403441617689573,0.9630614825611001,-0.026737340392047487,-0.262089,-27.274096
11.185,2.0,1.0,1.0,34.7,34.3,34.3,3.9,4.4,2.6975,-0.13257176660780412,-0.03463928198657191,0.9603206656622689,-0.028122951507341322,-0.269687,-27.009767
11.185,2.0,1.0,1.0,34.7,34.3,34.3,3.9,4.4,2.7,-0.14714475389308282,-0.03525701918004236,0.9572884763804068,-0.02959144883477952,-0.277727,-26.739282
11.185,2.0,1.0,1.0,34.7,34.3,34.3,3.9,4.4,2.7025,-0.16182407859536946,-0.03588768387082083,0.9539529340694336,-0.03115003649991499,-0.286252,-26.462279
11.185,2.0,1.0,1.0,34.7,34.3,34.3,3.9,4.4,2.705,-0.17660770671729686,-0.0365312237775417,0.9503011246283655,-0.032806785386016814,-0.295311,-26.17836
11.185,2.0,1.0,1.0,34.7,34.3,34.3,3.9,4.4,2.7075,-0.19149333074771002,-0.03718744204283579,0.9463190692506819,-0.03457076578942241,-0.304958,-25.887097
11.185,2.0,1.0,1.0,34.7,34.3,34.3,3.9,4.4,2.71,-0.2064783195635461,-0.03785595021732138,0.9419915688549524,-0.036452204567365275,-0.315257,-25.588021
11.185,2.0,1.0,1.0,34.7,34.3,34.3,3.9,4.4,2.7125,-0.2215596544099216,-0.03853610700605192,0.9373020189245339,-0.03846267205461835,-0.326281,-25.280619
11.185,2.0,1.0,1.0,34.7,34.3,34.3,3.9,4.4,2.715,-0.23673384649489032,-0.03922693820956118,0.9322321881907277,-0.040615305315358126,-0.338114,-24.964332
11.185,2.0,1.0,1.0,34.7,34.3,34.3,3.9,4.4,2.7175,-0.25199683015971475,-0.0399270316866339,0.9267619529504674,-0.042925075934190475,-0.350854,-24.638546
11.185,2.0,1.0,1.0,34.7,34.3,34.3,3.9,4.4,2.72,-0.26734382339622303,-0.04063439893793079,0.9208689767165613,-0.04540911263411678,-0.364613,-24.302585
11.185,2.0,1.0,1.0,34.7,34.3,34.3,3.9,4.4,2.7225,-0.2827691444164605,-0.041346291791525575,0.914528322227285,-0.048087091665511915,-0.379526,-23.955704
11.185,2.0,1.0,1.0,34.7,34.3,34.3,3.9,4.4,2.725,-0.2982659686474737,-0.04205895827017517,0.9077119794308404,-0.0509817112976849,-0.395751,-23.597083
11.185,2.0,1.0,1.0,34.7,34.3,34.3,3.9,4.4,2.7275,-0.3138260043486444,-0.042767315451649586,0.9003882887083046,-0.05411927105857121,-0.413473,-23.225812
11.185,2.0,1.0,1.0,34.7,34.3,34.3,3.9,4.4,2.73,-0.32943905616239094,-0.04346450812110959,0.8925212330678547,-0.05753038183859022,-0.432918,-22.840878
11.185,2.0,1.0,1.0,34.7,34.3,34.3,3.9,4.4,2.7325,-0.3450924329953975,-0.04414130892955115,0.884069566069635,-0.061250839851607744,-0.454354,-22.44116
11.185,2.0,1.0,1.0,34.7,34.3,34.3,3.9,4.4,2.735,-0.3607701376687288,-0.04478529657972178,0.8749857335791327,-0.0653227059527279,-0.478107,-22.0254
11.185,2.0,1.0,1.0,34.7,34.3,34.3,3.9,4.4,2.7375,-0.37645174764674644,-0.0453797201124552,0.865214536976424,-0.06979564203329917,-0.504577,-21.592197
11.185,2.0,1.0,1.0,34.7,34.3,34.3,3.9,4.4,2.74,-0.392110853969015,-0.04590191474374879,0.8546914734193004,-0.07472856783682122,-0.534257,-21.139977
11.185,2.0,1.0,1.0,34.7,34.3,34.3,3.9,4.4,2.7425,-0.407712861552511,-0.046321070152745385,0.8433406763266427,-0.08019171330556013,-0.56776,-20.666974
11.185,2.0,1.0,1.0,34.7,34.3,34.3,3.9,4.4,2.745,-0.42321185603024,-0.046595053327131104,0.8310723696233377,-0.08626915009225608,-0.605858,-20.1712
11.185,2.0,1.0,1.0,34.7,34.3,34.3,3.9,4.4,2.7475,-0.4385460906194875,-0.04666583537320114,0.8177797501541947,-0.09306188316851972,-0.649533,-19.650423
11.185,2.0,1.0,1.0,34.7,34.3,34.3,3.9,4.4,2.75,-0.453631409745612,-0.0464528336863288,0.803335241310599,-0.100691551732025,-0.700046,-19.10213
11.185,2.0,1.0,1.0,34.7,34.3,34.3,3.9,4.4,2.7525,-0.4683515543253998,-0.045843107766895104,0.787586155023432,-0.10930468925359221,-0.759042,-18.523513
11.185,2.0,1.0,1.0,34.7,34.3,34.3,3.9,4.4,2.755,-0.48254370901321425,-0.04467676162974926,0.7703500399798079,-0.1190772428368724,-0.828688,-17.911449
11.185,2.0,1.0,1.0,34.7,34.3,34.3,3.9,4.4,2.7575,-0.4959767396601343,-0.042724995192339625,0.7514105546696181,-0.13021847600406064,-0.911876,-17.262518
11.185,2.0,1.0,1.0,34.7,34.3,34.3,3.9,4.4,2.76,-0.5083181817628589,-0.03965686756963834,0.7305159540990107,-0.14297210287976242,-1.012524,-16.573072
11.185,2.0,1.0,1.0,34.7,34.3,34.3,3.9,4.4,2.7625,-0.5190840599641212,-0.034988879572733764,0.7073850001086862,-0.15760973804432146,-1.135985,-15.839414
11.185,2.0,1.0,1.0,34.7,34.3,34.3,3.9,4.4,2.765,-0.5275632334732613,-0.02800916452736554,0.6817309197031997,-0.17440586674486078,-1.289644,-15.058187
11.185,2.0,1.0,1.0,34.7,34.3,34.3,3.9,4.4,2.7675,-0.5327066215810581,-0.017666900428786218,0.6533261595291955,-0.19357133494056525,-1.483678,-14.227153
11.185,2.0,1.0,1.0,34.7,34.3,34.3,3.9,4.4,2.77,-0.5329769987662473,-0.00242326645196144,0.6221547756174624,-0.21509823246254123,-1.731862,-13.346712
11.185,2.0,1.0,1.0,34.7,34.3,34.3,3.9,4.4,2.7725,-0.5261848068062286,0.019909216731225303,0.5887420862586955,-0.2384265228583632,-2.051721,-12.422732
11.185,2.0,1.0,1.0,34.7,34.3,34.3,3.9,4.4,2.775,-0.509436528161732,0.05220985931495107,0.5548058300938336,-0.261789521001835,-2.461604,-11.471565
11.185,2.0,1.0,1.0,34.7,34.3,34.3,3.9,4.4,2.7775,-0.4795846469879865,0.09758357920295212,0.5243543148408717,-0.28111819984580755,-2.967526,-10.528114
11.185,2.0,1.0,1.0,34.7,34.3,34.3,3.9,4.4,2.78,-0.435015827942352,0.15755193892735073,0.5049306023225489,-0.28881825610365963,-3.524276,-9.656178
11.185,2.0,1.0,1.0,34.7,34.3,34.3,3.9,4.4,2.7825,-0.37957273568750083,0.22813187335713733,0.5072483135992301,-0.2741863543023812,-3.964483,-8.954367
11.185,2.0,1.0,1.0,34.7,34.3,34.3,3.9,4.4,2.785,-0.32657594091408687,0.2958820004718431,0.5397762675151306,-0.22887500963719265,-4.001057,-8.540894
11.185,2.0,1.0,1.0,34.7,34.3,34.3,3.9,4.4,2.7875,-0.295402403108572,0.3414321291770502,0.5988925905293083,-0.15668757421811708,-3.507285,-8.503902
11.185,2.0,1.0,1.0,34.7,34.3,34.3,3.9,4.4,2.79,-0.2977911685412535,0.3531723489855357,0.6667160017243419,-0.07560684748452635,-2.731182,-8.845656
11.185,2.0,1.0,1.0,34.7,34.3,34.3,3.9,4.4,2.7925,-0.32930201211778554,0.33567005707585407,0.7238701508052403,-0.004988668215370515,-1.98989,-9.480789
11.185,2.0,1.0,1.0,34.7,34.3,34.3,3.9,4.4,2.795,-0.3766303872799418,0.3022911350924622,0.7614180921662557,0.046300741739064157,-1.416987,-10.290784
11.185,2.0,1.0,1.0,34.7,34.3,34.3,3.9,4.4,2.7975,-0.42819903142107263,0.26462532228979574,0.780199463567047,0.07916901868617264,-1.012388,-11.175079
11.185,2.0,1.0,1.0,34.7,34.3,34.3,3.9,4.4,2.8,-0.4776458420496353,0.22902266454470335,0.7848634394994225,0.09831829687577645,-0.735772,-12.067835
11.185,2.0,1.0,1.0,34.7,34.3,34.3,3.9,4.4,2.8025,-0.5225596342495755,0.19787141276546405,0.7800195313048565,0.10839639522182504,-0.547782,-12.932577
11.185,2.0,1.0,1.0,34.7,34.3,34.3,3.9,4.4,2.805,-0.5625622770644123,0.17152338867657632,0.7690714774337938,0.1128338558365679,-0.419394,-13.751844
11.185,2.0,1.0,1.0,34.7,34.3,34.3,3.9,4.4,2.8075,-0.5980865509056299,0.14951985990680747,0.7542581974238695,0.11388862877798508,-0.331016,-14.518956
11.185,2.0,1.0,1.0,34.7,34.3,34.3,3.9,4.4,2.81,-0.6297880384677851,0.13118098335522496,0.7369798093929899,0.11297526039766827,-0.269774,-15.232863
11.185,2.0,1.0,1.0,34.7,34.3,34.3,3.9,4.4,2.8125,-0.658307679510725,0.115843354053623,0.718092477550328,0.110961983127875,-0.22722,-15.895223
11.185,2.0,1.0,1.0,34.7,34.3,34.3,3.9,4.4,2.815,-0.684194613812968,0.10293678539036838,0.6981139849863793,0.1083777290828834,-0.197759,-16.508835
11.185,2.0,1.0,1.0,34.7,34.3,34.3,3.9,4.4,2.8175,-0.7078939457249468,0.09199605451763535,0.6773545856914601,0.1055438771630397,-0.177636,-17.076822
11.185,2.0,1.0,1.0,34.7,34.3,34.3,3.9,4.4,2.82,-0.7297573236323891,0.08264986094382538,0.6559974194627496,0.10265523544828828,-0.164286,-17.602228
11.185,2.0,1.0,1.0,34.7,34.3,34.3,3.9,4.4,2.8225,-0.7500592292816285,0.07460413923539544,0.6341473794621562,0.09982929730644687,-0.155934,-18.08782
11.185,2.0,1.0,1.0,34.7,34.3,34.3,3.9,4.4,2.825,-0.7690126720469463,0.0676260253447581,0.6118607994103049,0.09713623098014457,-0.151334,-18.536013
11.185,2.0,1.0,1.0,34.7,34.3,34.3,3.9,4.4,2.8275,-0.7867823870711763,0.06153035931573334,0.5891635629383377,0.09461726173845532,-0.149598,-18.948847
