1,w,sub_t,h,l1,l2,l3,g1,g2,Freq,S11_re,S21_re,S11_img,S21_img,S11_dB,S21_dB
11.185,2.0,1.0,1.0,34.8,34.4,34.4,2.4,2.8,2.5,0.636369978204193,-0.0197085531505726,0.758575264704819,0.00795835836726488,-0.085953,-33.450898
11.185,2.0,1.0,1.0,34.8,34.4,34.4,2.4,2.8,2.5025,0.62962404932894,-0.020073924692391602,0.7640236874823488,0.007889261969601552,-0.087036,-33.323576
11.185,2.0,1.0,1.0,34.8,34.4,34.4,2.4,2.8,2.505,0.6227896038126216,-0.02044576128572438,0.7694428064129688,0.007815244680220336,-0.088142,-33.195673
11.185,2.0,1.0,1.0,34.8,34.4,34.4,2.4,2.8,2.5075,0.6158657447634551,-0.020824185269163218,0.7748315185348326,0.007736119106090809,-0.089271,-33.067179
11.185,2.0,1.0,1.0,34.8,34.4,34.4,2.4,2.8,2.51,0.6088515673341035,-0.021209321346038954,0.7801886887317612,0.007651690566089749,-0.090423,-32.938084
11.185,2.0,1.0,1.0,34.8,34.4,34.4,2.4,2.8,2.5125,0.6017461588733913,-0.02160129661669005,0.7855131487585512,0.007561756776942859,-0.091599,-32.808377
11.185,2.0,1.0,1.0,34.8,34.4,34.4,2.4,2.8,2.515,0.5945485990937861,-0.022000240609742105,0.7908036962351329,0.007466107523865687,-0.092801,-32.678047
11.185,2.0,1.0,1.0,34.8,34.4,34.4,2.4,2.8,2.5175,0.5872579602555715,-0.022406285312229036,0.7960590936084437,0.007364524315052448,-0.094028,-32.547082
11.185,2.0,1.0,1.0,34.8,34.4,34.4,2.4,2.8,2.52,0.5798733073686324,-0.022819565198372607,0.8012780670808625,0.007256780019106688,-0.095281,-32.415473
11.185,2.0,1.0,1.0,34.8,34.4,34.4,2.4,2.8,2.5225,0.5723936984128835,-0.023240217256814154,0.8064593055039574,0.007142638484451002,-0.096562,-32.283207
11.185,2.0,1.0,1.0,34.8,34.4,34.4,2.4,2.8,2.525,0.5648181845783655,-0.023668381016077378,0.811601459236284,0.007021854139688476,-0.097871,-32.150272
11.185,2.0,1.0,1.0,34.8,34.4,34.4,2.4,2.8,2.5275,0.5571458105261308,-0.02410419856801499,0.8167031389638826,0.006894171573823215,-0.099208,-32.016657
11.185,2.0,1.0,1.0,34.8,34.4,34.4,2.4,2.8,2.53,0.5493756146710894,-0.024547814588970013,0.8217629144820615,0.006759325095174775,-0.100575,-31.882349
11.185,2.0,1.0,1.0,34.8,34.4,34.4,2.4,2.8,2.5325,0.5415066294880387,-0.02499937635835323,0.8267793134369923,0.006617038267743301,-0.101973,-31.747336
11.185,2.0,1.0,1.0,34.8,34.4,34.4,2.4,2.8,2.535,0.5335378818421785,-0.02545903377431466,0.8317508200255687,0.0064670234237001,-0.103402,-31.611605
11.185,2.0,1.0,1.0,34.8,34.4,34.4,2.4,2.8,2.5375,0.5254683933454883,-0.02592693936614507,0.8366758736518828,0.006308981150587402,-0.104863,-31.475143
11.185,2.0,1.0,1.0,34.8,34.4,34.4,2.4,2.8,2.54,0.5172971807404012,-0.02640324830301923,0.8415528675386155,0.006142599751715983,-0.106358,-31.337936
11.185,2.0,1.0,1.0,34.8,34.4,34.4,2.4,2.8,2.5425,0.5090232563123089,-0.026888118398644367,0.8463801472915236,0.005967554678143758,-0.107887,-31.199971
11.185,2.0,1.0,1.0,34.8,34.4,34.4,2.4,2.8,2.545,0.5006456283325023,-0.02738171011134007,0.8511560094151206,0.005783507930507768,-0.109452,-31.061234
11.185,2.0,1.0,1.0,34.8,34.4,34.4,2.4,2.8,2.5475,0.4921633015332679,-0.0278841865390238,0.8558786997775285,0.005590107428860228,-0.111054,-30.921711
11.185,2.0,1.0,1.0,34.8,34.4,34.4,2.4,2.8,2.55,0.48357527761691005,-0.028395713408530383,0.8605464120223886,0.005386986348528491,-0.112693,-30.781387
11.185,2.0,1.0,1.0,34.8,34.4,34.4,2.4,2.8,2.5525,0.47488055580064603,-0.02891645905862717,0.8651572859255604,0.005173762419878517,-0.114372,-30.640247
11.185,2.0,1.0,1.0,34.8,34.4,34.4,2.4,2.8,2.555,0.4660781333993592,-0.02944659441603056,0.8697094056942466,0.004950037189708183,-0.116091,-30.498276
11.185,2.0,1.0,1.0,34.8,34.4,34.4,2.4,2.8,2.5575,0.4571670064483547,-0.02998629296365589,0.8742007982060022,0.004715395241831754,-0.117851,-30.355458
11.185,2.0,1.0,1.0,34.8,34.4,34.4,2.4,2.8,2.56,0.44814617036839727,-0.030535730700253647,0.8786294311849535,0.004469403374239149,-0.119654,-30.211777
11.185,2.0,1.0,1.0,34.8,34.4,34.4,2.4,2.8,2.5625,0.43901462067542524,-0.031095086090499668,0.8829932113123732,0.004211609730018938,-0.121502,-30.067216
11.185,2.0,1.0,1.0,34.8,34.4,34.4,2.4,2.8,2.565,0.4297713537374854,-0.03166454000451182,0.887289982268585,0.003941542879025315,-0.123396,-29.921759
11.185,2.0,1.0,1.0,34.8,34.4,34.4,2.4,2.8,2.5675,0.42041536758163095,-0.03224427564565921,0.8915175227029598,0.00365871084704193,-0.125337,-29.775389
11.185,2.0,1.0,1.0,34.8,34.4,34.4,2.4,2.8,2.57,0.410945662753641,-0.03283447846540918,0.8956735441285637,0.003362600088947985,-0.127327,-29.628086
11.185,2.0,1.0,1.0,34.8,34.4,34.4,2.4,2.8,2.5725,0.4013612432336551,-0.03343533606383288,0.8997556887377802,0.003052674402124381,-0.129368,-29.479834
11.185,2.0,1.0,1.0,34.8,34.4,34.4,2.4,2.8,2.575,0.39166111741099463,-0.03404703807423755,0.9037615271349644,0.002728373776047358,-0.131462,-29.330613
11.185,2.0,1.0,1.0,34.8,34.4,34.4,2.4,2.8,2.5775,0.38184429912167617,-0.03466977603023638,0.9076885559819291,0.0023891131736985304,-0.13361,-29.180405
11.185,2.0,1.0,1.0,34.8,34.4,34.4,2.4,2.8,2.58,0.37190980875236407,-0.03530374321338492,0.9115341955517331,0.002034281240077696,-0.135814,-29.029189
11.185,2.0,1.0,1.0,34.8,34.4,34.4,2.4,2.8,2.5825,0.36185667441475167,-0.03594913447931231,0.9152957871859346,0.0016632389327272618,-0.138077,-28.876945
11.185,2.0,1.0,1.0,34.8,34.4,34.4,2.4,2.8,2.585,0.3516839331946817,-0.03660614606005132,0.9189705906501004,0.0012753180687700401,-0.140401,-28.723652
11.185,2.0,1.0,1.0,34.8,34.4,34.4,2.4,2.8,2.5875,0.3413906324805899,-0.037274975340021846,0.9225557813819563,0.0008698197825144843,-0.142787,-28.569288
11.185,2.0,1.0,1.0,34.8,34.4,34.4,2.4,2.8,2.59,0.3309758313762485,-0.037955820602839294,0.926048447626149,0.00044601288719593247,-0.145238,-28.413833
11.185,2.0,1.0,1.0,34.8,34.4,34.4,2.4,2.8,2.5925,0.3204386022031078,-0.03864888074581256,0.9294455874490942,3.1321338893453053e-06,-0.147757,-28.257262
11.185,2.0,1.0,1.0,34.8,34.4,34.4,2.4,2.8,2.595,0.3097780320980151,-0.039354354958637094,0.9327441056268719,-0.00045962363995057505,-0.150346,-28.099552
11.185,2.0,1.0,1.0,34.8,34.4,34.4,2.4,2.8,2.5975,0.2989932247124862,-0.04007244236240549,0.9359408103985584,-0.0009430934805028147,-0.153007,-27.940679
11.185,2.0,1.0,1.0,34.8,34.4,34.4,2.4,2.8,2.6,0.28808330202025517,-0.04080334160460763,0.9390324100767461,-0.001448156415022878,-0.155745,-27.780618
11.185,2.0,1.0,1.0,34.8,34.4,34.4,2.4,2.8,2.6025,0.27704740624039437,-0.04154725040530266,0.9420155095063097,-0.0019757336863521755,-0.158561,-27.619344
11.185,2.0,1.0,1.0,34.8,34.4,34.4,2.4,2.8,2.605,0.2658847018838798,-0.042304365049086134,0.944886606361715,-0.00252679113496693,-0.161459,-27.45683
11.185,2.0,1.0,1.0,34.8,34.4,34.4,2.4,2.8,2.6075,0.25459437793222284,-0.043074879816849036,0.9476420872723234,-0.003102341739954821,-0.164442,-27.293049
11.185,2.0,1.0,1.0,34.8,34.4,34.4,2.4,2.8,2.61,0.24317565015754206,-0.04385898635061565,0.9502782237642099,-0.003703448331311215,-0.167513,-27.127972
11.185,2.0,1.0,1.0,34.8,34.4,34.4,2.4,2.8,2.6125,0.2316277635943092,-0.04465687294395317,0.9527911680059975,-0.0043312264870535196,-0.170677,-26.961571
11.185,2.0,1.0,1.0,34.8,34.4,34.4,2.4,2.8,2.615,0.21994999517398042,-0.04546872374954428,0.9551769483450724,-0.004986847629862062,-0.173937,-26.793815
11.185,2.0,1.0,1.0,34.8,34.4,34.4,2.4,2.8,2.6175,0.20814165653482633,-0.046294717894490196,0.9574314646192955,-0.005671542339291423,-0.177297,-26.624674
11.185,2.0,1.0,1.0,34.8,34.4,34.4,2.4,2.8,2.62,0.19620209702047844,-0.047135028492765275,0.9595504832279323,-0.006386603897064847,-0.180762,-26.454115
11.185,2.0,1.0,1.0,34.8,34.4,34.4,2.4,2.8,2.6225,0.1841307068820749,-0.0479898215429313,0.9615296319440282,-0.007133392084580037,-0.184336,-26.282105
11.185,2.0,1.0,1.0,34.8,34.4,34.4,2.4,2.8,2.625,0.171926920700499,-0.0488592546977335,0.963364394448706,-0.00791333725353627,-0.188023,-26.108609
11.185,2.0,1.0,1.0,34.8,34.4,34.4,2.4,2.8,2.6275,0.1595902210468694,-0.04974347589052191,0.9650501045660501,-0.008727944692558984,-0.19183,-25.933593
11.185,2.0,1.0,1.0,34.8,34.4,34.4,2.4,2.8,2.63,0.14712014240151244,-0.05064262180151084,0.9665819401751153,-0.009578799314863462,-0.195762,-25.757019
11.185,2.0,1.0,1.0,34.8,34.4,34.4,2.4,2.8,2.6325,0.1345162753538522,-0.05155681614471241,0.9679549167733195,-0.010467570694393087,-0.199824,-25.578849
11.185,2.0,1.0,1.0,34.8,34.4,34.4,2.4,2.8,2.635,0.12177827110822592,-0.0524861677538792,0.9691638806629245,-0.011396018480510342,-0.204022,-25.399043
11.185,2.0,1.0,1.0,34.8,34.4,34.4,2.4,2.8,2.6375,0.1089058463235733,-0.05343076844294247,0.9702035017294591,-0.012365998224238846,-0.208363,-25.217561
11.185,2.0,1.0,1.0,34.8,34.4,34.4,2.4,2.8,2.64,0.09589878831822658,-0.05439069061317833,0.9710682657778132,-0.013379467652286078,-0.212854,-25.03436
11.185,2.0,1.0,1.0,34.8,34.4,34.4,2.4,2.8,2.6425,0.08275696067488404,-0.05536598457559117,0.9717524663882265,-0.014438493428644861,-0.217503,-24.849396
11.185,2.0,1.0,1.0,34.8,34.4,34.4,2.4,2.8,2.645,0.06948030928516792,-0.056356675552729045,0.9722501962505165,-0.015545258447526687,-0.222316,-24.662623
11.185,2.0,1.0,1.0,34.8,34.4,34.4,2.4,2.8,2.6475,0.056068868878181195,-0.05736276031922335,0.9725553379305925,-0.016702069705752887,-0.227303,-24.473993
11.185,2.0,1.0,1.0,34.8,34.4,34.4,2.4,2.8,2.65,0.04252277008317037,-0.05838420343468691,0.9726615540185033,-0.017911366807574648,-0.232472,-24.283456
11.185,2.0,1.0,1.0,34.8,34.4,34.4,2.4,2.8,2.6525,0.028842247083085856,-0.05942093301607989,0.9725622766019617,-0.0191757311602493,-0.237834,-24.090962
11.185,2.0,1.0,1.0,34.8,34.4,34.4,2.4,2.8,2.655,0.015027645923328944,-0.060472835989142784,0.972250696003382,-0.02049789592464582,-0.243397,-23.896457
11.185,2.0,1.0,1.0,34.8,34.4,34.4,2.4,2.8,2.6575,0.0010794335488548998,-0.061539752749786084,0.9717197487118994,-0.021880756791717925,-0.249174,-23.699884
11.185,2.0,1.0,1.0,34.8,34.4,34.4,2.4,2.8,2.66,-0.013001792347097243,-0.0626214711562805,0.970962104434581,-0.02332738366296373,-0.255176,-23.501187
11.185,2.0,1.0,1.0,34.8,34.4,34.4,2.4,2.8,2.6625,-0.027215292567533595,-0.06371771976141458,0.9699701521829439,-0.024841033321036664,-0.261415,-23.300303
11.185,2.0,1.0,1.0,34.8,34.4,34.4,2.4,2.8,2.665,-0.04156017464080385,-0.06482816018025564,0.9687359853019539,-0.026425163185578037,-0.267905,-23.097171
11.185,2.0,1.0,1.0,34.8,34.4,34.4,2.4,2.8,2.6675,-0.05603537990953739,-0.0659523784733871,0.967251385338758,-0.028083446259166724,-0.274661,-22.891724
11.185,2.0,1.0,1.0,34.8,34.4,34.4,2.4,2.8,2.67,-0.07063966933628774,-0.06708987540715204,0.9655078046374356,-0.029819787379137205,-0.281699,-22.683894
11.185,2.0,1.0,1.0,34.8,34.4,34.4,2.4,2.8,2.6725,-0.08537160786104336,-0.06824005543101576,0.9634963475339359,-0.03163834090296495,-0.289035,-22.473609
11.185,2.0,1.0,1.0,34.8,34.4,34.4,2.4,2.8,2.675,-0.10022954712049907,-0.0694022141871244,0.9612077500120203,-0.033543529968058025,-0.296688,-22.260794
11.185,2.0,1.0,1.0,34.8,34.4,34.4,2.4,2.8,2.6775,-0.1152116063093609,-0.07057552433782005,0.9586323576663618,-0.03554006748120476,-0.304677,-22.04537
11.185,2.0,1.0,1.0,34.8,34.4,34.4,2.4,2.8,2.68,-0.13031565092920266,-0.07175901946248095,0.955760101802847,-0.03763297900867629,-0.313025,-21.827257
11.185,2.0,1.0,1.0,34.8,34.4,34.4,2.4,2.8,2.6825,-0.14553926912949045,-0.07295157573463021,0.9525804734886255,-0.0398276277551193,-0.321754,-21.606368
11.185,2.0,1.0,1.0,34.8,34.4,34.4,2.4,2.8,2.685,-0.1608797452973028,-0.07415189104267089,0.9490824953453645,-0.042129741837938064,-0.33089,-21.382614
11.185,2.0,1.0,1.0,34.8,34.4,34.4,2.4,2.8,2.6875,-0.17633403049543128,-0.07535846116145477,0.945254690858682,-0.04454544408380588,-0.340461,-21.155902
11.185,2.0,1.0,1.0,34.8,34.4,34.4,2.4,2.8,2.69,-0.1918987092814039,-0.07656955251556376,0.9410850509547771,-0.047081284595202055,-0.350495,-20.926132
11.185,2.0,1.0,1.0,34.8,34.4,34.4,2.4,2.8,2.6925,-0.20756996236046732,-0.07778317099662337,0.9365609975721066,-0.04974427635724892,-0.361028,-20.693201
11.185,2.0,1.0,1.0,34.8,34.4,34.4,2.4,2.8,2.695,-0.22334352443112082,-0.0789970262038046,0.9316693439318806,-0.052541934178286,-0.372093,-20.457003
11.185,2.0,1.0,1.0,34.8,34.4,34.4,2.4,2.8,2.6975,-0.23921463646968583,-0.08020849036594459,0.9263962511865894,-0.05548231728109445,-0.383731,-20.217423
11.185,2.0,1.0,1.0,34.8,34.4,34.4,2.4,2.8,2.7,-0.25517799156665344,-0.08141455107189632,0.920727181101633,-0.058574075884638026,-0.395985,-19.974343
11.185,2.0,1.0,1.0,34.8,34.4,34.4,2.4,2.8,2.7025,-0.27122767326821073,-0.0826117567784797,0.9146468444023725,-0.06182650213752828,-0.408902,-19.727638
11.185,2.0,1.0,1.0,34.8,34.4,34.4,2.4,2.8,2.705,-0.28735708518565006,-0.08379615387752667,0.908139144399375,-0.06524958578243367,-0.422535,-19.477177
11.185,2.0,1.0,1.0,34.8,34.4,34.4,2.4,2.8,2.7075,-0.30355887040721774,-0.0849632138786183,0.9011871154905138,-0.06885407494302354,-0.436941,-19.222822
11.185,2.0,1.0,1.0,34.8,34.4,34.4,2.4,2.8,2.71,-0.3198248189731628,-0.08610774899445803,0.8937728561333041,-0.07265154242840668,-0.452184,-18.964429
11.185,2.0,1.0,1.0,34.8,34.4,34.4,2.4,2.8,2.7125,-0.3361457613459321,-0.08722381409199287,0.8858774558890279,-0.07665445793978137,-0.468335,-18.701845
11.185,2.0,1.0,1.0,34.8,34.4,34.4,2.4,2.8,2.715,-0.35251144541179275,-0.08830459258291144,0.8774809161682919,-0.08087626653370537,-0.485473,-18.434911
11.185,2.0,1.0,1.0,34.8,34.4,34.4,2.4,2.8,2.7175,-0.3689103940735355,-0.08934226335809844,0.868562064364641,-0.08533147363714653,-0.503685,-18.163459
11.185,2.0,1.0,1.0,34.8,34.4,34.4,2.4,2.8,2.72,-0.38532973991905295,-0.09032784530510753,0.859098461160975,-0.09003573680902653,-0.52307,-17.887312
11.185,2.0,1.0,1.0,34.8,34.4,34.4,2.4,2.8,2.7225,-0.4017550327567222,-0.09125101526528784,0.8490663009498316,-0.09500596428452875,-0.543735,-17.606284
11.185,2.0,1.0,1.0,34.8,34.4,34.4,2.4,2.8,2.725,-0.4181700149702917,-0.09209989446324136,0.8384403055463696,-0.10026042009887343,-0.565805,-17.320181
11.185,2.0,1.0,1.0,34.8,34.4,34.4,2.4,2.8,2.7275,-0.43455635863368586,-0.09286079744630979,0.8271936117239691,-0.10581883523501155,-0.589417,-17.028798
11.185,2.0,1.0,1.0,34.8,34.4,34.4,2.4,2.8,2.73,-0.4508933571033631,-0.09351793637073617,0.8152976536107736,-0.11170252373132583,-0.614727,-16.73192
11.185,2.0,1.0,1.0,34.8,34.4,34.4,2.4,2.8,2.7325,-0.4671575623312237,-0.09405307202293688,0.8027220417109148,-0.1179345019617221,-0.641911,-16.429322
11.185,2.0,1.0,1.0,34.8,34.4,34.4,2.4,2.8,2.735,-0.48332235736529755,-0.09444510122150791,0.7894344413391517,-0.12453960828014922,-0.671169,-16.120767
11.185,2.0,1.0,1.0,34.8,34.4,34.4,2.4,2.8,2.7375,-0.49935745137443716,-0.09466956815493888,0.7754004546943674,-0.13154461879352863,-0.702727,-15.806009
11.185,2.0,1.0,1.0,34.8,34.4,34.4,2.4,2.8,2.74,-0.5152282819874074,-0.0946980847140289,0.7605835128001972,-0.13897835303920558,-0.736846,-15.48479
11.185,2.0,1.0,1.0,34.8,34.4,34.4,2.4,2.8,2.7425,-0.5308953067165398,-0.09449764191896652,0.7449447863204355,-0.1468717605875904,-0.773822,-15.156842
11.185,2.0,1.0,1.0,34.8,34.4,34.4,2.4,2.8,2.745,-0.5463131616887628,-0.09402979106845484,0.7284431281007892,-0.1552579757837812,-0.813997,-14.821889
11.185,2.0,1.0,1.0,34.8,34.4,34.4,2.4,2.8,2.7475,-0.5614296618002634,-0.09324966922283272,0.711035065589396,-0.16417232259703618,-0.857763,-14.479642
11.185,2.0,1.0,1.0,34.8,34.4,34.4,2.4,2.8,2.75,-0.576184611759035,-0.0921048390908718,0.692674868579806,-0.173652244338601,-0.905578,-14.129808
11.185,2.0,1.0,1.0,34.8,34.4,34.4,2.4,2.8,2.7525,-0.5905083923817273,-0.09053390842285872,0.6733147277236913,-0.18373712312620577,-0.95797,-13.772088
11.185,2.0,1.0,1.0,34.8,34.4,34.4,2.4,2.8,2.755,-0.6043202812219515,-0.08846488887629893,0.6529050929466497,-0.19446794046337876,-1.015556,-13.40618
11.185,2.0,1.0,1.0,34.8,34.4,34.4,2.4,2.8,2.7575,-0.6175264616467272,-0.0858132495336345,0.6313952395600068,-0.20588671189491176,-1.07906,-13.031785
11.185,2.0,1.0,1.0,34.8,34.4,34.4,2.4,2.8,2.76,-0.6300176708082431,-0.08247961677066226,0.608734155187852,-0.21803560373398503,-1.149332,-12.648611
11.185,2.0,1.0,1.0,34.8,34.4,34.4,2.4,2.8,2.7625,-0.6416664362667318,-0.07834707167134536,0.584871874793263,-0.23095560620167446,-1.227376,-12.256381
11.185,2.0,1.0,1.0,34.8,34.4,34.4,2.4,2.8,2.765,-0.6523238561506701,-0.07327800147429289,0.5597614367848566,-0.24468459233806458,-1.314383,-11.854846
11.185,2.0,1.0,1.0,34.8,34.4,34.4,2.4,2.8,2.7675,-0.6618158933594674,-0.06711047722831855,0.5333616935722753,-0.2592545326503813,-1.411772,-11.443795
11.185,2.0,1.0,1.0,34.8,34.4,34.4,2.4,2.8,2.77,-0.6699391878896981,-0.05965416329991165,0.5056412883577998,-0.2746875584069243,-1.521242,-11.023076
11.185,2.0,1.0,1.0,34.8,34.4,34.4,2.4,2.8,2.7725,-0.6764564545751426,-0.05068582712299919,0.476584209176149,-0.2909904690936419,-1.644833,-10.592619
11.185,2.0,1.0,1.0,34.8,34.4,34.4,2.4,2.8,2.775,-0.681091644147336,-0.0399446271110361,0.44619745179897774,-0.30814716134990067,-1.785009,-10.152466
11.185,2.0,1.0,1.0,34.8,34.4,34.4,2.4,2.8,2.7775,-0.6835252297220378,-0.027127538703346176,0.41452146022512065,-0.3261083226285837,-1.944755,-9.702813
11.185,2.0,1.0,1.0,34.8,34.4,34.4,2.4,2.8,2.78,-0.6833902754144224,-0.01188556924563173,0.3816441507341709,-0.34477759916309225,-2.127702,-9.244061
11.185,2.0,1.0,1.0,34.8,34.4,34.4,2.4,2.8,2.7825,-0.6802703970385872,0.0061781408929971575,0.3477194246302586,-0.3639933524721528,-2.338277,-8.77688
11.185,2.0,1.0,1.0,34.8,34.4,34.4,2.4,2.8,2.785,-0.6737013925629861,0.02750657635942632,0.3129910588282248,-0.3835051376726511,-2.581892,-8.302292
11.185,2.0,1.0,1.0,34.8,34.4,34.4,2.4,2.8,2.7875,-0.6631792503101432,0.05258079504512209,0.2778225920230412,-0.40294430862097314,-2.865161,-7.82177
11.185,2.0,1.0,1.0,34.8,34.4,34.4,2.4,2.8,2.79,-0.6481784377266848,0.08190172532018775,0.24273306385884555,-0.4217889091055293,-3.19615,-7.337359
11.185,2.0,1.0,1.0,34.8,34.4,34.4,2.4,2.8,2.7925,-0.6281857084910614,0.11595666519336353,0.20843686630359448,-0.43932458868071406,-3.584632,-6.851808
11.185,2.0,1.0,1.0,34.8,34.4,34.4,2.4,2.8,2.795,-0.6027557485205516,0.1551642848579036,0.1758830871990745,-0.4546061202404307,-4.04229,-6.368721
11.185,2.0,1.0,1.0,34.8,34.4,34.4,2.4,2.8,2.7975,-0.571594948697365,0.19979198831910583,0.1462851700972567,-0.4664285789117864,-4.582709,-5.892692
11.185,2.0,1.0,1.0,34.8,34.4,34.4,2.4,2.8,2.8,-0.5346769173332252,0.249842150982276,0.12112551968056516,-0.47332332373942365,-5.220821,-5.42942
11.185,2.0,1.0,1.0,34.8,34.4,34.4,2.4,2.8,2.8025,-0.492385901063064,0.3049111045832945,0.10211306610614063,-0.47360039694326245,-5.971011,-4.985736
11.185,2.0,1.0,1.0,34.8,34.4,34.4,2.4,2.8,2.805,-0.44567015306548463,0.36403865648057787,0.09106817530117221,-0.46546245714223466,-6.842074,-4.569513
11.185,2.0,1.0,1.0,34.8,34.4,34.4,2.4,2.8,2.8075,-0.39616692678095233,0.4255859315724597,0.08971481210723395,-0.4472098415423893,-7.82524,-4.189382
11.185,2.0,1.0,1.0,34.8,34.4,34.4,2.4,2.8,2.81,-0.3462404020396237,0.48719926349943443,0.0993818047497036,-0.4175346828281943,-8.86862,-3.854209
11.185,2.0,1.0,1.0,34.8,34.4,34.4,2.4,2.8,2.8125,-0.298867713310407,0.545923722581124,0.120656026650667,-0.375861691381305,-9.83469,-3.572341
11.185,2.0,1.0,1.0,34.8,34.4,34.4,2.4,2.8,2.815,-0.2573344255943605,0.5985039260535465,0.1530792197898888,-0.32264522515233895,-10.474291,-3.350696
11.185,2.0,1.0,1.0,34.8,34.4,34.4,2.4,2.8,2.8175,-0.22476649353354675,0.6418450691708699,0.19500809094059213,-0.2595050850946508,-10.528206,-3.193853
11.185,2.0,1.0,1.0,34.8,34.4,34.4,2.4,2.8,2.82,-0.20360921175158364,0.6735251320704837,0.24373068585636162,-0.18910997049235623,-9.962752,-3.103372
11.185,2.0,1.0,1.0,34.8,34.4,34.4,2.4,2.8,2.8225,-0.19521478858657423,0.6921992574100699,0.29584378943494793,-0.11480450152181647,-9.008985,-3.077526
11.185,2.0,1.0,1.0,34.8,34.4,34.4,2.4,2.8,2.825,-0.19967456355993832,0.6977628507126491,0.3477870130609132,-0.04008290956175022,-7.936444,-3.111535
11.185,2.0,1.0,1.0,34.8,34.4,34.4,2.4,2.8,2.8275,-0.21593468082914627,0.691235763391578,0.39636626532962577,0.03192588978867801,-6.909365,-3.198221
11.185,2.0,1.0,1.0,34.8,34.4,34.4,2.4,2.8,2.83,-0.24212357213606245,0.6744385025095437,0.43912065301657427,0.09881846514421434,-5.99547,-3.328905
