1,w,sub_t,h,l1,l2,l3,g1,g2,Freq,S11_re,S21_re,S11_img,S21_img,S11_dB,S21_dB
11.185,2.0,1.0,1.0,34.0,33.6,33.6,2.0,1.8,2.5,0.780094082033474,-0.0182325108484172,0.612361395964763,0.0145563509347325,-0.07211,-32.641522
11.185,2.0,1.0,1.0,34.0,33.6,33.6,2.0,1.8,2.5025,0.7754012745357768,-0.018612048974268092,0.6181369697935524,0.01461360058988398,-0.072961,-32.518386
11.185,2.0,1.0,1.0,34.0,33.6,33.6,2.0,1.8,2.505,0.770639922768135,-0.018999090614683398,0.6239053673064545,0.014668694323814277,-0.07383,-32.39475
11.185,2.0,1.0,1.0,34.0,33.6,33.6,2.0,1.8,2.5075,0.7658092498764446,-0.019393802523967173,0.6296660889928283,0.014721520168980503,-0.074716,-32.270605
11.185,2.0,1.0,1.0,34.0,33.6,33.6,2.0,1.8,2.51,0.7609084665086279,-0.019796355793085793,0.6354186192928386,0.0147719613281081,-0.07562,-32.145943
11.185,2.0,1.0,1.0,34.0,33.6,33.6,2.0,1.8,2.5125,0.7559367706146026,-0.020206925974681947,0.6411624260437321,0.014819895954200909,-0.076543,-32.020755
11.185,2.0,1.0,1.0,34.0,33.6,33.6,2.0,1.8,2.515,0.7508933472443814,-0.020625693211820843,0.6468969599053707,0.014865196919604952,-0.077486,-31.895032
11.185,2.0,1.0,1.0,34.0,33.6,33.6,2.0,1.8,2.5175,0.7457773683443985,-0.021052842370564904,0.6526216537641251,0.014907731573525223,-0.078448,-31.768763
11.185,2.0,1.0,1.0,34.0,33.6,33.6,2.0,1.8,2.52,0.740587992552139,-0.021488563176478525,0.6583359221142224,0.01494736148735568,-0.07943,-31.641941
11.185,2.0,1.0,1.0,34.0,33.6,33.6,2.0,1.8,2.5225,0.735324364989201,-0.021933050355159855,0.6640391604155528,0.014983942187146194,-0.080434,-31.514554
11.185,2.0,1.0,1.0,34.0,33.6,33.6,2.0,1.8,2.525,0.7299856170528805,-0.022386503776901552,0.6697307444269363,0.015017322872485585,-0.081459,-31.386595
11.185,2.0,1.0,1.0,34.0,33.6,33.6,2.0,1.8,2.5275,0.7245708662064229,-0.022849128605577463,0.6754100295137684,0.015047346121037392,-0.082506,-31.258051
11.185,2.0,1.0,1.0,34.0,33.6,33.6,2.0,1.8,2.53,0.7190792157680808,-0.02332113545185354,0.6810763499289149,0.015073847577917071,-0.083576,-31.128914
11.185,2.0,1.0,1.0,34.0,33.6,33.6,2.0,1.8,2.5325,0.7135097546991331,-0.023802740530819776,0.6867290180656718,0.015096655629046411,-0.08467,-30.999173
11.185,2.0,1.0,1.0,34.0,33.6,33.6,2.0,1.8,2.535,0.7078615573910341,-0.0242941658241369,0.6923673236815425,0.01511559105756886,-0.085788,-30.868818
11.185,2.0,1.0,1.0,34.0,33.6,33.6,2.0,1.8,2.5375,0.7021336834518936,-0.024795639246788792,0.697990533091514,0.015130466682349884,-0.086931,-30.737838
11.185,2.0,1.0,1.0,34.0,33.6,33.6,2.0,1.8,2.54,0.6963251774924869,-0.025307394818529436,0.7035978883294484,0.01514108697752332,-0.088099,-30.606222
11.185,2.0,1.0,1.0,34.0,33.6,33.6,2.0,1.8,2.5425,0.6904350689120236,-0.025829672840106874,0.7091886062761268,0.015147247671979933,-0.089295,-30.473959
11.185,2.0,1.0,1.0,34.0,33.6,33.6,2.0,1.8,2.545,0.684462371683931,-0.0263627200743428,0.7147618777524154,0.015148735327619537,-0.090517,-30.341038
11.185,2.0,1.0,1.0,34.0,33.6,33.6,2.0,1.8,2.5475,0.6784060841419293,-0.026906789932137874,0.7203168665759057,0.015145326895114615,-0.091769,-30.207448
11.185,2.0,1.0,1.0,34.0,33.6,33.6,2.0,1.8,2.55,0.6722651887666841,-0.027462142663468355,0.7258527085793461,0.015136789245848213,-0.093049,-30.073176
11.185,2.0,1.0,1.0,34.0,33.6,33.6,2.0,1.8,2.5525,0.6660386519733908,-0.028029045553425353,0.7313685105890146,0.015122878678601587,-0.094359,-29.938212
11.185,2.0,1.0,1.0,34.0,33.6,33.6,2.0,1.8,2.555,0.659725423900628,-0.028607773123342495,0.7368633493611483,0.015103340399472523,-0.0957,-29.802543
11.185,2.0,1.0,1.0,34.0,33.6,33.6,2.0,1.8,2.5575,0.6533244382008816,-0.029198607337041233,0.7423362704743903,0.015077907973402603,-0.097073,-29.666157
11.185,2.0,1.0,1.0,34.0,33.6,33.6,2.0,1.8,2.56,0.6468346118331783,-0.02980183781220933,0.7477862871761113,0.015046302745582454,-0.09848,-29.52904
11.185,2.0,1.0,1.0,34.0,33.6,33.6,2.0,1.8,2.5625,0.6402548448582851,-0.030417762036911492,0.753212379180336,0.015008233230886037,-0.09992,-29.391182
11.185,2.0,1.0,1.0,34.0,33.6,33.6,2.0,1.8,2.565,0.6335840202369979,-0.03104668559121056,0.7586134914148818,0.014963394469359287,-0.101396,-29.252567
11.185,2.0,1.0,1.0,34.0,33.6,33.6,2.0,1.8,2.5675,0.6268210036320787,-0.031688922373854414,0.763988532715141,0.014911467345650938,-0.102908,-29.113184
11.185,2.0,1.0,1.0,34.0,33.6,33.6,2.0,1.8,2.57,0.6199646432144573,-0.032344794833959516,0.7693363744618299,0.014852117870128167,-0.104458,-28.973018
11.185,2.0,1.0,1.0,34.0,33.6,33.6,2.0,1.8,2.5725,0.6130137694743623,-0.033014634207589884,0.7746558491598166,0.014784996419260035,-0.106047,-28.832056
11.185,2.0,1.0,1.0,34.0,33.6,33.6,2.0,1.8,2.575,0.6059671950381181,-0.033698780759097484,0.7799457489549968,0.014709736932683393,-0.107676,-28.690284
11.185,2.0,1.0,1.0,34.0,33.6,33.6,2.0,1.8,2.5775,0.5988237144914151,-0.03439758402705073,0.7852048240859761,0.014625956064181376,-0.109346,-28.547687
11.185,2.0,1.0,1.0,34.0,33.6,33.6,2.0,1.8,2.58,0.5915821042099237,-0.03511140307453316,0.7904317812671149,0.014533252283605946,-0.11106,-28.40425
11.185,2.0,1.0,1.0,34.0,33.6,33.6,2.0,1.8,2.5825,0.5842411221982116,-0.03584060674354432,0.7956252819992851,0.014431204926565544,-0.112818,-28.259958
11.185,2.0,1.0,1.0,34.0,33.6,33.6,2.0,1.8,2.585,0.5767995079380199,-0.03658557391317791,0.800783940804432,0.01431937318846349,-0.114622,-28.114797
11.185,2.0,1.0,1.0,34.0,33.6,33.6,2.0,1.8,2.5875,0.5692559822470434,-0.037346693761186475,0.8059063233797957,0.014197295059227824,-0.116474,-27.96875
11.185,2.0,1.0,1.0,34.0,33.6,33.6,2.0,1.8,2.59,0.5616092471494788,-0.0381243660284686,0.8109909446673632,0.014064486194802871,-0.118375,-27.821801
11.185,2.0,1.0,1.0,34.0,33.6,33.6,2.0,1.8,2.5925,0.5538579857597162,-0.038919001285932314,0.8160362668338214,0.013920438721178655,-0.120328,-27.673933
11.185,2.0,1.0,1.0,34.0,33.6,33.6,2.0,1.8,2.595,0.5460008621807064,-0.039731021203090695,0.821040697155974,0.013764619966424587,-0.122333,-27.525131
11.185,2.0,1.0,1.0,34.0,33.6,33.6,2.0,1.8,2.5975,0.5380365214186428,-0.04056085881764322,0.8260025858062343,0.01359647111584718,-0.124394,-27.375377
11.185,2.0,1.0,1.0,34.0,33.6,33.6,2.0,1.8,2.6,0.5299635893158016,-0.04140895880517224,0.8309202235324282,0.01341540578502576,-0.126512,-27.224653
11.185,2.0,1.0,1.0,34.0,33.6,33.6,2.0,1.8,2.6025,0.5217806725035519,-0.04227577774794589,0.8357918392257381,0.013220808505077201,-0.128689,-27.072941
11.185,2.0,1.0,1.0,34.0,33.6,33.6,2.0,1.8,2.605,0.5134863583777268,-0.04316178440166954,0.8406155973701961,0.013012033114067179,-0.130927,-26.920223
11.185,2.0,1.0,1.0,34.0,33.6,33.6,2.0,1.8,2.6075,0.5050792150988038,-0.04406745995884546,0.8453895953666445,0.012788401048014911,-0.133229,-26.76648
11.185,2.0,1.0,1.0,34.0,33.6,33.6,2.0,1.8,2.61,0.4965577916195725,-0.04499329830720784,0.8501118607235697,0.012549199524423963,-0.135598,-26.611693
11.185,2.0,1.0,1.0,34.0,33.6,33.6,2.0,1.8,2.6125,0.48792061774323575,-0.04593980628147349,0.8547803481066792,0.01229367961071871,-0.138035,-26.455841
11.185,2.0,1.0,1.0,34.0,33.6,33.6,2.0,1.8,2.615,0.47916620421520895,-0.04690750390639676,0.8593929362384678,0.012021054169360184,-0.140544,-26.298906
11.185,2.0,1.0,1.0,34.0,33.6,33.6,2.0,1.8,2.6175,0.47029304285222495,-0.04789692462882854,0.8639474246383723,0.011730495670758049,-0.143128,-26.140864
11.185,2.0,1.0,1.0,34.0,33.6,33.6,2.0,1.8,2.62,0.46129960671272835,-0.04890861553615749,0.8684415301933893,0.011421133864381582,-0.145789,-25.981697
11.185,2.0,1.0,1.0,34.0,33.6,33.6,2.0,1.8,2.6225,0.4521843503129536,-0.04994313755814257,0.8728728835483022,0.011092053297692929,-0.148531,-25.821381
11.185,2.0,1.0,1.0,34.0,33.6,33.6,2.0,1.8,2.625,0.442945709893603,-0.05100106564873,0.877239025303741,0.0107422906716811,-0.151356,-25.659894
11.185,2.0,1.0,1.0,34.0,33.6,33.6,2.0,1.8,2.6275,0.43358210374250855,-0.0520829889439807,0.8815374020094671,0.010370832020846656,-0.15427,-25.497213
11.185,2.0,1.0,1.0,34.0,33.6,33.6,2.0,1.8,2.63,0.4240919325793214,-0.05318951089169564,0.8857653619392128,0.009976609704485996,-0.157274,-25.333315
11.185,2.0,1.0,1.0,34.0,33.6,33.6,2.0,1.8,2.6325,0.41447358000890105,-0.054321249347726995,0.8899201506323468,0.009558499195021313,-0.160373,-25.168175
11.185,2.0,1.0,1.0,34.0,33.6,33.6,2.0,1.8,2.635,0.4047254130508516,-0.055478836633274305,0.8939989061864394,0.009115315647924388,-0.163572,-25.001768
11.185,2.0,1.0,1.0,34.0,33.6,33.6,2.0,1.8,2.6375,0.3948457827534939,-0.05666291954668773,0.897998654283506,0.008645810236474783,-0.166874,-24.834069
11.185,2.0,1.0,1.0,34.0,33.6,33.6,2.0,1.8,2.64,0.38483302490151006,-0.057874159322420356,0.9019163029312751,0.008148666233160457,-0.170284,-24.665051
11.185,2.0,1.0,1.0,34.0,33.6,33.6,2.0,1.8,2.6425,0.374685460827587,-0.05911323152876312,0.905748636899311,0.007622494817967762,-0.173807,-24.494688
11.185,2.0,1.0,1.0,34.0,33.6,33.6,2.0,1.8,2.645,0.3644013983395914,-0.06038082589486147,0.909492311828078,0.007065830592095877,-0.177448,-24.322951
11.185,2.0,1.0,1.0,34.0,33.6,33.6,2.0,1.8,2.6475,0.35397913277618637,-0.06167764605621171,0.9131438479872328,0.006477126773767186,-0.181212,-24.149811
11.185,2.0,1.0,1.0,34.0,33.6,33.6,2.0,1.8,2.65,0.3434169482053367,-0.06300440920636334,0.916699623657358,0.005854750050748856,-0.185106,-23.97524
11.185,2.0,1.0,1.0,34.0,33.6,33.6,2.0,1.8,2.6525,0.33271311878195914,-0.06436184564086657,0.9201558681071539,0.005196975061975967,-0.189135,-23.799206
11.185,2.0,1.0,1.0,34.0,33.6,33.6,2.0,1.8,2.655,0.32186591028289446,-0.06575069817759571,0.9235086541356667,0.004501978478198015,-0.193305,-23.62168
11.185,2.0,1.0,1.0,34.0,33.6,33.6,2.0,1.8,2.6575,0.3108735818397278,-0.06717172143538563,0.9267538901464468,0.003767832648902317,-0.197624,-23.442627
11.185,2.0,1.0,1.0,34.0,33.6,33.6,2.0,1.8,2.66,0.2997343878924909,-0.06862568095042788,0.9298873117176462,0.002992498779810427,-0.202099,-23.262016
11.185,2.0,1.0,1.0,34.0,33.6,33.6,2.0,1.8,2.6625,0.2884465803902792,-0.07011335210701684,0.9329044726288103,0.0021738196020339115,-0.206738,-23.079813
11.185,2.0,1.0,1.0,34.0,33.6,33.6,2.0,1.8,2.665,0.27700841126810055,-0.07163551885597928,0.9358007353016439,0.0013095114904337199,-0.211548,-22.895981
11.185,2.0,1.0,1.0,34.0,33.6,33.6,2.0,1.8,2.6675,0.26541813523315,-0.07319297219038058,0.9385712606081581,0.00039715598486705835,-0.216538,-22.710484
11.185,2.0,1.0,1.0,34.0,33.6,33.6,2.0,1.8,2.67,0.25367401289802294,-0.07478650834382868,0.9412109969953757,-0.0005658093362395451,-0.221719,-22.523286
11.185,2.0,1.0,1.0,34.0,33.6,33.6,2.0,1.8,2.6725,0.24177431430338317,-0.07641692667178747,0.9437146688711623,-0.0015821006851924285,-0.227099,-22.334348
11.185,2.0,1.0,1.0,34.0,33.6,33.6,2.0,1.8,2.675,0.22971732287834115,-0.07808502717067806,0.9460767641906322,-0.0026545986574942047,-0.23269,-22.143628
11.185,2.0,1.0,1.0,34.0,33.6,33.6,2.0,1.8,2.6775,0.2175013398933179,-0.07979160758307632,0.9482915211770491,-0.0037863596533184787,-0.238502,-21.951087
11.185,2.0,1.0,1.0,34.0,33.6,33.6,2.0,1.8,2.68,0.20512468946772233,-0.08153746002987025,0.9503529141050286,-0.004980628199931681,-0.244548,-21.756682
11.185,2.0,1.0,1.0,34.0,33.6,33.6,2.0,1.8,2.6825,0.19258572420342135,-0.0833233671016651,0.9522546380671811,-0.006240850253649099,-0.250841,-21.560368
11.185,2.0,1.0,1.0,34.0,33.6,33.6,2.0,1.8,2.685,0.17988283152493031,-0.08515009733184904,0.95399009263805,-0.007570687567171832,-0.257394,-21.362101
11.185,2.0,1.0,1.0,34.0,33.6,33.6,2.0,1.8,2.6875,0.167014440818755,-0.0870183999623253,0.95555236434123,-0.00897403321606368,-0.264223,-21.161833
11.185,2.0,1.0,1.0,34.0,33.6,33.6,2.0,1.8,2.69,0.1539790314775646,-0.08892899889974858,0.9569342078168839,-0.010455028386742051,-0.271344,-20.959516
11.185,2.0,1.0,1.0,34.0,33.6,33.6,2.0,1.8,2.6925,0.14077514197013818,-0.09088258574487619,0.9581280255774501,-0.01201808053771018,-0.278773,-20.755099
11.185,2.0,1.0,1.0,34.0,33.6,33.6,2.0,1.8,2.695,0.1274013800758476,-0.09287981176000447,0.9591258462290492,-0.013667883055880826,-0.286529,-20.54853
11.185,2.0,1.0,1.0,34.0,33.6,33.6,2.0,1.8,2.6975,0.11385643444281285,-0.09492127861903991,0.9599193010250778,-0.015409436540788874,-0.294633,-20.339757
11.185,2.0,1.0,1.0,34.0,33.6,33.6,2.0,1.8,2.7,0.10013908765279464,-0.09700752776103162,0.9604995986064886,-0.017248071861235805,-0.303105,-20.128722
11.185,2.0,1.0,1.0,34.0,33.6,33.6,2.0,1.8,2.7025,0.0862482310034225,-0.09913902814046469,0.9608574977704796,-0.019189475141496482,-0.311969,-19.915368
11.185,2.0,1.0,1.0,34.0,33.6,33.6,2.0,1.8,2.705,0.0721828812505222,-0.10131616213558349,0.9609832780956554,-0.021239714847584877,-0.321249,-19.699636
11.185,2.0,1.0,1.0,34.0,33.6,33.6,2.0,1.8,2.7075,0.05794219959068279,-0.10353920933874164,0.9608667082372646,-0.023405271158181078,-0.330973,-19.481464
11.185,2.0,1.0,1.0,34.0,33.6,33.6,2.0,1.8,2.71,0.043525513207784694,-0.10580832790932794,0.9604970116909818,-0.025693067819534243,-0.341171,-19.260788
11.185,2.0,1.0,1.0,34.0,33.6,33.6,2.0,1.8,2.7125,0.02893233975798267,-0.10812353311914177,0.9598628298080587,-0.028110506698816123,-0.351873,-19.037541
11.185,2.0,1.0,1.0,34.0,33.6,33.6,2.0,1.8,2.715,0.0141624152270996,-0.11048467266090313,0.958952181828672,-0.030665505265712663,-0.363114,-18.811655
11.185,2.0,1.0,1.0,34.0,33.6,33.6,2.0,1.8,2.7175,-0.0007842743363136705,-0.11289139822139568,0.9577524216845208,-0.03336653724713375,-0.374932,-18.583059
11.185,2.0,1.0,1.0,34.0,33.6,33.6,2.0,1.8,2.72,-0.01590745662763804,-0.11534313273978553,0.9562501913064474,-0.03622267671422574,-0.387368,-18.351679
11.185,2.0,1.0,1.0,34.0,33.6,33.6,2.0,1.8,2.7225,-0.03120653175294748,-0.11783903267685467,0.9544313701591016,-0.039243645873639654,-0.400466,-18.117438
11.185,2.0,1.0,1.0,34.0,33.6,33.6,2.0,1.8,2.725,-0.046680524964465356,-0.12037794450975393,0.9522810207131319,-0.042439866845148555,-0.414274,-17.880258
11.185,2.0,1.0,1.0,34.0,33.6,33.6,2.0,1.8,2.7275,-0.06232803254258773,-0.12295835453655823,0.9497833295577885,-0.04582251771387687,-0.428847,-17.640057
11.185,2.0,1.0,1.0,34.0,33.6,33.6,2.0,1.8,2.73,-0.07814715974843854,-0.12557833092192286,0.9469215438547584,-0.049403593145591056,-0.444241,-17.39675
11.185,2.0,1.0,1.0,34.0,33.6,33.6,2.0,1.8,2.7325,-0.0941354495904201,-0.12823545673554781,0.9436779028401536,-0.05319596984527627,-0.460522,-17.150249
11.185,2.0,1.0,1.0,34.0,33.6,33.6,2.0,1.8,2.735,-0.11028980093593706,-0.1309267525241979,0.9400335640991841,-0.057213477119098126,-0.477759,-16.900464
11.185,2.0,1.0,1.0,34.0,33.6,33.6,2.0,1.8,2.7375,-0.12660637425002316,-0.1336485867102644,0.9359685243714416,-0.06147097276345292,-0.496029,-16.647302
11.185,2.0,1.0,1.0,34.0,33.6,33.6,2.0,1.8,2.74,-0.14308048294946188,-0.13639657181886708,0.931461534699898,-0.0659844244461632,-0.515417,-16.390665
11.185,2.0,1.0,1.0,34.0,33.6,33.6,2.0,1.8,2.7425,-0.15970646801660673,-0.13916544419396684,0.9264900098212074,-0.07077099665630468,-0.536018,-16.130455
11.185,2.0,1.0,1.0,34.0,33.6,33.6,2.0,1.8,2.745,-0.17647755311298632,-0.14194892446341606,0.9210299318188995,-0.07584914317044468,-0.557936,-15.866568
11.185,2.0,1.0,1.0,34.0,33.6,33.6,2.0,1.8,2.7475,-0.19338567695899161,-0.14473955554380158,0.9150557482376672,-0.08123870480093856,-0.581284,-15.5989
11.185,2.0,1.0,1.0,34.0,33.6,33.6,2.0,1.8,2.75,-0.210421299191589,-0.147528514427673,0.90854026510358,-0.0869610119390098,-0.606193,-15.327341
11.185,2.0,1.0,1.0,34.0,33.6,33.6,2.0,1.8,2.7525,-0.22757317526529253,-0.1503053933566834,0.901454535634284,-0.09303899105891884,-0.632803,-15.051783
11.185,2.0,1.0,1.0,34.0,33.6,33.6,2.0,1.8,2.755,-0.24482809520939716,-0.15305794524201605,0.8937677458844931,-0.09949727388011065,-0.661274,-14.77211
11.185,2.0,1.0,1.0,34.0,33.6,33.6,2.0,1.8,2.7575,-0.26217058018417316,-0.1557717873358862,0.8854470991936674,-0.10636230725352006,-0.691783,-14.48821
11.185,2.0,1.0,1.0,34.0,33.6,33.6,2.0,1.8,2.76,-0.2795825297778714,-0.15843005617345138,0.8764577021345616,-0.11366246099640082,-0.724528,-14.199966
11.185,2.0,1.0,1.0,34.0,33.6,33.6,2.0,1.8,2.7625,-0.2970428118454645,-0.16101300568441973,0.8667624557674561,-0.12142812978309173,-0.759733,-13.907261
11.185,2.0,1.0,1.0,34.0,33.6,33.6,2.0,1.8,2.765,-0.3145267854042959,-0.16349753911453607,0.8563219574685755,-0.12969182372417326,-0.797648,-13.609977
11.185,2.0,1.0,1.0,34.0,33.6,33.6,2.0,1.8,2.7675,-0.33200574567567703,-0.1658566640050018,0.8450944205288022,-0.13848824032763288,-0.838555,-13.308001
11.185,2.0,1.0,1.0,34.0,33.6,33.6,2.0,1.8,2.77,-0.349446278815243,-0.16805885797456532,0.8330356212464842,-0.1478543079977411,-0.882774,-13.001217
11.185,2.0,1.0,1.0,34.0,33.6,33.6,2.0,1.8,2.7725,-0.36680951225271724,-0.17006733148144534,0.8200988865382624,-0.15782918791929035,-0.930665,-12.689518
11.185,2.0,1.0,1.0,34.0,33.6,33.6,2.0,1.8,2.775,-0.3840502449473902,-0.1718391721964298,0.8062351393810021,-0.16845421688235523,-0.98264,-12.3728
11.185,2.0,1.0,1.0,34.0,33.6,33.6,2.0,1.8,2.7775,-0.40111594040069837,-0.17332435423950743,0.7913930249445864,-0.17977276806042508,-1.039166,-12.050968
11.185,2.0,1.0,1.0,34.0,33.6,33.6,2.0,1.8,2.78,-0.41794556418114126,-0.17446459455329916,0.7755191474068708,-0.19182999964009437,-1.100776,-11.72394
11.185,2.0,1.0,1.0,34.0,33.6,33.6,2.0,1.8,2.7825,-0.4344682473673939,-0.17519203846921313,0.7585584565481681,-0.20467245213066662,-1.16808,-11.391647
11.185,2.0,1.0,1.0,34.0,33.6,33.6,2.0,1.8,2.785,-0.45060175824617255,-0.17542775761401894,0.7404548347507375,-0.21834744371929732,-1.241778,-11.054043
11.185,2.0,1.0,1.0,34.0,33.6,33.6,2.0,1.8,2.7875,-0.466250767618813,-0.17508004651564538,0.7211519494658685,-0.23290219870843448,-1.322675,-10.711104
11.185,2.0,1.0,1.0,34.0,33.6,33.6,2.0,1.8,2.79,-0.48130489934898063,-0.174042510773244,0.7005944540374758,-0.24838262641613967,-1.4117,-10.362843
11.185,2.0,1.0,1.0,34.0,33.6,33.6,2.0,1.8,2.7925,-0.49563656899758485,-0.172191951130449,0.6787296413705793,-0.26483164657818614,-1.509926,-10.00931
11.185,2.0,1.0,1.0,34.0,33.6,33.6,2.0,1.8,2.795,-0.509098631876888,-0.16938606656054128,0.6555096804283668,-0.28228693217503686,-1.6186,-9.650607
11.185,2.0,1.0,1.0,34.0,33.6,33.6,2.0,1.8,2.7975,-0.5215218907928634,-0.16546102869725499,0.6308945945168729,-0.30077791217674843,-1.739167,-9.286899
11.185,2.0,1.0,1.0,34.0,33.6,33.6,2.0,1.8,2.8,-0.5327125573233988,-0.1602290237762393,0.6048561713638423,-0.32032184641629424,-1.873315,-8.91843
11.185,2.0,1.0,1.0,34.0,33.6,33.6,2.0,1.8,2.8025,-0.542449823987127,-0.15347592190972456,0.5773830250223361,-0.3409187558251714,-2.023012,-8.545535
11.185,2.0,1.0,1.0,34.0,33.6,33.6,2.0,1.8,2.805,-0.550483794355076,-0.1449593231507161,0.5484870528167222,-0.3625449694724912,-2.190562,-8.168667
11.185,2.0,1.0,1.0,34.0,33.6,33.6,2.0,1.8,2.8075,-0.5565341407094574,-0.13440735190495065,0.5182115369468643,-0.3851450452445321,-2.378667,-7.788413
11.185,2.0,1.0,1.0,34.0,33.6,33.6,2.0,1.8,2.81,-0.5602900199314222,-0.1215187312355483,0.48664111407926713,-0.40862184949462077,-2.590498,-7.405528
11.185,2.0,1.0,1.0,34.0,33.6,33.6,2.0,1.8,2.8125,-0.561411979789741,-0.105964868011755,0.45391375346188,-0.432824666326294,-2.82978,-7.020957
11.185,2.0,1.0,1.0,34.0,33.6,33.6,2.0,1.8,2.815,-0.5595368228903577,-0.08739491141353707,0.4202347115243782,-0.45753538238027586,-3.100888,-6.635873
11.185,2.0,1.0,1.0,34.0,33.6,33.6,2.0,1.8,2.8175,-0.5542866409254968,-0.06544498719785646,0.3858921260891142,-0.4824531000349418,-3.408957,-6.25171
11.185,2.0,1.0,1.0,34.0,33.6,33.6,2.0,1.8,2.82,-0.5452834367857423,-0.03975300715294927,0.3512734290451208,-0.5071780170354133,-3.759996,-5.870192
11.185,2.0,1.0,1.0,34.0,33.6,33.6,2.0,1.8,2.8225,-0.5321708254821844,-0.009980516052375262,0.31688105332977673,-0.5311961115464313,-4.160995,-5.493369
11.185,2.0,1.0,1.0,34.0,33.6,33.6,2.0,1.8,2.825,-0.5146441047724781,0.024157174198193933,0.28334498226787763,-0.5538670924454049,-4.62001,-5.123635
11.185,2.0,1.0,1.0,34.0,33.6,33.6,2.0,1.8,2.8275,-0.4924893219944526,0.06285199072355316,0.2514286056715777,-0.5744191439235583,-5.146164,-4.763735
11.185,2.0,1.0,1.0,34.0,33.6,33.6,2.0,1.8,2.83,-0.46563062574507885,0.10615602075788096,0.22202330698349237,-0.5919550095877457,-5.74945,-4.416757
