1,w,sub_t,h,l1,l2,l3,g1,g2,Freq,S11_re,S21_re,S11_img,S21_img,S11_dB,S21_dB
11.185,2.0,1.0,1.0,33.6,33.2,33.2,2.0,1.9,2.5,0.832678610236721,-0.0130742934310446,0.54079815067433,0.0125983883342434,-0.06204,-34.819383
11.185,2.0,1.0,1.0,33.6,33.2,33.2,2.0,1.9,2.5025,0.8288709449657272,-0.013349538860646234,0.5464794436506007,0.012670489420707389,-0.062699,-34.701188
11.185,2.0,1.0,1.0,33.6,33.2,33.2,2.0,1.9,2.505,0.8250061920817342,-0.013630076482618426,0.5521590141586159,0.012741672686190612,-0.063369,-34.582595
11.185,2.0,1.0,1.0,33.6,33.2,33.2,2.0,1.9,2.5075,0.8210837376149933,-0.013916019611509366,0.5578365628057157,0.01281188012191277,-0.06405,-34.463598
11.185,2.0,1.0,1.0,33.6,33.2,33.2,2.0,1.9,2.51,0.8171029575338977,-0.014207484448459973,0.5635117804564338,0.012881051238725417,-0.064744,-34.344189
11.185,2.0,1.0,1.0,33.6,33.2,33.2,2.0,1.9,2.5125,0.8130632175658598,-0.014504590164518896,0.569184347909027,0.012949122957997192,-0.06545,-34.224359
11.185,2.0,1.0,1.0,33.6,33.2,33.2,2.0,1.9,2.515,0.8089638730151786,-0.014807458986559306,0.5748539355600506,0.01301602949733007,-0.066169,-34.104102
11.185,2.0,1.0,1.0,33.6,33.2,33.2,2.0,1.9,2.5175,0.8048042685779144,-0.01511621628588016,0.5805202030564925,0.013081702250838776,-0.066901,-33.983409
11.185,2.0,1.0,1.0,33.6,33.2,33.2,2.0,1.9,2.52,0.8005837381537375,-0.015430990669578242,0.5861827989349877,0.013146069663710036,-0.067646,-33.862273
11.185,2.0,1.0,1.0,33.6,33.2,33.2,2.0,1.9,2.5225,0.7963016046547716,-0.01575191407477739,0.5918413602475708,0.013209057100742154,-0.068406,-33.740685
11.185,2.0,1.0,1.0,33.6,33.2,33.2,2.0,1.9,2.525,0.7919571798114127,-0.016079121865806123,0.5974955121734479,0.013270586708549465,-0.069179,-33.618637
11.185,2.0,1.0,1.0,33.6,33.2,33.2,2.0,1.9,2.5275,0.7875497639751333,-0.016412752934415277,0.6031448676162127,0.013330577271094754,-0.069968,-33.496121
11.185,2.0,1.0,1.0,33.6,33.2,33.2,2.0,1.9,2.53,0.7830786459182778,-0.01675294980313109,0.6087890267859074,0.013388944058198312,-0.070772,-33.373128
11.185,2.0,1.0,1.0,33.6,33.2,33.2,2.0,1.9,2.5325,0.7785431026308589,-0.017099858731839522,0.6144275767653169,0.013445598666645641,-0.071591,-33.249651
11.185,2.0,1.0,1.0,33.6,33.2,33.2,2.0,1.9,2.535,0.7739423991143685,-0.01745362982770276,0.6200600910598454,0.013500448853498728,-0.072427,-33.12568
11.185,2.0,1.0,1.0,33.6,33.2,33.2,2.0,1.9,2.5375,0.7692757881726253,-0.01781441715850752,0.6256861291302837,0.013553398361189323,-0.073279,-33.001206
11.185,2.0,1.0,1.0,33.6,33.2,33.2,2.0,1.9,2.54,0.7645425101996848,-0.018182378869550507,0.6313052359077691,0.013604346733949715,-0.074149,-32.876221
11.185,2.0,1.0,1.0,33.6,33.2,33.2,2.0,1.9,2.5425,0.7597417929648351,-0.018557677304165437,0.636916941290179,0.013653189125107223,-0.075036,-32.750716
11.185,2.0,1.0,1.0,33.6,33.2,33.2,2.0,1.9,2.545,0.7548728513947284,-0.018940479128,0.6425207596191802,0.01369981609474379,-0.075941,-32.624681
11.185,2.0,1.0,1.0,33.6,33.2,33.2,2.0,1.9,2.5475,0.7499348873526847,-0.019330955457151612,0.6481161891370986,0.01374411339718804,-0.076865,-32.498107
11.185,2.0,1.0,1.0,33.6,33.2,33.2,2.0,1.9,2.55,0.7449270894152181,-0.019729281990273996,0.6537027114227723,0.01378596175777813,-0.077808,-32.370985
11.185,2.0,1.0,1.0,33.6,33.2,33.2,2.0,1.9,2.5525,0.7398486326458591,-0.020135639144765495,0.6592797908054404,0.013825236638296774,-0.078771,-32.243305
11.185,2.0,1.0,1.0,33.6,33.2,33.2,2.0,1.9,2.555,0.734698678366329,-0.020550212197155065,0.6648468737557572,0.013861807990444909,-0.079754,-32.115057
11.185,2.0,1.0,1.0,33.6,33.2,33.2,2.0,1.9,2.5575,0.7294763739251507,-0.020973191427798493,0.6704033882529042,0.013895539996679753,-0.080759,-31.986232
11.185,2.0,1.0,1.0,33.6,33.2,33.2,2.0,1.9,2.56,0.7241808524637959,-0.021404772270002197,0.6759487431267569,0.013926290797702516,-0.081785,-31.856819
11.185,2.0,1.0,1.0,33.6,33.2,33.2,2.0,1.9,2.5625,0.7188112326804582,-0.021845155463688447,0.6814823273739976,0.013953912205834392,-0.082833,-31.726808
11.185,2.0,1.0,1.0,33.6,33.2,33.2,2.0,1.9,2.565,0.7133666185915768,-0.022294547213719335,0.687003509447017,0.013978249403473844,-0.083904,-31.596189
11.185,2.0,1.0,1.0,33.6,33.2,33.2,2.0,1.9,2.5675,0.7078460992912421,-0.022753159352992602,0.6925116365143708,0.013999140625774628,-0.084999,-31.464951
11.185,2.0,1.0,1.0,33.6,33.2,33.2,2.0,1.9,2.57,0.7022487487086251,-0.023221209510424456,0.6980060336915029,0.014016416826630957,-0.086119,-31.333084
11.185,2.0,1.0,1.0,33.6,33.2,33.2,2.0,1.9,2.5725,0.6965736253635929,-0.023698921283930544,0.703486003240388,0.014029901326996374,-0.087263,-31.200576
11.185,2.0,1.0,1.0,33.6,33.2,33.2,2.0,1.9,2.575,0.6908197721206966,-0.024186524418514512,0.7089508237366458,0.014039409444501234,-0.088434,-31.067416
11.185,2.0,1.0,1.0,33.6,33.2,33.2,2.0,1.9,2.5775,0.6849862159417273,-0.02468425498957014,0.7143997492026322,0.014044748103264544,-0.089631,-30.933593
11.185,2.0,1.0,1.0,33.6,33.2,33.2,2.0,1.9,2.58,0.6790719676370705,-0.02519235559149825,0.7198320082048963,0.014045715422726512,-0.090856,-30.799096
11.185,2.0,1.0,1.0,33.6,33.2,33.2,2.0,1.9,2.5825,0.6730760216160996,-0.025711075531734854,0.7252468029143456,0.01404210028424723,-0.09211,-30.663913
11.185,2.0,1.0,1.0,33.6,33.2,33.2,2.0,1.9,2.585,0.6669973556368861,-0.026240671030279973,0.7306433081273233,0.014033681874138367,-0.093393,-30.528031
11.185,2.0,1.0,1.0,33.6,33.2,33.2,2.0,1.9,2.5875,0.6608349305555267,-0.026781405424807746,0.7360206702457404,0.014020229201700804,-0.094706,-30.391439
11.185,2.0,1.0,1.0,33.6,33.2,33.2,2.0,1.9,2.59,0.6545876900754225,-0.027333549381430462,0.7413780062142651,0.014001500590750058,-0.09605,-30.254124
11.185,2.0,1.0,1.0,33.6,33.2,33.2,2.0,1.9,2.5925,0.6482545604968746,-0.027897381111175953,0.7467144024124859,0.013977243143005408,-0.097427,-30.116073
11.185,2.0,1.0,1.0,33.6,33.2,33.2,2.0,1.9,2.595,0.64183445046741,-0.028473186592224677,0.7520289134998206,0.013947192171610596,-0.098837,-29.977274
11.185,2.0,1.0,1.0,33.6,33.2,33.2,2.0,1.9,2.5975,0.6353262507332709,-0.02906125979793858,0.7573205612108317,0.01391107060293303,-0.100282,-29.837714
11.185,2.0,1.0,1.0,33.6,33.2,33.2,2.0,1.9,2.6,0.6287288338925643,-0.029661902930693144,0.7625883330984554,0.01386858834466352,-0.101762,-29.697379
11.185,2.0,1.0,1.0,33.6,33.2,33.2,2.0,1.9,2.6025,0.622041054150619,-0.03027542666150339,0.7678311812225095,0.013819441618099334,-0.103278,-29.556255
11.185,2.0,1.0,1.0,33.6,33.2,33.2,2.0,1.9,2.605,0.6152617470781266,-0.03090215037541162,0.7730480207806831,0.013763312252345818,-0.104833,-29.414329
11.185,2.0,1.0,1.0,33.6,33.2,33.2,2.0,1.9,2.6075,0.608389729372735,-0.03154240242257374,0.7782377286790425,0.013699866938013217,-0.106427,-29.271586
11.185,2.0,1.0,1.0,33.6,33.2,33.2,2.0,1.9,2.61,0.6014237986248051,-0.0321965203749495,0.7833991420389051,0.013628756437814393,-0.108062,-29.128013
11.185,2.0,1.0,1.0,33.6,33.2,33.2,2.0,1.9,2.6125,0.5943627330881175,-0.032864851288465544,0.7885310566367251,0.013549614751281178,-0.109739,-28.983593
11.185,2.0,1.0,1.0,33.6,33.2,33.2,2.0,1.9,2.615,0.587205291456397,-0.033547751970475784,0.7936322252734479,0.013462058230621698,-0.111459,-28.838312
11.185,2.0,1.0,1.0,33.6,33.2,33.2,2.0,1.9,2.6175,0.579950212646611,-0.03424558925229569,0.7987013560695356,0.013365684644522483,-0.113224,-28.692155
11.185,2.0,1.0,1.0,33.6,33.2,33.2,2.0,1.9,2.62,0.5725962155900851,-0.034958740266530654,0.8037371106816402,0.013260072186467735,-0.115036,-28.545105
11.185,2.0,1.0,1.0,33.6,33.2,33.2,2.0,1.9,2.6225,0.5651419990325877,-0.03568759272885721,0.8087381024366359,0.013144778423896858,-0.116896,-28.397147
11.185,2.0,1.0,1.0,33.6,33.2,33.2,2.0,1.9,2.625,0.557586241344658,-0.0364325452238396,0.813702894378429,0.0130193391842504,-0.118805,-28.248265
11.185,2.0,1.0,1.0,33.6,33.2,33.2,2.0,1.9,2.6275,0.5499276003435585,-0.03719400749428786,0.81862999722268,0.012883267373659017,-0.120767,-28.098441
11.185,2.0,1.0,1.0,33.6,33.2,33.2,2.0,1.9,2.63,0.5421647131284002,-0.037972400733565136,0.8235178672142222,0.01273605172371362,-0.122782,-27.947658
11.185,2.0,1.0,1.0,33.6,33.2,33.2,2.0,1.9,2.6325,0.5342961959301191,-0.038768157880150075,0.8283649038816224,0.01257715546141282,-0.124853,-27.795899
11.185,2.0,1.0,1.0,33.6,33.2,33.2,2.0,1.9,2.635,0.526320643978172,-0.039581723913638095,0.833169447682948,0.012406014897004911,-0.126981,-27.643145
11.185,2.0,1.0,1.0,33.6,33.2,33.2,2.0,1.9,2.6375,0.5182366313860098,-0.04041355615123045,0.8379297775363714,0.01222203792404582,-0.12917,-27.489379
11.185,2.0,1.0,1.0,33.6,33.2,33.2,2.0,1.9,2.64,0.5100427110575719,-0.041264124543606694,0.8426441082288362,0.012024602425549829,-0.13142,-27.334581
11.185,2.0,1.0,1.0,33.6,33.2,33.2,2.0,1.9,2.6425,0.5017374146173218,-0.04213391196889986,0.8473105876954782,0.011813054579639172,-0.133735,-27.178732
11.185,2.0,1.0,1.0,33.6,33.2,33.2,2.0,1.9,2.645,0.49331925236656715,-0.0430234145232985,0.8519272941620282,0.011586707057580843,-0.136117,-27.021813
11.185,2.0,1.0,1.0,33.6,33.2,33.2,2.0,1.9,2.6475,0.48478671326912337,-0.043933141806573185,0.8564922331417912,0.011344837106539031,-0.138568,-26.863803
11.185,2.0,1.0,1.0,33.6,33.2,33.2,2.0,1.9,2.65,0.47613826496966905,-0.04486361720057569,0.8610033342782616,0.011086684508765106,-0.141092,-26.704681
11.185,2.0,1.0,1.0,33.6,33.2,33.2,2.0,1.9,2.6525,0.46737235384855946,-0.04581537813846556,0.8654584480236903,0.010811449408282374,-0.143691,-26.544427
11.185,2.0,1.0,1.0,33.6,33.2,33.2,2.0,1.9,2.655,0.4584874051171876,-0.04678897636210161,0.8698553421432673,0.010518289995407491,-0.146368,-26.383019
11.185,2.0,1.0,1.0,33.6,33.2,33.2,2.0,1.9,2.6575,0.4494818229585013,-0.047784978164660076,0.8741916980337462,0.010206320038663506,-0.149127,-26.220433
11.185,2.0,1.0,1.0,33.6,33.2,33.2,2.0,1.9,2.66,0.4403539907177315,-0.04880396461512846,0.8784651068445217,0.009874606252790206,-0.151971,-26.056648
11.185,2.0,1.0,1.0,33.6,33.2,33.2,2.0,1.9,2.6625,0.4311022711489935,-0.049846531760847135,0.8826730653882254,0.009522165490627265,-0.154903,-25.89164
11.185,2.0,1.0,1.0,33.6,33.2,33.2,2.0,1.9,2.665,0.42172500672399804,-0.050913290803738485,0.8868129718269074,0.009147961745634078,-0.157927,-25.725385
11.185,2.0,1.0,1.0,33.6,33.2,33.2,2.0,1.9,2.6675,0.4122205200098689,-0.0520048682452482,0.8908821211187641,0.008750902950708038,-0.161047,-25.557858
11.185,2.0,1.0,1.0,33.6,33.2,33.2,2.0,1.9,2.67,0.4025871141238086,-0.053121905994338664,0.8948777002091872,0.00832983755775736,-0.164267,-25.389034
11.185,2.0,1.0,1.0,33.6,33.2,33.2,2.0,1.9,2.6725,0.39282307327325416,-0.05426506143208663,0.8987967829486118,0.007883550881172409,-0.167592,-25.218886
11.185,2.0,1.0,1.0,33.6,33.2,33.2,2.0,1.9,2.675,0.3829266633911924,-0.05543500742554591,0.9026363247181826,0.007410761186905779,-0.171026,-25.047389
11.185,2.0,1.0,1.0,33.6,33.2,33.2,2.0,1.9,2.6775,0.3728961328773778,-0.05663243228252508,0.9063931567427741,0.0069101155073025,-0.174574,-24.874514
11.185,2.0,1.0,1.0,33.6,33.2,33.2,2.0,1.9,2.68,0.36272971345751154,-0.05785803963777847,0.9100639800691335,0.006380185160114073,-0.178241,-24.700233
11.185,2.0,1.0,1.0,33.6,33.2,33.2,2.0,1.9,2.6825,0.3524256211738499,-0.05911254825979672,0.9136453591851186,0.005819460948255453,-0.182033,-24.524518
11.185,2.0,1.0,1.0,33.6,33.2,33.2,2.0,1.9,2.685,0.34198205752234007,-0.060396691765894864,0.917133715253957,0.0052263480148194786,-0.185955,-24.347338
11.185,2.0,1.0,1.0,33.6,33.2,33.2,2.0,1.9,2.6875,0.33139721075319367,-0.06171121823159505,0.920525318935265,0.004599160325627834,-0.190014,-24.168662
11.185,2.0,1.0,1.0,33.6,33.2,33.2,2.0,1.9,2.69,0.3206692573539397,-0.06305688967836234,0.9238162827621106,0.003936114749146582,-0.194216,-23.98846
11.185,2.0,1.0,1.0,33.6,33.2,33.2,2.0,1.9,2.6925,0.30979636373626807,-0.06443448142154747,0.9270025530408127,0.003235324700918739,-0.198568,-23.806698
11.185,2.0,1.0,1.0,33.6,33.2,33.2,2.0,1.9,2.695,0.29877668815075664,-0.0658447812578591,0.9300799012372416,0.002494793316733714,-0.203077,-23.623343
11.185,2.0,1.0,1.0,33.6,33.2,33.2,2.0,1.9,2.6975,0.2876083828565152,-0.06728858846881448,0.9330439148102364,0.0017124061155457508,-0.207752,-23.43836
11.185,2.0,1.0,1.0,33.6,33.2,33.2,2.0,1.9,2.7,0.2762895965763226,-0.06876671261331162,0.9358899874493009,0.0008859231096449105,-0.2126,-23.251714
11.185,2.0,1.0,1.0,33.6,33.2,33.2,2.0,1.9,2.7025,0.2648184772717384,-0.07027997207869896,0.9386133086699352,1.2970315736819473e-05,-0.21763,-23.063368
11.185,2.0,1.0,1.0,33.6,33.2,33.2,2.0,1.9,2.705,0.2531931752771888,-0.071829192355391,0.941208852715845,-0.000908969383607957,-0.222851,-22.873285
11.185,2.0,1.0,1.0,33.6,33.2,33.2,2.0,1.9,2.7075,0.24141184683717073,-0.07341520399512616,0.9436713667127078,-0.0018825660832801354,-0.228275,-22.681425
11.185,2.0,1.0,1.0,33.6,33.2,33.2,2.0,1.9,2.71,0.22947265809662626,-0.0750388402072699,0.9459953580132445,-0.002910653463898587,-0.23391,-22.487748
11.185,2.0,1.0,1.0,33.6,33.2,33.2,2.0,1.9,2.7125,0.217373789601221,-0.07670093404103799,0.9481750806679476,-0.003996240230680196,-0.23977,-22.292214
11.185,2.0,1.0,1.0,33.6,33.2,33.2,2.0,1.9,2.715,0.20511344137209364,-0.0784023150939971,0.9502045209498371,-0.00514252245456685,-0.245865,-22.094778
11.185,2.0,1.0,1.0,33.6,33.2,33.2,2.0,1.9,2.7175,0.1926898386284029,-0.08014380567855635,0.952077381855272,-0.006352896893807265,-0.252209,-21.895397
11.185,2.0,1.0,1.0,33.6,33.2,33.2,2.0,1.9,2.72,0.18010123824129784,-0.08192621636819981,0.9537870664957475,-0.0076309753813090546,-0.258817,-21.694026
11.185,2.0,1.0,1.0,33.6,33.2,33.2,2.0,1.9,2.7225,0.16734593601461425,-0.08375034083372551,0.9553266602879833,-0.008980600370831596,-0.265702,-21.490616
11.185,2.0,1.0,1.0,33.6,33.2,33.2,2.0,1.9,2.725,0.15442227490117086,-0.08561694986648798,0.9566889118413524,-0.010405861743487088,-0.272882,-21.285121
11.185,2.0,1.0,1.0,33.6,33.2,33.2,2.0,1.9,2.7275,0.1413286542791021,-0.0875267844703258,0.9578662124326861,-0.011911114985131348,-0.280373,-21.077488
11.185,2.0,1.0,1.0,33.6,33.2,33.2,2.0,1.9,2.73,0.12806354043073576,-0.08948054788611505,0.9588505739488224,-0.01350100085504385,-0.288194,-20.867667
11.185,2.0,1.0,1.0,33.6,33.2,33.2,2.0,1.9,2.7325,0.11462547838732882,-0.09147889639237035,0.9596336051668215,-0.015180466676872314,-0.296365,-20.655604
11.185,2.0,1.0,1.0,33.6,33.2,33.2,2.0,1.9,2.735,0.10101310532714139,-0.09352242870150543,0.960206486230635,-0.016954789394125445,-0.304908,-20.441243
11.185,2.0,1.0,1.0,33.6,33.2,33.2,2.0,1.9,2.7375,0.08722516574226041,-0.09561167374375502,0.960559941171139,-0.01882960054454566,-0.313846,-20.224526
11.185,2.0,1.0,1.0,33.6,33.2,33.2,2.0,1.9,2.74,0.0732605286221022,-0.09774707659866874,0.9606842083038664,-0.020810913320415694,-0.323204,-20.005395
11.185,2.0,1.0,1.0,33.6,33.2,33.2,2.0,1.9,2.7425,0.05911820693919508,-0.09992898229678564,0.9605690083256573,-0.022905151895183398,-0.33301,-19.783788
11.185,2.0,1.0,1.0,33.6,33.2,33.2,2.0,1.9,2.745,0.04479737976672015,-0.10215761717066608,0.9602035099178856,-0.025119183210569808,-0.343292,-19.559641
11.185,2.0,1.0,1.0,33.6,33.2,33.2,2.0,1.9,2.7475,0.030297417408373016,-0.10443306738385782,0.9595762926500654,-0.02746035143236524,-0.354082,-19.332889
11.185,2.0,1.0,1.0,33.6,33.2,33.2,2.0,1.9,2.75,0.0156179099806527,-0.10675525420736,0.958675306963904,-0.0299365152970951,-0.365417,-19.103464
11.185,2.0,1.0,1.0,33.6,33.2,33.2,2.0,1.9,2.7525,0.0007586999570857077,-0.10912390554425863,0.9574878310046796,-0.032556088585227544,-0.377332,-18.871295
11.185,2.0,1.0,1.0,33.6,33.2,33.2,2.0,1.9,2.755,-0.01428008073492212,-0.11153852312272299,0.9560004240546236,-0.03532808396898805,-0.389869,-18.63631
11.185,2.0,1.0,1.0,33.6,33.2,33.2,2.0,1.9,2.7575,-0.029497968379228266,-0.11399834468345658,0.9541988763128807,-0.038262160493338304,-0.403074,-18.398433
11.185,2.0,1.0,1.0,33.6,33.2,33.2,2.0,1.9,2.76,-0.04489411910172983,-0.1165023003775827,0.9520681547594472,-0.04136867495611344,-0.416993,-18.157586
11.185,2.0,1.0,1.0,33.6,33.2,33.2,2.0,1.9,2.7625,-0.060467253540782244,-0.11904896246205918,0.9495923448379558,-0.044658737456257605,-0.431682,-17.91369
11.185,2.0,1.0,1.0,33.6,33.2,33.2,2.0,1.9,2.765,-0.07621559347925179,-0.12163648722873939,0.9467545876961488,-0.04814427137550521,-0.447198,-17.666661
11.185,2.0,1.0,1.0,33.6,33.2,33.2,2.0,1.9,2.7675,-0.09213678918229473,-0.1242625479263218,0.9435370127361076,-0.05183807804612821,-0.463605,-17.416413
11.185,2.0,1.0,1.0,33.6,33.2,33.2,2.0,1.9,2.77,-0.10822783597645828,-0.12692425722718506,0.9399206652521661,-0.05575390633201833,-0.480973,-17.162858
11.185,2.0,1.0,1.0,33.6,33.2,33.2,2.0,1.9,2.7725,-0.12448497836150117,-0.12961807754829224,0.9358854289776556,-0.05990652730780617,-0.499381,-16.905905
11.185,2.0,1.0,1.0,33.6,33.2,33.2,2.0,1.9,2.775,-0.14090359966038826,-0.132339717250994,0.9314099434281092,-0.06431181415498262,-0.518912,-16.645459
11.185,2.0,1.0,1.0,33.6,33.2,33.2,2.0,1.9,2.7775,-0.15747809487831824,-0.135084010411803,0.9264715160262464,-0.06898682729719043,-0.539661,-16.381424
11.185,2.0,1.0,1.0,33.6,33.2,33.2,2.0,1.9,2.78,-0.1742017240505857,-0.13784477746726556,0.921046029133159,-0.07394990465882938,-0.561732,-16.113701
11.185,2.0,1.0,1.0,33.6,33.2,33.2,2.0,1.9,2.7825,-0.19106644290283367,-0.1406146635822142,0.9151078423041548,-0.07922075673847649,-0.58524,-15.842187
11.185,2.0,1.0,1.0,33.6,33.2,33.2,2.0,1.9,2.785,-0.2080627071161095,-0.14338495106238547,0.9086296903537967,-0.08482056592415037,-0.610312,-15.56678
11.185,2.0,1.0,1.0,33.6,33.2,33.2,2.0,1.9,2.7875,-0.2251792458728972,-0.1461453415193509,0.9015825781757314,-0.09077208911857561,-0.637091,-15.287371
11.185,2.0,1.0,1.0,33.6,33.2,33.2,2.0,1.9,2.79,-0.24240279964831465,-0.14888370278744326,0.8939356737477248,-0.09709976226039276,-0.665734,-15.003855
11.185,2.0,1.0,1.0,33.6,33.2,33.2,2.0,1.9,2.7925,-0.2597178163925739,-0.15158577477865742,0.8856562013989633,-0.1038298046840496,-0.696418,-14.71612
11.185,2.0,1.0,1.0,33.6,33.2,33.2,2.0,1.9,2.795,-0.2771060993183261,-0.1542348275337698,0.8767093382735114,-0.11099032040865753,-0.729341,-14.424058
11.185,2.0,1.0,1.0,33.6,33.2,33.2,2.0,1.9,2.7975,-0.2945463984535631,-0.15681126368076315,0.8670581180533211,-0.11861139232217564,-0.764724,-14.127557
11.185,2.0,1.0,1.0,33.6,33.2,33.2,2.0,1.9,2.8,-0.31201393694884844,-0.15929215634588184,0.8566633474860886,-0.12672516375263423,-0.802815,-13.826509
11.185,2.0,1.0,1.0,33.6,33.2,33.2,2.0,1.9,2.8025,-0.3294798618472109,-0.1616507122892928,0.8454835431991995,-0.13536589999149595,-0.843895,-13.520806
11.185,2.0,1.0,1.0,33.6,33.2,33.2,2.0,1.9,2.805,-0.3469106076642487,-0.1638556486841431,0.8334748987993389,-0.1445700198279707,-0.888278,-13.210342
11.185,2.0,1.0,1.0,33.6,33.2,33.2,2.0,1.9,2.8075,-0.36426715973844387,-0.1658704705783849,0.8205912955191386,-0.15437608390681637,-0.936323,-12.895019
11.185,2.0,1.0,1.0,33.6,33.2,33.2,2.0,1.9,2.81,-0.38150420299093485,-0.16765263476607528,0.8067843738774414,-0.1648247225369715,-0.988434,-12.574744
11.185,2.0,1.0,1.0,33.6,33.2,33.2,2.0,1.9,2.8125,-0.398569140631916,-0.169152584700644,0.792003689212737,-0.17595848021106,-1.045072,-12.249434
11.185,2.0,1.0,1.0,33.6,33.2,33.2,2.0,1.9,2.815,-0.4154009667067928,-0.1703126404445655,0.7761969808230003,-0.1878215472549221,-1.10676,-11.919016
11.185,2.0,1.0,1.0,33.6,33.2,33.2,2.0,1.9,2.8175,-0.43192897655172713,-0.17106572782978274,0.759310593141087,-0.20045934037211927,-1.174099,-11.583438
11.185,2.0,1.0,1.0,33.6,33.2,33.2,2.0,1.9,2.82,-0.448071300766555,-0.17133393253916535,0.7412900982740879,-0.21391788300170633,-1.247773,-11.242665
11.185,2.0,1.0,1.0,33.6,33.2,33.2,2.0,1.9,2.8225,-0.463733252000203,-0.17102686849544815,0.7220811827346558,-0.22824292297361334,-1.328569,-10.89669
11.185,2.0,1.0,1.0,33.6,33.2,33.2,2.0,1.9,2.825,-0.47880548080623575,-0.1700398568815428,0.7016308776546586,-0.24347870856452325,-1.417392,-10.545539
11.185,2.0,1.0,1.0,33.6,33.2,33.2,2.0,1.9,2.8275,-0.4931619486425242,-0.1682519238860481,0.679889231430377,-0.2596663244961299,-1.515288,-10.189279
11.185,2.0,1.0,1.0,33.6,33.2,33.2,2.0,1.9,2.83,-0.5066577449223338,-0.16552364402373482,0.6568115465463257,-0.2768414667351868,-1.623462,-9.828027
