1,w,sub_t,h,l1,l2,l3,g1,g2,Freq,S11_re,S21_re,S11_img,S21_img,S11_dB,S21_dB
11.185,2.0,1.0,1.0,33.6,33.4,33.4,3.6,4.4,2.5,0.841657058859396,-0.00523501311082603,0.52834702434956,0.00314062776312914,-0.054465,-44.286534
11.185,2.0,1.0,1.0,33.6,33.4,33.4,3.6,4.4,2.5025,0.8379903955796241,-0.005330682060905874,0.5340405721650708,0.0031393915843884973,-0.054949,-44.171194
11.185,2.0,1.0,1.0,33.6,33.4,33.4,3.6,4.4,2.505,0.8342688875887021,-0.005427770796781484,0.539732324790546,0.003137315929058818,-0.05544,-44.055694
11.185,2.0,1.0,1.0,33.6,33.4,33.4,3.6,4.4,2.5075,0.8304920082749356,-0.005526300433107096,0.5454219860801586,0.003134374238105366,-0.055939,-43.940026
11.185,2.0,1.0,1.0,33.6,33.4,33.4,3.6,4.4,2.51,0.8266592237024841,-0.005626292426951442,0.5511092513119501,0.003130539145270471,-0.056446,-43.824185
11.185,2.0,1.0,1.0,33.6,33.4,33.4,3.6,4.4,2.5125,0.8227699925308419,-0.005727768582388073,0.5567938069294508,0.003125782450189924,-0.056961,-43.708163
11.185,2.0,1.0,1.0,33.6,33.4,33.4,3.6,4.4,2.515,0.818823765934939,-0.005830751055058972,0.5624753302756625,0.003120075090528759,-0.057485,-43.591954
11.185,2.0,1.0,1.0,33.6,33.4,33.4,3.6,4.4,2.5175,0.8148199875259705,-0.005935262356702917,0.5681534893191453,0.0031133871130972447,-0.058017,-43.475552
11.185,2.0,1.0,1.0,33.6,33.4,33.4,3.6,4.4,2.52,0.8107580932730636,-0.006041325359641715,0.5738279423719996,0.00310568764390555,-0.058557,-43.35895
11.185,2.0,1.0,1.0,33.6,33.4,33.4,3.6,4.4,2.5225,0.8066375114259123,-0.006148963301214424,0.5794983377994751,0.0030969448571143104,-0.059107,-43.242142
11.185,2.0,1.0,1.0,33.6,33.4,33.4,3.6,4.4,2.525,0.8024576624384981,-0.006258199788151404,0.5851643137209765,0.0030871259428358433,-0.059665,-43.12512
11.185,2.0,1.0,1.0,33.6,33.4,33.4,3.6,4.4,2.5275,0.7982179588940352,-0.006369058800877679,0.5908254977021999,0.003076197073739279,-0.060233,-43.007877
11.185,2.0,1.0,1.0,33.6,33.4,33.4,3.6,4.4,2.53,0.7939178054312882,-0.006481564697734953,0.596481506438136,0.003064123370409988,-0.060809,-42.890408
11.185,2.0,1.0,1.0,33.6,33.4,33.4,3.6,4.4,2.5325,0.7895565986724066,-0.006595742219111043,0.6021319454266647,0.0030508688654122757,-0.061396,-42.772705
11.185,2.0,1.0,1.0,33.6,33.4,33.4,3.6,4.4,2.535,0.7851337271524409,-0.006711616491464458,0.6077764086324711,0.0030363964660012044,-0.061992,-42.654762
11.185,2.0,1.0,1.0,33.6,33.4,33.4,3.6,4.4,2.5375,0.780648571250713,-0.006829213031230805,0.6134144781409785,0.0030206679154273566,-0.062599,-42.536571
11.185,2.0,1.0,1.0,33.6,33.4,33.4,3.6,4.4,2.54,0.7761005031242144,-0.006948557748597027,0.6190457238020153,0.0030036437527755032,-0.063215,-42.418126
11.185,2.0,1.0,1.0,33.6,33.4,33.4,3.6,4.4,2.5425,0.7714888866432247,-0.007069676951128628,0.6246697028629036,0.00298528327127547,-0.063842,-42.299419
11.185,2.0,1.0,1.0,33.6,33.4,33.4,3.6,4.4,2.545,0.7668130773293524,-0.007192597347233462,0.6302859595906611,0.0029655444750205373,-0.06448,-42.180443
11.185,2.0,1.0,1.0,33.6,33.4,33.4,3.6,4.4,2.5475,0.7620724222962105,-0.007317346049445063,0.6358940248829795,0.0029443840340255775,-0.065128,-42.061192
11.185,2.0,1.0,1.0,33.6,33.4,33.4,3.6,4.4,2.55,0.7572662601929412,-0.0074439505775070886,0.6414934158676705,0.002921757237554062,-0.065788,-41.941658
11.185,2.0,1.0,1.0,33.6,33.4,33.4,3.6,4.4,2.5525,0.7523939211508452,-0.007572438861238624,0.6470836354902111,0.002897617945639371,-0.066459,-41.821834
11.185,2.0,1.0,1.0,33.6,33.4,33.4,3.6,4.4,2.555,0.747454726733346,-0.007702839243160353,0.6526641720890555,0.0028719185387225724,-0.067141,-41.701712
11.185,2.0,1.0,1.0,33.6,33.4,33.4,3.6,4.4,2.5575,0.7424479898895556,-0.007835180480857754,0.6582344989583508,0.002844609865324664,-0.067835,-41.581286
11.185,2.0,1.0,1.0,33.6,33.4,33.4,3.6,4.4,2.56,0.7373730149117302,-0.007969491749058482,0.6637940738976728,0.002815641187667651,-0.068542,-41.460547
11.185,2.0,1.0,1.0,33.6,33.4,33.4,3.6,4.4,2.5625,0.7322290973968967,-0.008105802641396894,0.6693423387484151,0.002784960125154112,-0.069261,-41.339488
11.185,2.0,1.0,1.0,33.6,33.4,33.4,3.6,4.4,2.565,0.7270155242129569,-0.008244143171839467,0.6748787189164307,0.0027525125956109654,-0.069992,-41.218102
11.185,2.0,1.0,1.0,33.6,33.4,33.4,3.6,4.4,2.5675,0.7217315734696088,-0.00838454377574065,0.6804026228805237,0.002718242754197828,-0.070737,-41.096381
11.185,2.0,1.0,1.0,33.6,33.4,33.4,3.6,4.4,2.57,0.7163765144944084,-0.008527035310498586,0.6859134416863794,0.002682092929875898,-0.071494,-40.974317
11.185,2.0,1.0,1.0,33.6,33.4,33.4,3.6,4.4,2.5725,0.710949607814344,-0.008671649055776331,0.6914105484255052,0.0026440035593275693,-0.072266,-40.851903
11.185,2.0,1.0,1.0,33.6,33.4,33.4,3.6,4.4,2.575,0.7054501051432983,-0.008818416713253495,0.69689329769875,0.0026039131182114656,-0.073051,-40.729129
11.185,2.0,1.0,1.0,33.6,33.4,33.4,3.6,4.4,2.5775,0.6998772493757985,-0.008967370405869379,0.7023610250639437,0.0025617580496318975,-0.07385,-40.605989
11.185,2.0,1.0,1.0,33.6,33.4,33.4,3.6,4.4,2.58,0.6942302745874774,-0.009118542676517113,0.7078130464672026,0.0025174726896950404,-0.074664,-40.482474
11.185,2.0,1.0,1.0,33.6,33.4,33.4,3.6,4.4,2.5825,0.6885084060426815,-0.009271966486144688,0.7132486576574273,0.002470989190017722,-0.075492,-40.358576
11.185,2.0,1.0,1.0,33.6,33.4,33.4,3.6,4.4,2.585,0.6827108602096996,-0.009427675211216638,0.7186671335835022,0.002422237437047491,-0.076336,-40.234286
11.185,2.0,1.0,1.0,33.6,33.4,33.4,3.6,4.4,2.5875,0.6768368447840938,-0.009585702640486013,0.724067727773704,0.0023711449680452953,-0.077195,-40.109596
11.185,2.0,1.0,1.0,33.6,33.4,33.4,3.6,4.4,2.59,0.6708855587206561,-0.009746082971023504,0.7294496716967975,0.002317636883573814,-0.07807,-39.984498
11.185,2.0,1.0,1.0,33.6,33.4,33.4,3.6,4.4,2.5925,0.6648561922745211,-0.009908850803447063,0.7348121741043043,0.0022616357563262864,-0.078962,-39.858983
11.185,2.0,1.0,1.0,33.6,33.4,33.4,3.6,4.4,2.595,0.6587479270520235,-0.010074041136290143,0.7401544203533907,0.0022030615361216415,-0.07987,-39.733042
11.185,2.0,1.0,1.0,33.6,33.4,33.4,3.6,4.4,2.5975,0.6525599360718755,-0.010241689359444733,0.745475571709834,0.002141831450881909,-0.080795,-39.606666
11.185,2.0,1.0,1.0,33.6,33.4,33.4,3.6,4.4,2.6,0.6462913838373074,-0.01041183124660858,0.7507747646304916,0.002077859903397969,-0.081737,-39.479846
11.185,2.0,1.0,1.0,33.6,33.4,33.4,3.6,4.4,2.6025,0.639941426419838,-0.010584502946662442,0.7560511100246881,0.002011058363678813,-0.082698,-39.352573
11.185,2.0,1.0,1.0,33.6,33.4,33.4,3.6,4.4,2.605,0.6335092115553499,-0.010759740973898195,0.7613036924939289,0.0019413352566677404,-0.083676,-39.224838
11.185,2.0,1.0,1.0,33.6,33.4,33.4,3.6,4.4,2.6075,0.6269938787532194,-0.010937582197011759,0.7665315695493197,0.0018685958450967968,-0.084674,-39.096631
11.185,2.0,1.0,1.0,33.6,33.4,33.4,3.6,4.4,2.61,0.6203945594192584,-0.011118063826770719,0.7717337708060651,0.0017927421072376445,-0.08569,-38.967942
11.185,2.0,1.0,1.0,33.6,33.4,33.4,3.6,4.4,2.6125,0.613710376993275,-0.011301223402258219,0.7769092971543999,0.0017136726092927708,-0.086727,-38.838762
11.185,2.0,1.0,1.0,33.6,33.4,33.4,3.6,4.4,2.615,0.6069404471020954,-0.011487098775589386,0.782057119906295,0.0016312823721563888,-0.087783,-38.709081
11.185,2.0,1.0,1.0,33.6,33.4,33.4,3.6,4.4,2.6175,0.6000838777289401,-0.011675728094988177,0.7871761799172494,0.0015454627322580893,-0.088861,-38.578888
11.185,2.0,1.0,1.0,33.6,33.4,33.4,3.6,4.4,2.62,0.5931397694000852,-0.011867149786104701,0.7922653866824808,0.0014561011961853557,-0.089959,-38.448174
11.185,2.0,1.0,1.0,33.6,33.4,33.4,3.6,4.4,2.6225,0.5861072153897785,-0.012061402531445298,0.7973236174067976,0.001363081288762746,-0.091079,-38.316928
11.185,2.0,1.0,1.0,33.6,33.4,33.4,3.6,4.4,2.625,0.578985301944456,-0.0122585252477769,0.802349716047413,0.00126628239424612,-0.092222,-38.18514
11.185,2.0,1.0,1.0,33.6,33.4,33.4,3.6,4.4,2.6275,0.5717731085273122,-0.012458557061358963,0.8073424923289614,0.0011655795902692308,-0.093387,-38.052797
11.185,2.0,1.0,1.0,33.6,33.4,33.4,3.6,4.4,2.63,0.5644697080843746,-0.012661537280844298,0.8123007207299363,0.0010608434741574521,-0.094576,-37.919891
11.185,2.0,1.0,1.0,33.6,33.4,33.4,3.6,4.4,2.6325,0.5570741673332551,-0.012867505367678781,0.8172231394397672,0.0009519399811997723,-0.095789,-37.786408
11.185,2.0,1.0,1.0,33.6,33.4,33.4,3.6,4.4,2.635,0.5495855470758294,-0.01307650090381807,0.8221084492857137,0.0008387301944438842,-0.097026,-37.652339
11.185,2.0,1.0,1.0,33.6,33.4,33.4,3.6,4.4,2.6375,0.5420029025361536,-0.013288563556564692,0.8269553126287524,0.0007210701455519587,-0.098289,-37.517671
11.185,2.0,1.0,1.0,33.6,33.4,33.4,3.6,4.4,2.64,0.5343252837249708,-0.01350373304031552,0.8317623522276016,0.0005988106062243537,-0.099578,-37.382392
11.185,2.0,1.0,1.0,33.6,33.4,33.4,3.6,4.4,2.6425,0.5265517358322614,-0.013722049074992899,0.8365281500699995,0.00047179686966718274,-0.100894,-37.24649
11.185,2.0,1.0,1.0,33.6,33.4,33.4,3.6,4.4,2.645,0.5186812996493334,-0.013943551340915614,0.8412512461703429,0.0003398685215445441,-0.102237,-37.109953
11.185,2.0,1.0,1.0,33.6,33.4,33.4,3.6,4.4,2.6475,0.5107130120220359,-0.014168279429847885,0.8459301373327509,0.00020285919981970769,-0.103609,-36.972768
11.185,2.0,1.0,1.0,33.6,33.4,33.4,3.6,4.4,2.65,0.5026459063367402,-0.014396272791943499,0.8505632758786141,6.059634284892366e-05,-0.105009,-36.834922
11.185,2.0,1.0,1.0,33.6,33.4,33.4,3.6,4.4,2.6525,0.4944790130408504,-0.014627570678280391,0.8551490683376298,-8.709907495055936e-05,-0.106439,-36.696402
11.185,2.0,1.0,1.0,33.6,33.4,33.4,3.6,4.4,2.655,0.4862113601996336,-0.014862212078657904,0.8596858741013362,-0.000240412820584516,-0.1079,-36.557195
11.185,2.0,1.0,1.0,33.6,33.4,33.4,3.6,4.4,2.6575,0.47784197409130197,-0.015100235654301651,0.8641720040380917,-0.00039953769389295855,-0.109392,-36.417286
11.185,2.0,1.0,1.0,33.6,33.4,33.4,3.6,4.4,2.66,0.469369879842334,-0.015341679665093665,0.8686057190684356,-0.0005646738337189474,-0.110916,-36.276662
11.185,2.0,1.0,1.0,33.6,33.4,33.4,3.6,4.4,2.6625,0.46079410210515076,-0.015586581890913671,0.8729852286997192,-0.0007360290397233435,-0.112474,-36.135309
11.185,2.0,1.0,1.0,33.6,33.4,33.4,3.6,4.4,2.665,0.4521136657803253,-0.015834979546644815,0.8773086895188716,-0.0009138191107980274,-0.114066,-35.993211
11.185,2.0,1.0,1.0,33.6,33.4,33.4,3.6,4.4,2.6675,0.44332759678566036,-0.016086909190358586,0.8815742036421151,-0.0010982682010981498,-0.115693,-35.850353
11.185,2.0,1.0,1.0,33.6,33.4,33.4,3.6,4.4,2.67,0.43443492287454033,-0.016342406624155363,0.8857798171204043,-0.0012896091947892058,-0.117356,-35.70672
11.185,2.0,1.0,1.0,33.6,33.4,33.4,3.6,4.4,2.6725,0.4254346745060964,-0.016601506787091228,0.8899235182993325,-0.0014880841006851828,-0.119057,-35.562296
11.185,2.0,1.0,1.0,33.6,33.4,33.4,3.6,4.4,2.675,0.4163258857698642,-0.016864243639574263,0.8940032361321691,-0.0016939444680419387,-0.120796,-35.417065
11.185,2.0,1.0,1.0,33.6,33.4,33.4,3.6,4.4,2.6775,0.40710759536771957,-0.017130650038560034,0.8980168384446747,-0.0019074518248651468,-0.122574,-35.271009
11.185,2.0,1.0,1.0,33.6,33.4,33.4,3.6,4.4,2.68,0.3977788476560301,-0.0174007576028181,0.9019621301502535,-0.0021288781401962876,-0.124393,-35.124113
11.185,2.0,1.0,1.0,33.6,33.4,33.4,3.6,4.4,2.6825,0.3883386937511124,-0.01767459656747694,0.9058368514139533,-0.0023585063119522976,-0.126254,-34.976358
11.185,2.0,1.0,1.0,33.6,33.4,33.4,3.6,4.4,2.685,0.37878619270122355,-0.017952195626983924,0.9096386757637533,-0.002596630682017971,-0.128159,-34.827727
11.185,2.0,1.0,1.0,33.6,33.4,33.4,3.6,4.4,2.6875,0.369120412728487,-0.0182335817655403,0.913365208147496,-0.00284355758042389,-0.130108,-34.6782
11.185,2.0,1.0,1.0,33.6,33.4,33.4,3.6,4.4,2.69,0.3593404325443409,-0.018518780073983773,0.9170139829337404,-0.003099605900588218,-0.132103,-34.527759
11.185,2.0,1.0,1.0,33.6,33.4,33.4,3.6,4.4,2.6925,0.34944534274224226,-0.018807813551998228,0.9205824618547227,-0.003365107707761227,-0.134145,-34.376384
11.185,2.0,1.0,1.0,33.6,33.4,33.4,3.6,4.4,2.695,0.33943424727161214,-0.019100702894423446,0.9240680318894949,-0.003640408882983942,-0.136236,-34.224055
11.185,2.0,1.0,1.0,33.6,33.4,33.4,3.6,4.4,2.6975,0.3293062649971465,-0.019397466260323626,0.9274680030852149,-0.003925869805064706,-0.138378,-34.070751
11.185,2.0,1.0,1.0,33.6,33.4,33.4,3.6,4.4,2.7,0.3190605313479102,-0.019698119023343143,0.9307796063144149,-0.004221866073283798,-0.140572,-33.916451
11.185,2.0,1.0,1.0,33.6,33.4,33.4,3.6,4.4,2.7025,0.3086962000608034,-0.02000267350173635,0.9339999909659438,-0.004528789273766102,-0.14282,-33.761133
11.185,2.0,1.0,1.0,33.6,33.4,33.4,3.6,4.4,2.705,0.2982124450232985,-0.02031113866629864,0.9371262225671181,-0.004847047792710909,-0.145124,-33.604774
11.185,2.0,1.0,1.0,33.6,33.4,33.4,3.6,4.4,2.7075,0.28760846222056957,-0.020623519824249717,0.9401552803344311,-0.005177067679942849,-0.147485,-33.447351
11.185,2.0,1.0,1.0,33.6,33.4,33.4,3.6,4.4,2.71,0.2768834717924715,-0.020939818276923747,0.943084054649977,-0.005519293566548865,-0.149905,-33.28884
11.185,2.0,1.0,1.0,33.6,33.4,33.4,3.6,4.4,2.7125,0.26603672020610236,-0.02126003094889971,0.9459093444605216,-0.005874189640697936,-0.152387,-33.129216
11.185,2.0,1.0,1.0,33.6,33.4,33.4,3.6,4.4,2.715,0.25506748255005623,-0.02158414998596237,0.948627854595893,-0.006242240686103151,-0.154933,-32.968453
11.185,2.0,1.0,1.0,33.6,33.4,33.4,3.6,4.4,2.7175,0.2439750649568145,-0.02191216231900759,0.9512361930030971,-0.0066239531879881235,-0.157544,-32.806525
11.185,2.0,1.0,1.0,33.6,33.4,33.4,3.6,4.4,2.72,0.23275880716015615,-0.022244049190698875,0.9537308678922233,-0.007019856511859402,-0.160224,-32.643403
11.185,2.0,1.0,1.0,33.6,33.4,33.4,3.6,4.4,2.7225,0.22141808519486236,-0.02257978564133922,0.9561082847898777,-0.007430504160875977,-0.162975,-32.479061
11.185,2.0,1.0,1.0,33.6,33.4,33.4,3.6,4.4,2.725,0.20995231424652744,-0.02291933995003008,0.9583647434954474,-0.00785647511814097,-0.165799,-32.313468
11.185,2.0,1.0,1.0,33.6,33.4,33.4,3.6,4.4,2.7275,0.19836095165973916,-0.023262673026760345,0.9604964349350721,-0.008298375280838287,-0.168699,-32.146595
11.185,2.0,1.0,1.0,33.6,33.4,33.4,3.6,4.4,2.73,0.18664350011354933,-0.02360973775057055,0.9624994379076707,-0.008756838993789113,-0.171677,-31.978409
11.185,2.0,1.0,1.0,33.6,33.4,33.4,3.6,4.4,2.7325,0.17479951097371693,-0.023960478248389292,0.9643697157168114,-0.0092325306907329,-0.174738,-31.808878
11.185,2.0,1.0,1.0,33.6,33.4,33.4,3.6,4.4,2.735,0.16282858783197274,-0.024314829108510783,0.9661031126815396,-0.009726146652438953,-0.177883,-31.637969
11.185,2.0,1.0,1.0,33.6,33.4,33.4,3.6,4.4,2.7375,0.1507303902432904,-0.024672714521976002,0.9676953505185765,-0.010238416891648497,-0.181117,-31.465646
11.185,2.0,1.0,1.0,33.6,33.4,33.4,3.6,4.4,2.74,0.13850463767306329,-0.0250340473443186,0.9691420245874441,-0.010770107175834404,-0.184442,-31.291873
11.185,2.0,1.0,1.0,33.6,33.4,33.4,3.6,4.4,2.7425,0.126151113667019,-0.02539872806922823,0.970438599989157,-0.011322021199866143,-0.187863,-31.116612
11.185,2.0,1.0,1.0,33.6,33.4,33.4,3.6,4.4,2.745,0.11366967025784011,-0.025766643704649622,0.9715804075080592,-0.011895002921887,-0.191383,-30.939824
11.185,2.0,1.0,1.0,33.6,33.4,33.4,3.6,4.4,2.7475,0.10106023262365599,-0.02613766654066258,0.9725626393851879,-0.012489939077069814,-0.195007,-30.761468
11.185,2.0,1.0,1.0,33.6,33.4,33.4,3.6,4.4,2.75,0.0883228040149803,-0.026511652797146,0.973380344910204,-0.0131077618854301,-0.198738,-30.581502
11.185,2.0,1.0,1.0,33.6,33.4,33.4,3.6,4.4,2.7525,0.07545747096822854,-0.026888441137702043,0.9740284258174045,-0.01374945197156121,-0.202581,-30.399882
11.185,2.0,1.0,1.0,33.6,33.4,33.4,3.6,4.4,2.755,0.062464408825754006,-0.027267851034565655,0.9745016314696037,-0.014416041516035582,-0.206541,-30.21656
11.185,2.0,1.0,1.0,33.6,33.4,33.4,3.6,4.4,2.7575,0.04934388758431794,-0.027649680967225327,0.9747945538117276,-0.015108617660318936,-0.210624,-30.031491
11.185,2.0,1.0,1.0,33.6,33.4,33.4,3.6,4.4,2.76,0.03609627809630857,-0.02803370643518057,0.9749016220737576,-0.015828326189386132,-0.214835,-29.844623
11.185,2.0,1.0,1.0,33.6,33.4,33.4,3.6,4.4,2.7625,0.022722058650583778,-0.028419677762624683,0.974817097200162,-0.016576375518855792,-0.219178,-29.655904
11.185,2.0,1.0,1.0,33.6,33.4,33.4,3.6,4.4,2.765,0.009221821962929984,-0.02880731766980252,0.9745350659801421,-0.01735404101639589,-0.223662,-29.465281
11.185,2.0,1.0,1.0,33.6,33.4,33.4,3.6,4.4,2.7675,-0.0044037173904149735,-0.029196318582289788,0.9740494348498079,-0.01816266969044402,-0.228291,-29.272695
11.185,2.0,1.0,1.0,33.6,33.4,33.4,3.6,4.4,2.77,-0.018153715058688225,-0.02958633964539421,0.9733539233337898,-0.01900368528297766,-0.233074,-29.078088
11.185,2.0,1.0,1.0,33.6,33.4,33.4,3.6,4.4,2.7725,-0.03202718847980284,-0.029977003406198226,0.9724420570896961,-0.019878593807209178,-0.238017,-28.881398
11.185,2.0,1.0,1.0,33.6,33.4,33.4,3.6,4.4,2.775,-0.046023007873270634,-0.030367892120331436,0.9713071605141795,-0.02078898957573111,-0.243129,-28.68256
11.185,2.0,1.0,1.0,33.6,33.4,33.4,3.6,4.4,2.7775,-0.060139886608991354,-0.03075854363425926,0.9699423488641169,-0.021736561769863653,-0.248417,-28.481504
11.185,2.0,1.0,1.0,33.6,33.4,33.4,3.6,4.4,2.78,-0.07437637089076964,-0.0311484467865348,0.9683405198404637,-0.022723101606833086,-0.253892,-28.278161
11.185,2.0,1.0,1.0,33.6,33.4,33.4,3.6,4.4,2.7825,-0.08873082868483634,-0.03153703626290268,0.9664943445755793,-0.023750510168019972,-0.259563,-28.072454
11.185,2.0,1.0,1.0,33.6,33.4,33.4,3.6,4.4,2.785,-0.10320143781375352,-0.03192368683014972,0.9643962579571875,-0.02482080695896509,-0.265439,-27.864307
11.185,2.0,1.0,1.0,33.6,33.4,33.4,3.6,4.4,2.7875,-0.1177861731242923,-0.032307706861885443,0.9620384482134715,-0.025936139280198656,-0.271533,-27.653635
11.185,2.0,1.0,1.0,33.6,33.4,33.4,3.6,4.4,2.79,-0.13248279262420815,-0.032688331055703346,0.9594128456739845,-0.027098792497409874,-0.277857,-27.440352
11.185,2.0,1.0,1.0,33.6,33.4,33.4,3.6,4.4,2.7925,-0.14728882246657507,-0.03306471222501754,0.9565111106099667,-0.028311201310110792,-0.284424,-27.224368
11.185,2.0,1.0,1.0,33.6,33.4,33.4,3.6,4.4,2.795,-0.16220154064132497,-0.033435912029834876,0.9533246200450475,-0.02957596212994737,-0.291247,-27.005586
11.185,2.0,1.0,1.0,33.6,33.4,33.4,3.6,4.4,2.7975,-0.17721795921092404,-0.03380089048823232,0.9498444534131214,-0.030895846693312305,-0.298342,-26.783905
11.185,2.0,1.0,1.0,33.6,33.4,33.4,3.6,4.4,2.8,-0.1923348049004291,-0.03415849408368582,0.946061376924066,-0.03227381704813473,-0.305725,-26.559219
11.185,2.0,1.0,1.0,33.6,33.4,33.4,3.6,4.4,2.8025,-0.2075484978202384,-0.03450744225179608,0.9419658264798051,-0.033713042071833975,-0.313415,-26.331415
11.185,2.0,1.0,1.0,33.6,33.4,33.4,3.6,4.4,2.805,-0.22285512806191818,-0.03484631199235731,0.9375478889627421,-0.035216915696659926,-0.32143,-26.100376
11.185,2.0,1.0,1.0,33.6,33.4,33.4,3.6,4.4,2.8075,-0.23825042986215644,-0.03517352030787255,0.9327972816955,-0.036789077040227665,-0.329793,-25.865975
11.185,2.0,1.0,1.0,33.6,33.4,33.4,3.6,4.4,2.81,-0.25372975297564637,-0.03548730411598987,0.9277033298449803,-0.0384334326632137,-0.338525,-25.628081
11.185,2.0,1.0,1.0,33.6,33.4,33.4,3.6,4.4,2.8125,-0.26928803083249,-0.0357856972190355,0.92225494151477,-0.0401541812031393,-0.347653,-25.386554
11.185,2.0,1.0,1.0,33.6,33.4,33.4,3.6,4.4,2.815,-0.2849197449773785,-0.03606650383651455,0.9164405802375142,-0.041955840663137615,-0.357203,-25.141246
11.185,2.0,1.0,1.0,33.6,33.4,33.4,3.6,4.4,2.8175,-0.3006188851931589,-0.03632726811325723,0.9102482345429869,-0.04384327866771879,-0.367206,-24.891999
11.185,2.0,1.0,1.0,33.6,33.4,33.4,3.6,4.4,2.82,-0.31637890459690676,-0.03656523890321587,0.9036653842380183,-0.045821746033890526,-0.377696,-24.638648
11.185,2.0,1.0,1.0,33.6,33.4,33.4,3.6,4.4,2.8225,-0.3321926688577498,-0.0367773289923099,0.8966789629912103,-0.04789691404547095,-0.388708,-24.381016
11.185,2.0,1.0,1.0,33.6,33.4,33.4,3.6,4.4,2.825,-0.34805239851664815,-0.036960067757597505,0.889275316768777,-0.050074915860738624,-0.400285,-24.118915
11.185,2.0,1.0,1.0,33.6,33.4,33.4,3.6,4.4,2.8275,-0.363949603182115,-0.03710954605743947,0.8814401576184414,-0.052362392528033444,-0.412469,-23.852147
