1,w,sub_t,h,l1,l2,l3,g1,g2,Freq,S11_re,S21_re,S11_img,S21_img,S11_dB,S21_dB
11.185,2.0,1.0,1.0,34.3,33.1,33.1,3.3,3.5,2.5,0.738159059681057,-0.00900427389047956,0.66394580066389,0.00410006723495046,-0.06254,-40.092728
11.185,2.0,1.0,1.0,34.3,33.1,33.1,3.3,3.5,2.5025,0.7329809449215359,-0.009155142864797369,0.6695545167049725,0.004074049216190318,-0.06315,-39.982035
11.185,2.0,1.0,1.0,34.3,33.1,33.1,3.3,3.5,2.505,0.7277338974348664,-0.00930808070346846,0.6751495815444896,0.0040462061568996835,-0.06377,-39.871115
11.185,2.0,1.0,1.0,34.3,33.1,33.1,3.3,3.5,2.5075,0.7224172676756989,-0.009463111450226215,0.6807303943211386,0.004016483098419981,-0.064401,-39.759964
11.185,2.0,1.0,1.0,34.3,33.1,33.1,3.3,3.5,2.51,0.717030399563289,-0.009620259221342792,0.6862963377872884,0.003984823484104221,-0.065041,-39.648577
11.185,2.0,1.0,1.0,34.3,33.1,33.1,3.3,3.5,2.5125,0.7115726305261552,-0.009779548191051176,0.691846777860404,0.003951169111105099,-0.065692,-39.536949
11.185,2.0,1.0,1.0,34.3,33.1,33.1,3.3,3.5,2.515,0.7060432915540816,-0.009941002575928901,0.6973810631629666,0.003915460080688773,-0.066354,-39.425075
11.185,2.0,1.0,1.0,34.3,33.1,33.1,3.3,3.5,2.5175,0.7004417072578942,-0.010104646618186384,0.7028985245506273,0.0038776347470307073,-0.067027,-39.31295
11.185,2.0,1.0,1.0,34.3,33.1,33.1,3.3,3.5,2.52,0.6947671959374189,-0.010270504567800565,0.7083984746283681,0.0038376296644486298,-0.067711,-39.20057
11.185,2.0,1.0,1.0,34.3,33.1,33.1,3.3,3.5,2.5225,0.6890190696580955,-0.010438600663430723,0.7138802072543828,0.003795379533026872,-0.068406,-39.087929
11.185,2.0,1.0,1.0,34.3,33.1,33.1,3.3,3.5,2.525,0.6831966343366946,-0.010608959112051206,0.7193429970314603,0.0037508171425848533,-0.069113,-38.975023
11.185,2.0,1.0,1.0,34.3,33.1,33.1,3.3,3.5,2.5275,0.6772991898366388,-0.01078160406723175,0.7247860987855971,0.003703873314941356,-0.069832,-38.861847
11.185,2.0,1.0,1.0,34.3,33.1,33.1,3.3,3.5,2.53,0.6713260300734408,-0.010956559605992443,0.7302087470315881,0.003654476844425293,-0.070563,-38.748396
11.185,2.0,1.0,1.0,34.3,33.1,33.1,3.3,3.5,2.5325,0.6652764431307955,-0.011133849704157699,0.7356101554253447,0.0036025544365822135,-0.071307,-38.634665
11.185,2.0,1.0,1.0,34.3,33.1,33.1,3.3,3.5,2.535,0.6591497113878783,-0.011313498210128678,0.7409895162026889,0.0035480306450244668,-0.072063,-38.520648
11.185,2.0,1.0,1.0,34.3,33.1,33.1,3.3,3.5,2.5375,0.6529451116584502,-0.011495528816990258,0.7463459996043609,0.0034908278063722977,-0.072832,-38.406342
11.185,2.0,1.0,1.0,34.3,33.1,33.1,3.3,3.5,2.54,0.6466619153423655,-0.011679965032864111,0.7516787532870015,0.0034308659732310413,-0.073614,-38.29174
11.185,2.0,1.0,1.0,34.3,33.1,33.1,3.3,3.5,2.5425,0.6402993885901289,-0.01186683014941543,0.7569869017198544,0.0033680628451491002,-0.07441,-38.176838
11.185,2.0,1.0,1.0,34.3,33.1,33.1,3.3,3.5,2.545,0.6338567924811634,-0.012056147208415817,0.7622695455669446,0.003302333697499768,-0.075219,-38.06163
11.185,2.0,1.0,1.0,34.3,33.1,33.1,3.3,3.5,2.5475,0.627333383216495,-0.012247938966259865,0.7675257610544844,0.0032335913082286675,-0.076042,-37.946112
11.185,2.0,1.0,1.0,34.3,33.1,33.1,3.3,3.5,2.55,0.6207284123265592,-0.012442227856328831,0.7727545993232848,0.003161745882407469,-0.07688,-37.830278
11.185,2.0,1.0,1.0,34.3,33.1,33.1,3.3,3.5,2.5525,0.614041126894914,-0.012639035949087949,0.7779550857659154,0.0030867049745333195,-0.077733,-37.714124
11.185,2.0,1.0,1.0,34.3,33.1,33.1,3.3,3.5,2.555,0.6072707697986253,-0.012838384909799834,0.7831262193484041,0.003008373408511869,-0.0786,-37.597643
11.185,2.0,1.0,1.0,34.3,33.1,33.1,3.3,3.5,2.5575,0.6004165799661556,-0.013040295953729686,0.7882669719162547,0.0029266531952605655,-0.079483,-37.48083
11.185,2.0,1.0,1.0,34.3,33.1,33.1,3.3,3.5,2.56,0.5934777926536212,-0.01324478979871214,0.7933762874845596,0.0028414434478684037,-0.080381,-37.363681
11.185,2.0,1.0,1.0,34.3,33.1,33.1,3.3,3.5,2.5625,0.5864536397403028,-0.01345188661494284,0.7984530815120098,0.002752640294245342,-0.081295,-37.246189
11.185,2.0,1.0,1.0,34.3,33.1,33.1,3.3,3.5,2.565,0.5793433500443422,-0.013661605971851976,0.8034962401586135,0.0026601367871954117,-0.082226,-37.128349
11.185,2.0,1.0,1.0,34.3,33.1,33.1,3.3,3.5,2.5675,0.5721461496596051,-0.01387396678190849,0.8085046195269303,0.0025638228118446743,-0.083173,-37.010157
11.185,2.0,1.0,1.0,34.3,33.1,33.1,3.3,3.5,2.57,0.564861262314709,-0.014088987241197956,0.8134770448866576,0.0024635849903547765,-0.084137,-36.891606
11.185,2.0,1.0,1.0,34.3,33.1,33.1,3.3,3.5,2.5725,0.5574879097552743,-0.014306684766607734,0.8184123098824109,0.0023593065838513946,-0.085119,-36.77269
11.185,2.0,1.0,1.0,34.3,33.1,33.1,3.3,3.5,2.575,0.5500253121504904,-0.014527075929446114,0.823309175724568,0.002250867391495652,-0.086118,-36.653405
11.185,2.0,1.0,1.0,34.3,33.1,33.1,3.3,3.5,2.5775,0.54247268852514,-0.014750176385313063,0.8281663703630257,0.002138143646625503,-0.087136,-36.533745
11.185,2.0,1.0,1.0,34.3,33.1,33.1,3.3,3.5,2.58,0.5348292572182666,-0.014976000800030738,0.8329825876438012,0.0020210079098929,-0.088172,-36.413703
11.185,2.0,1.0,1.0,34.3,33.1,33.1,3.3,3.5,2.5825,0.5270942363697106,-0.015204562771434114,0.837756486448365,0.0018993289593212392,-0.089227,-36.293275
11.185,2.0,1.0,1.0,34.3,33.1,33.1,3.3,3.5,2.585,0.5192668444358037,-0.01543587474681018,0.8424866898156537,0.001772971677206697,-0.090302,-36.172454
11.185,2.0,1.0,1.0,34.3,33.1,33.1,3.3,3.5,2.5875,0.511346300735541,-0.015669947935765857,0.8471717840467329,0.001641796933785909,-0.091397,-36.051234
11.185,2.0,1.0,1.0,34.3,33.1,33.1,3.3,3.5,2.59,0.5033318260286289,-0.01590679221829218,0.8518103177920862,0.0015056614675913976,-0.092511,-35.92961
11.185,2.0,1.0,1.0,34.3,33.1,33.1,3.3,3.5,2.5925,0.4952226431268237,-0.016146416047782535,0.8564008011215583,0.00136441776241494,-0.093647,-35.807576
11.185,2.0,1.0,1.0,34.3,33.1,33.1,3.3,3.5,2.595,0.4870179775400742,-0.01638882634874953,0.8609417045769953,0.0012179139207985047,-0.094804,-35.685125
11.185,2.0,1.0,1.0,34.3,33.1,33.1,3.3,3.5,2.5975,0.4787170581589931,-0.016634028408973697,0.8654314582076729,0.0010659935339709034,-0.095983,-35.562252
11.185,2.0,1.0,1.0,34.3,33.1,33.1,3.3,3.5,2.6,0.470319117975267,-0.01688202576580332,0.8698684505886303,0.0009084955481477762,-0.097183,-35.43895
11.185,2.0,1.0,1.0,34.3,33.1,33.1,3.3,3.5,2.6025,0.4618233948416786,-0.01713282008631164,0.8742510278220648,0.0007452541271114512,-0.098407,-35.315213
11.185,2.0,1.0,1.0,34.3,33.1,33.1,3.3,3.5,2.605,0.45322913227344497,-0.017386411041002487,0.8785774925219961,0.0005760985109863225,-0.099654,-35.191036
11.185,2.0,1.0,1.0,34.3,33.1,33.1,3.3,3.5,2.6075,0.44453558029266677,-0.01764279617074177,0.8828461027824529,0.0004008528711247268,-0.100925,-35.06641
11.185,2.0,1.0,1.0,34.3,33.1,33.1,3.3,3.5,2.61,0.43574199631774113,-0.01790197074657403,0.8870550711294599,0.00021933616101737106,-0.10222,-34.941331
11.185,2.0,1.0,1.0,34.3,33.1,33.1,3.3,3.5,2.6125,0.42684764609963743,-0.018163927622069236,0.8912025634572026,3.13619631415137e-05,-0.10354,-34.815792
11.185,2.0,1.0,1.0,34.3,33.1,33.1,3.3,3.5,2.615,0.41785180470701977,-0.018428657077825837,0.8952866979487559,-0.00016326166834059572,-0.104886,-34.689785
11.185,2.0,1.0,1.0,34.3,33.1,33.1,3.3,3.5,2.6175,0.4087537575622652,-0.01869614665773829,0.899305543981856,-0.0003647323691209514,-0.106258,-34.563305
11.185,2.0,1.0,1.0,34.3,33.1,33.1,3.3,3.5,2.62,0.39955280153048905,-0.018966380996617595,0.9032571210202336,-0.0005732536306121015,-0.107657,-34.436345
11.185,2.0,1.0,1.0,34.3,33.1,33.1,3.3,3.5,2.6225,0.39024824606375086,-0.01923934163873407,0.9071393974911298,-0.0007890349702300913,-0.109083,-34.308897
11.185,2.0,1.0,1.0,34.3,33.1,33.1,3.3,3.5,2.625,0.380839414402717,-0.019515006846829,0.910950289649645,-0.00101229210618408,-0.110537,-34.180956
11.185,2.0,1.0,1.0,34.3,33.1,33.1,3.3,3.5,2.6275,0.3713256448380758,-0.019793351401120114,0.9146876604306919,-0.0012432471368647037,-0.11202,-34.052513
11.185,2.0,1.0,1.0,34.3,33.1,33.1,3.3,3.5,2.63,0.36170629203412485,-0.020074346387802207,0.9183493182893774,-0.0014821287249227628,-0.113533,-33.923562
11.185,2.0,1.0,1.0,34.3,33.1,33.1,3.3,3.5,2.6325,0.35198072841699274,-0.020357958976519135,0.9219330160307304,-0.001729172286131341,-0.115075,-33.794095
11.185,2.0,1.0,1.0,34.3,33.1,33.1,3.3,3.5,2.635,0.3421483456300311,-0.020644152186256964,0.9254364496298144,-0.0019846201831256274,-0.116649,-33.664106
11.185,2.0,1.0,1.0,34.3,33.1,33.1,3.3,3.5,2.6375,0.332208556059018,-0.02093288463908064,0.9288572570433028,-0.0022487219241149794,-0.118254,-33.533587
11.185,2.0,1.0,1.0,34.3,33.1,33.1,3.3,3.5,2.64,0.3221607944298308,-0.02122411030110765,0.932193017013778,-0.0025217343666646386,-0.119892,-33.40253
11.185,2.0,1.0,1.0,34.3,33.1,33.1,3.3,3.5,2.6425,0.31200451948138425,-0.02151777821008042,0.9354412478680476,-0.0028039219266440727,-0.121563,-33.270927
11.185,2.0,1.0,1.0,34.3,33.1,33.1,3.3,3.5,2.645,0.3017392157166584,-0.0218138321888674,0.9385994063109493,-0.00309555679244195,-0.123269,-33.138772
11.185,2.0,1.0,1.0,34.3,33.1,33.1,3.3,3.5,2.6475,0.2913643952347429,-0.02211221054418755,0.941664886216196,-0.003396919144549012,-0.125009,-33.006055
11.185,2.0,1.0,1.0,34.3,33.1,33.1,3.3,3.5,2.65,0.28087959964685966,-0.022412845749817376,0.9446350174159757,-0.003708297380613346,-0.126785,-32.87277
11.185,2.0,1.0,1.0,34.3,33.1,33.1,3.3,3.5,2.6525,0.27028440207947274,-0.022715664113499047,0.9475070644911237,-0.004029988346073414,-0.128598,-32.738907
11.185,2.0,1.0,1.0,34.3,33.1,33.1,3.3,3.5,2.655,0.25957840926756237,-0.023020585426729225,0.9502782255638627,-0.004362297570479665,-0.130449,-32.604459
11.185,2.0,1.0,1.0,34.3,33.1,33.1,3.3,3.5,2.6575,0.2487612637413094,-0.0233275225965629,0.9529456310952212,-0.0047055395096174246,-0.132338,-32.469416
11.185,2.0,1.0,1.0,34.3,33.1,33.1,3.3,3.5,2.66,0.2378326461094398,-0.023636381258520085,0.955506342689424,-0.00506003779354921,-0.134268,-32.333771
11.185,2.0,1.0,1.0,34.3,33.1,33.1,3.3,3.5,2.6625,0.22679227744258326,-0.023947059369634396,0.9579573519077045,-0.005426125480698733,-0.136238,-32.197515
11.185,2.0,1.0,1.0,34.3,33.1,33.1,3.3,3.5,2.665,0.21563992176003183,-0.024259446780629128,0.9602955790941503,-0.005804145318106237,-0.13825,-32.060638
11.185,2.0,1.0,1.0,34.3,33.1,33.1,3.3,3.5,2.6675,0.20437538862339436,-0.024573424786149305,0.9625178722163852,-0.006194450007989769,-0.140305,-31.923132
11.185,2.0,1.0,1.0,34.3,33.1,33.1,3.3,3.5,2.67,0.19299853584064663,-0.024888865651918907,0.9646210057240762,-0.00659740248075699,-0.142404,-31.784987
11.185,2.0,1.0,1.0,34.3,33.1,33.1,3.3,3.5,2.6725,0.18150927228417915,-0.025205632117627,0.9666016794284318,-0.007013376174620291,-0.144548,-31.646194
11.185,2.0,1.0,1.0,34.3,33.1,33.1,3.3,3.5,2.675,0.1699075608264764,-0.025523576874276317,0.968456517406079,-0.007442755321978731,-0.146739,-31.506742
11.185,2.0,1.0,1.0,34.3,33.1,33.1,3.3,3.5,2.6775,0.1581934213971225,-0.025842542014654173,0.9701820669308973,-0.007885935242743685,-0.148977,-31.366623
11.185,2.0,1.0,1.0,34.3,33.1,33.1,3.3,3.5,2.68,0.14636693416484373,-0.026162358455504235,0.9717747974376226,-0.008343322644798395,-0.151265,-31.225826
11.185,2.0,1.0,1.0,34.3,33.1,33.1,3.3,3.5,2.6825,0.1344282428484167,-0.026482845329890946,0.9732310995212105,-0.008815335931798451,-0.153603,-31.08434
11.185,2.0,1.0,1.0,34.3,33.1,33.1,3.3,3.5,2.685,0.12237755816019319,-0.026803809348154704,0.9745472839762467,-0.009302405518539532,-0.155993,-30.942155
11.185,2.0,1.0,1.0,34.3,33.1,33.1,3.3,3.5,2.6875,0.11021516138612705,-0.027125044125754144,0.9757195808808588,-0.009804974154139464,-0.158436,-30.79926
11.185,2.0,1.0,1.0,34.3,33.1,33.1,3.3,3.5,2.69,0.09794140810617744,-0.02744632947618075,0.976744138729853,-0.010323497253306342,-0.160935,-30.655644
11.185,2.0,1.0,1.0,34.3,33.1,33.1,3.3,3.5,2.6925,0.08555673205896407,-0.02776743066701368,0.977617023622043,-0.010858443235993286,-0.163489,-30.511295
11.185,2.0,1.0,1.0,34.3,33.1,33.1,3.3,3.5,2.695,0.07306164915462274,-0.02808809763704862,0.9783342185069687,-0.011410293875769814,-0.166102,-30.366202
11.185,2.0,1.0,1.0,34.3,33.1,33.1,3.3,3.5,2.6975,0.060456761639724174,-0.02840806417229631,0.978891622496503,-0.011979544657278775,-0.168774,-30.220353
11.185,2.0,1.0,1.0,34.3,33.1,33.1,3.3,3.5,2.7,0.04774276241828634,-0.028727047038487778,0.979285050246996,-0.012566705143184588,-0.171507,-30.073735
11.185,2.0,1.0,1.0,34.3,33.1,33.1,3.3,3.5,2.7025,0.034920439532714835,-0.02904474506755576,0.9795102314179898,-0.013172299351067382,-0.174304,-29.926335
11.185,2.0,1.0,1.0,34.3,33.1,33.1,3.3,3.5,2.705,0.021990680808678824,-0.02936083819537376,0.9795628102136881,-0.013796866140766209,-0.177166,-29.778141
11.185,2.0,1.0,1.0,34.3,33.1,33.1,3.3,3.5,2.7075,0.00895447866781211,-0.029674986447831276,0.9794383450136719,-0.014440959612733978,-0.180095,-29.629138
11.185,2.0,1.0,1.0,34.3,33.1,33.1,3.3,3.5,2.71,-0.004187064887812697,-0.029986828872096454,0.9791323080995803,-0.015105149518029187,-0.183093,-29.479314
11.185,2.0,1.0,1.0,34.3,33.1,33.1,3.3,3.5,2.7125,-0.01743273311555673,-0.030295982409672666,0.9786400854847406,-0.01579002168064377,-0.186162,-29.328654
11.185,2.0,1.0,1.0,34.3,33.1,33.1,3.3,3.5,2.715,-0.030781189192512718,-0.030602040707577622,0.9779569768539482,-0.01649617843294437,-0.189305,-29.177142
11.185,2.0,1.0,1.0,34.3,33.1,33.1,3.3,3.5,2.7175,-0.04423097069234465,-0.03090457286367504,0.9770781956208524,-0.017224239065095657,-0.192523,-29.024765
11.185,2.0,1.0,1.0,34.3,33.1,33.1,3.3,3.5,2.72,-0.05778048387478604,-0.031203122101850757,0.9759988691106015,-0.017974840289431478,-0.195819,-28.871505
11.185,2.0,1.0,1.0,34.3,33.1,33.1,3.3,3.5,2.7225,-0.07142799778392095,-0.03149720437235502,0.9747140388756207,-0.0187486367208529,-0.199196,-28.717348
11.185,2.0,1.0,1.0,34.3,33.1,33.1,3.3,3.5,2.725,-0.0851716381513257,-0.031786306872219554,0.9732186611525903,-0.01954630137444974,-0.202656,-28.562275
11.185,2.0,1.0,1.0,34.3,33.1,33.1,3.3,3.5,2.7275,-0.09900938110020542,-0.032069886480198685,0.9715076074688469,-0.02036852618168158,-0.206201,-28.40627
11.185,2.0,1.0,1.0,34.3,33.1,33.1,3.3,3.5,2.73,-0.11293904664650994,-0.03234736810017246,0.9695756654065951,-0.02121602252659791,-0.209836,-28.249315
11.185,2.0,1.0,1.0,34.3,33.1,33.1,3.3,3.5,2.7325,-0.12695829199306952,-0.03261814290637977,0.9674175395334271,-0.022089521803744006,-0.213562,-28.09139
11.185,2.0,1.0,1.0,34.3,33.1,33.1,3.3,3.5,2.735,-0.14106460461258172,-0.03288156648321212,0.9650278525077504,-0.022989775999574275,-0.217382,-27.932477
11.185,2.0,1.0,1.0,34.3,33.1,33.1,3.3,3.5,2.7375,-0.15525529511526293,-0.03313695685158562,0.9624011463677821,-0.023917558299393616,-0.221301,-27.772556
11.185,2.0,1.0,1.0,34.3,33.1,33.1,3.3,3.5,2.74,-0.16952748989667202,-0.033383592373114,0.9595318840127574,-0.024873663722057456,-0.22532,-27.611605
11.185,2.0,1.0,1.0,34.3,33.1,33.1,3.3,3.5,2.7425,-0.18387812356114505,-0.033620709522408525,0.9564144508850578,-0.025858909784896168,-0.229445,-27.449603
11.185,2.0,1.0,1.0,34.3,33.1,33.1,3.3,3.5,2.745,-0.19830393111578468,-0.033847500516829866,0.9530431568617761,-0.02687413720157885,-0.233677,-27.286528
11.185,2.0,1.0,1.0,34.3,33.1,33.1,3.3,3.5,2.7475,-0.2128014399297487,-0.034063110791889194,0.9494122383642409,-0.027920210615904422,-0.238023,-27.122355
11.185,2.0,1.0,1.0,34.3,33.1,33.1,3.3,3.5,2.75,-0.22736696145294,-0.0342666363092293,0.945515860693739,-0.0289980193748008,-0.242485,-26.957061
11.185,2.0,1.0,1.0,34.3,33.1,33.1,3.3,3.5,2.7525,-0.24199658268770077,-0.03445712068268845,0.941348120601508,-0.030108478344126922,-0.247067,-26.79062
11.185,2.0,1.0,1.0,34.3,33.1,33.1,3.3,3.5,2.755,-0.25668615740630485,-0.03463355210634237,0.9369030491007285,-0.03125252877120528,-0.251775,-26.623005
11.185,2.0,1.0,1.0,34.3,33.1,33.1,3.3,3.5,2.7575,-0.27143129710616887,-0.03479486006660499,0.9321746145278752,-0.032431139198372864,-0.256613,-26.454189
11.185,2.0,1.0,1.0,34.3,33.1,33.1,3.3,3.5,2.76,-0.28622736169352403,-0.03493991181841863,0.927156725860339,-0.03364530643220634,-0.261586,-26.284142
11.185,2.0,1.0,1.0,34.3,33.1,33.1,3.3,3.5,2.7625,-0.30106944988506423,-0.035067508603247005,0.9218432362967102,-0.03489605657347525,-0.266699,-26.112835
11.185,2.0,1.0,1.0,34.3,33.1,33.1,3.3,3.5,2.765,-0.3159523893152831,-0.035176381583961795,0.9162279471054637,-0.036184446113279346,-0.271959,-25.940236
11.185,2.0,1.0,1.0,34.3,33.1,33.1,3.3,3.5,2.7675,-0.33087072633547754,-0.03526518746874089,0.9103046117471588,-0.0375115631012428,-0.27737,-25.766311
11.185,2.0,1.0,1.0,34.3,33.1,33.1,3.3,3.5,2.77,-0.3458187154879276,-0.03533250379272696,0.9040669402744104,-0.03887852839206032,-0.28294,-25.591026
11.185,2.0,1.0,1.0,34.3,33.1,33.1,3.3,3.5,2.7725,-0.36079030863609224,-0.03537682382236599,0.897508604013089,-0.04028649697710349,-0.288674,-25.414344
11.185,2.0,1.0,1.0,34.3,33.1,33.1,3.3,3.5,2.775,-0.37577914372839716,-0.035396551042997514,0.8906232405272305,-0.04173665940819873,-0.29458,-25.236228
11.185,2.0,1.0,1.0,34.3,33.1,33.1,3.3,3.5,2.7775,-0.39077853316931943,-0.03538999318531647,0.8834044588691538,-0.043230243321060555,-0.300666,-25.056637
11.185,2.0,1.0,1.0,34.3,33.1,33.1,3.3,3.5,2.78,-0.4057814517669853,-0.035355355740689015,0.8758458451151875,-0.044768515066192,-0.306938,-24.875529
11.185,2.0,1.0,1.0,34.3,33.1,33.1,3.3,3.5,2.7825,-0.4207805242211452,-0.03529073490887413,0.8679409681863325,-0.04635278145531623,-0.313407,-24.692861
11.185,2.0,1.0,1.0,34.3,33.1,33.1,3.3,3.5,2.785,-0.4357680121091563,-0.035194109914359985,0.8596833859520123,-0.047984391631568805,-0.32008,-24.508585
11.185,2.0,1.0,1.0,34.3,33.1,33.1,3.3,3.5,2.7875,-0.45073580032026456,-0.03506333461913103,0.8510666516139939,-0.04966473907169124,-0.326968,-24.322652
11.185,2.0,1.0,1.0,34.3,33.1,33.1,3.3,3.5,2.79,-0.46567538287991056,-0.03489612835007673,0.8420843203664419,-0.05139526372831147,-0.33408,-24.135013
11.185,2.0,1.0,1.0,34.3,33.1,33.1,3.3,3.5,2.7925,-0.4805778480957602,-0.03469006584824145,0.8327299563271738,-0.05317745431997864,-0.341428,-23.945611
11.185,2.0,1.0,1.0,34.3,33.1,33.1,3.3,3.5,2.795,-0.4954338629454721,-0.03444256623448533,0.8229971397343381,-0.055012850775898285,-0.349023,-23.75439
11.185,2.0,1.0,1.0,34.3,33.1,33.1,3.3,3.5,2.7975,-0.5102336566124704,-0.03415088087161066,0.8128794744023109,-0.05690304684115218,-0.356878,-23.561291
11.185,2.0,1.0,1.0,34.3,33.1,33.1,3.3,3.5,2.8,-0.5249670030601418,-0.033812079986307114,0.8023705954304172,-0.05884969284651119,-0.365007,-23.366249
11.185,2.0,1.0,1.0,34.3,33.1,33.1,3.3,3.5,2.8025,-0.5396232025161991,-0.03342303789503,0.7914641771585493,-0.06085449864455806,-0.373425,-23.169197
11.185,2.0,1.0,1.0,34.3,33.1,33.1,3.3,3.5,2.805,-0.5541910617172079,-0.032980416655721316,0.7801539413649187,-0.06291923671057027,-0.382146,-22.970064
11.185,2.0,1.0,1.0,34.3,33.1,33.1,3.3,3.5,2.8075,-0.5686588727381158,-0.032480647941630636,0.7684336657032799,-0.06504574540221571,-0.391188,-22.768776
11.185,2.0,1.0,1.0,34.3,33.1,33.1,3.3,3.5,2.81,-0.583014390201841,-0.031919912903798205,0.7562971923804037,-0.06723593236627673,-0.40057,-22.565254
11.185,2.0,1.0,1.0,34.3,33.1,33.1,3.3,3.5,2.8125,-0.597244806629691,-0.0312941197543549,0.743738437079674,-0.0694917780729501,-0.41031,-22.359413
11.185,2.0,1.0,1.0,34.3,33.1,33.1,3.3,3.5,2.815,-0.6113367256530684,-0.030598878762836786,0.7307513981439436,-0.0718153394482938,-0.420432,-22.151165
11.185,2.0,1.0,1.0,34.3,33.1,33.1,3.3,3.5,2.8175,-0.6252761327597797,-0.029829474311267305,0.7173301660408592,-0.07420875356246302,-0.430958,-21.940415
11.185,2.0,1.0,1.0,34.3,33.1,33.1,3.3,3.5,2.82,-0.6390483631934449,-0.028980833599665582,0.7034689331475498,-0.07667424131472149,-0.441914,-21.727065
11.185,2.0,1.0,1.0,34.3,33.1,33.1,3.3,3.5,2.8225,-0.6526380665599185,-0.028047491530542455,0.6891620039099181,-0.07921411103481843,-0.453327,-21.511008
11.185,2.0,1.0,1.0,34.3,33.1,33.1,3.3,3.5,2.825,-0.6660291676194589,-0.0270235512272397,0.6744038054559667,-0.08183076189290774,-0.465228,-21.292131
11.185,2.0,1.0,1.0,34.3,33.1,33.1,3.3,3.5,2.8275,-0.6792048226548312,-0.025902639554717485,0.6591888987744793,-0.08452668697512063,-0.477651,-21.070317
