1,w,sub_t,h,l1,l2,l3,g1,g2,Freq,S11_re,S21_re,S11_img,S21_img,S11_dB,S21_dB
11.185,2.0,1.0,1.0,33.3,34.4,34.4,4.4,1.5,2.5,0.870024320664495,-0.00695034845513365,0.480383506051237,0.00625685220204572,-0.053703,-40.582127
11.185,2.0,1.0,1.0,33.3,34.4,34.4,4.4,1.5,2.5025,0.8668947500547742,-0.007101686421646862,0.48588690370896587,0.006299222800244973,-0.054222,-40.45207
11.185,2.0,1.0,1.0,33.3,34.4,34.4,4.4,1.5,2.505,0.8637170623429729,-0.007256188633243173,0.49139094485350787,0.006341389309368939,-0.054751,-40.321456
11.185,2.0,1.0,1.0,33.3,34.4,34.4,4.4,1.5,2.5075,0.8604907798141391,-0.007413939459721972,0.49689544522621865,0.00638333379075561,-0.055291,-40.19027
11.185,2.0,1.0,1.0,33.3,34.4,34.4,4.4,1.5,2.51,0.857215415839984,-0.007575026367692638,0.5024002149985228,0.006425037418678822,-0.055842,-40.058495
11.185,2.0,1.0,1.0,33.3,34.4,34.4,4.4,1.5,2.5125,0.853890474651651,-0.007739540066205093,0.5079050585783411,0.006466480430384578,-0.056404,-39.926114
11.185,2.0,1.0,1.0,33.3,34.4,34.4,4.4,1.5,2.515,0.8505154511034357,-0.007907574660729397,0.5134097744090459,0.006507642072824242,-0.056978,-39.793109
11.185,2.0,1.0,1.0,33.3,34.4,34.4,4.4,1.5,2.5175,0.8470898304269191,-0.008079227816048229,0.5189141547605564,0.006548500545830461,-0.057563,-39.659462
11.185,2.0,1.0,1.0,33.3,34.4,34.4,4.4,1.5,2.52,0.8436130879749227,-0.00825460092867106,0.5244179855121877,0.006589032941458317,-0.058161,-39.525157
11.185,2.0,1.0,1.0,33.3,34.4,34.4,4.4,1.5,2.5225,0.8400846889546623,-0.008433799309424709,0.5299210459267996,0.0066292151791907845,-0.058771,-39.390173
11.185,2.0,1.0,1.0,33.3,34.4,34.4,4.4,1.5,2.525,0.836504088149408,-0.008616932376928345,0.5354231084158065,0.006669021936679917,-0.059395,-39.254491
11.185,2.0,1.0,1.0,33.3,34.4,34.4,4.4,1.5,2.5275,0.8328707296279192,-0.008804113862717674,0.5409239382945435,0.006708426575664953,-0.060031,-39.118093
11.185,2.0,1.0,1.0,33.3,34.4,34.4,4.4,1.5,2.53,0.8291840464408596,-0.008995462028842712,0.5464232935274533,0.0067474010626766305,-0.060682,-38.980957
11.185,2.0,1.0,1.0,33.3,34.4,34.4,4.4,1.5,2.5325,0.8254434603033324,-0.009191099898833918,0.5519209244625292,0.006785915884099624,-0.061347,-38.843064
11.185,2.0,1.0,1.0,33.3,34.4,34.4,4.4,1.5,2.535,0.821648381262595,-0.009391155503002064,0.5574165735543981,0.0068239399551256845,-0.062027,-38.704391
11.185,2.0,1.0,1.0,33.3,34.4,34.4,4.4,1.5,2.5375,0.8177982073499567,-0.009595762139119493,0.5629099750753732,0.006861440522085378,-0.062722,-38.564918
11.185,2.0,1.0,1.0,33.3,34.4,34.4,4.4,1.5,2.54,0.8138923242157511,-0.009805058649617428,0.5684008548137633,0.006898383057597826,-0.063433,-38.424621
11.185,2.0,1.0,1.0,33.3,34.4,34.4,4.4,1.5,2.5425,0.8099301047462047,-0.010019189716530383,0.5738889297586689,0.006934731147922719,-0.06416,-38.283477
11.185,2.0,1.0,1.0,33.3,34.4,34.4,4.4,1.5,2.545,0.8059109086609,-0.010238306175524514,0.579373907770416,0.0069704463718394715,-0.064904,-38.141462
11.185,2.0,1.0,1.0,33.3,34.4,34.4,4.4,1.5,2.5475,0.8018340820894394,-0.010462565350461443,0.5848554872357166,0.007005488170311049,-0.065665,-37.998553
11.185,2.0,1.0,1.0,33.3,34.4,34.4,4.4,1.5,2.55,0.7976989571257697,-0.010692131410077825,0.5903333567065818,0.007039813706116227,-0.066444,-37.854723
11.185,2.0,1.0,1.0,33.3,34.4,34.4,4.4,1.5,2.5525,0.7935048513585166,-0.010927175748497988,0.5958071945218856,0.007073377712550951,-0.067242,-37.709947
11.185,2.0,1.0,1.0,33.3,34.4,34.4,4.4,1.5,2.555,0.7892510673754974,-0.011167877391453071,0.6012766684104276,0.007106132330207603,-0.068059,-37.564198
11.185,2.0,1.0,1.0,33.3,34.4,34.4,4.4,1.5,2.5575,0.7849368922404434,-0.011414423430247027,0.6067414350742101,0.007138026930738998,-0.068897,-37.417448
11.185,2.0,1.0,1.0,33.3,34.4,34.4,4.4,1.5,2.56,0.7805615969397616,-0.011667009485696956,0.612201139750522,0.007169007926398282,-0.069755,-37.269668
11.185,2.0,1.0,1.0,33.3,34.4,34.4,4.4,1.5,2.5625,0.776124435796973,-0.0119258402044804,0.617655415751308,0.00719901856401905,-0.070635,-37.120829
11.185,2.0,1.0,1.0,33.3,34.4,34.4,4.4,1.5,2.565,0.771624645852233,-0.012191129790549279,0.623103883978142,0.007227998701956189,-0.071536,-36.970901
11.185,2.0,1.0,1.0,33.3,34.4,34.4,4.4,1.5,2.5675,0.7670614462041049,-0.012463102574519993,0.6285461524109545,0.007255884568347476,-0.072462,-36.819851
11.185,2.0,1.0,1.0,33.3,34.4,34.4,4.4,1.5,2.57,0.7624340373104682,-0.012741993624227716,0.6339818155684939,0.0072826084988760476,-0.073411,-36.667648
11.185,2.0,1.0,1.0,33.3,34.4,34.4,4.4,1.5,2.5725,0.757741600245151,-0.013028049399939488,0.6394104539382819,0.007308098652011719,-0.074385,-36.514257
11.185,2.0,1.0,1.0,33.3,34.4,34.4,4.4,1.5,2.575,0.7529832959065335,-0.013321528458061293,0.6448316333736006,0.007332278699480973,-0.075385,-36.359644
11.185,2.0,1.0,1.0,33.3,34.4,34.4,4.4,1.5,2.5775,0.7481582641739956,-0.013622702207553334,0.6502449044547766,0.007355067489459862,-0.076413,-36.203772
11.185,2.0,1.0,1.0,33.3,34.4,34.4,4.4,1.5,2.58,0.7432656230076679,-0.013931855723686978,0.655649801811744,0.007376378679694292,-0.077468,-36.046604
11.185,2.0,1.0,1.0,33.3,34.4,34.4,4.4,1.5,2.5825,0.7383044674864725,-0.014249288624246195,0.6610458434045425,0.0073961203374253584,-0.078553,-35.888101
11.185,2.0,1.0,1.0,33.3,34.4,34.4,4.4,1.5,2.585,0.7332738687789307,-0.014575316013796014,0.6664325297580121,0.007414194502628224,-0.079669,-35.728222
11.185,2.0,1.0,1.0,33.3,34.4,34.4,4.4,1.5,2.5875,0.7281728730406275,-0.014910269502223126,0.6718093431465505,0.0074304967106533625,-0.080816,-35.566925
11.185,2.0,1.0,1.0,33.3,34.4,34.4,4.4,1.5,2.59,0.723000500231587,-0.015254498304401945,0.6771757467242961,0.007444915469884078,-0.081997,-35.404168
11.185,2.0,1.0,1.0,33.3,34.4,34.4,4.4,1.5,2.5925,0.7177557428460764,-0.015608370428566578,0.6825311835955783,0.007457331689483152,-0.083212,-35.239905
11.185,2.0,1.0,1.0,33.3,34.4,34.4,4.4,1.5,2.595,0.7124375645465565,-0.015972273961780598,0.6878750758198329,0.007467618051686244,-0.084464,-35.074088
11.185,2.0,1.0,1.0,33.3,34.4,34.4,4.4,1.5,2.5975,0.707044898692574,-0.01634661846180993,0.6932068233445083,0.00747563832239748,-0.085754,-34.906669
11.185,2.0,1.0,1.0,33.3,34.4,34.4,4.4,1.5,2.6,0.7015766467543786,-0.01673183646572486,0.6985258028586597,0.007481246593040757,-0.087083,-34.737597
11.185,2.0,1.0,1.0,33.3,34.4,34.4,4.4,1.5,2.6025,0.6960316765998946,-0.017128385126709153,0.703831366559012,0.007484286445701316,-0.088454,-34.566819
11.185,2.0,1.0,1.0,33.3,34.4,34.4,4.4,1.5,2.605,0.6904088206423729,-0.017536747991848012,0.7091228408192386,0.007484590032541065,-0.089869,-34.394279
11.185,2.0,1.0,1.0,33.3,34.4,34.4,4.4,1.5,2.6075,0.6847068738345962,-0.017957436935126456,0.7143995247519748,0.0074819770592593725,-0.091329,-34.21992
11.185,2.0,1.0,1.0,33.3,34.4,34.4,4.4,1.5,2.61,0.6789245914938553,-0.018390994261517128,0.7196606886516981,0.007476253660981089,-0.092838,-34.043682
11.185,2.0,1.0,1.0,33.3,34.4,34.4,4.4,1.5,2.6125,0.6730606869400376,-0.018837994999899663,0.7249055723050168,0.007467211157346705,-0.094397,-33.865501
11.185,2.0,1.0,1.0,33.3,34.4,34.4,4.4,1.5,2.615,0.6671138289270581,-0.01929904940466345,0.730133383153049,0.0074546246717245995,-0.096009,-33.685311
11.185,2.0,1.0,1.0,33.3,34.4,34.4,4.4,1.5,2.6175,0.6610826388454604,-0.019774805688235978,0.7353432942884303,0.007438251597316769,-0.097677,-33.503045
11.185,2.0,1.0,1.0,33.3,34.4,34.4,4.4,1.5,2.62,0.6549656876712775,-0.02026595300949845,0.7405344422670076,0.007417829890435651,-0.099404,-33.318629
11.185,2.0,1.0,1.0,33.3,34.4,34.4,4.4,1.5,2.6225,0.6487614926331284,-0.020773224746138297,0.7457059247113944,0.00739307616833006,-0.101193,-33.131989
11.185,2.0,1.0,1.0,33.3,34.4,34.4,4.4,1.5,2.625,0.642468513566006,-0.0212974020825106,0.750856797680171,0.00736368358555608,-0.103048,-32.943046
11.185,2.0,1.0,1.0,33.3,34.4,34.4,4.4,1.5,2.6275,0.6360851489161204,-0.02183931794859999,0.7559860727726152,0.0073293194589400335,-0.104971,-32.751716
11.185,2.0,1.0,1.0,33.3,34.4,34.4,4.4,1.5,2.63,0.629609731356578,-0.022399861350266746,0.7610927139342119,0.007289622606552019,-0.106968,-32.557912
11.185,2.0,1.0,1.0,33.3,34.4,34.4,4.4,1.5,2.6325,0.6230405229683339,-0.022979982136222387,0.7661756339227913,0.0072442003606766146,-0.109043,-32.361544
11.185,2.0,1.0,1.0,33.3,34.4,34.4,4.4,1.5,2.635,0.6163757099347935,-0.0235806962532125,0.7712336903887884,0.007192625208370903,-0.111199,-32.162514
11.185,2.0,1.0,1.0,33.3,34.4,34.4,4.4,1.5,2.6375,0.6096133966914304,-0.02420309154781584,0.776265681515577,0.007134431005651444,-0.113443,-31.960721
11.185,2.0,1.0,1.0,33.3,34.4,34.4,4.4,1.5,2.64,0.6027515994637201,-0.024848334181248592,0.7812703411569745,0.007069108702417303,-0.11578,-31.75606
11.185,2.0,1.0,1.0,33.3,34.4,34.4,4.4,1.5,2.6425,0.5957882391174176,-0.02551767573275606,0.7862463333984182,0.00699610150461313,-0.118216,-31.548417
11.185,2.0,1.0,1.0,33.3,34.4,34.4,4.4,1.5,2.645,0.5887211332344434,-0.026212461077798645,0.7911922464557779,0.006914799387514749,-0.120757,-31.337673
11.185,2.0,1.0,1.0,33.3,34.4,34.4,4.4,1.5,2.6475,0.5815479873152323,-0.026934137139523726,0.7961065858107517,0.006824532858952068,-0.12341,-31.123703
11.185,2.0,1.0,1.0,33.3,34.4,34.4,4.4,1.5,2.65,0.5742663849939593,-0.027684262626254636,0.8009877664638385,0.00672456585323925,-0.126183,-30.906375
11.185,2.0,1.0,1.0,33.3,34.4,34.4,4.4,1.5,2.6525,0.5668737771363666,-0.028464518884250986,0.8058341041642674,0.006614087614904843,-0.129085,-30.685548
11.185,2.0,1.0,1.0,33.3,34.4,34.4,4.4,1.5,2.655,0.5593674696703824,-0.029276722014212036,0.8106438054502695,0.006492203405183273,-0.132124,-30.461074
11.185,2.0,1.0,1.0,33.3,34.4,34.4,4.4,1.5,2.6575,0.5517446099770986,-0.03012283642236238,0.8154149563015711,0.006357923832625982,-0.135312,-30.232794
11.185,2.0,1.0,1.0,33.3,34.4,34.4,4.4,1.5,2.66,0.5440021716431579,-0.03100499000305097,0.8201455091677793,0.006210152570830871,-0.138658,-30.000541
11.185,2.0,1.0,1.0,33.3,34.4,34.4,4.4,1.5,2.6625,0.5361369373447105,-0.03192549118025497,0.8248332680897522,0.00604767217955778,-0.142176,-29.764137
11.185,2.0,1.0,1.0,33.3,34.4,34.4,4.4,1.5,2.665,0.5281454795968682,-0.03288684807100022,0.8294758715741085,0.005869127688353543,-0.14588,-29.523391
11.185,2.0,1.0,1.0,33.3,34.4,34.4,4.4,1.5,2.6675,0.5200241390602545,-0.033891790075385946,0.8340707728110596,0.005673007531656324,-0.149783,-29.278102
11.185,2.0,1.0,1.0,33.3,34.4,34.4,4.4,1.5,2.67,0.5117690000465251,-0.0349432922467226,0.838615216739551,0.0054576213378728575,-0.153903,-29.028054
11.185,2.0,1.0,1.0,33.3,34.4,34.4,4.4,1.5,2.6725,0.503375862806486,-0.03604460285248587,0.8431062133569025,0.005221073967875549,-0.15826,-28.773016
11.185,2.0,1.0,1.0,33.3,34.4,34.4,4.4,1.5,2.675,0.4948402121161154,-0.037199274603800396,0.8475405065373678,0.004961235065273556,-0.162872,-28.51274
11.185,2.0,1.0,1.0,33.3,34.4,34.4,4.4,1.5,2.6775,0.4861571815956582,-0.0384112001096333,0.8519145374581583,0.0046757032145885455,-0.167765,-28.246963
11.185,2.0,1.0,1.0,33.3,34.4,34.4,4.4,1.5,2.68,0.47732151310318044,-0.03968465220361622,0.8562244015232585,0.0043617635948750315,-0.172965,-27.975399
11.185,2.0,1.0,1.0,33.3,34.4,34.4,4.4,1.5,2.6825,0.4683275104343843,-0.041024329898417165,0.8604657974127455,0.004016337753303446,-0.1785,-27.697743
11.185,2.0,1.0,1.0,33.3,34.4,34.4,4.4,1.5,2.685,0.4591689864329014,-0.042435410846897684,0.8646339665523843,0.0036359237898664024,-0.184405,-27.413665
11.185,2.0,1.0,1.0,33.3,34.4,34.4,4.4,1.5,2.6875,0.449839202467606,-0.0439236113328531,0.868723620873969,0.00321652481966293,-0.190717,-27.122812
11.185,2.0,1.0,1.0,33.3,34.4,34.4,4.4,1.5,2.69,0.4403307990639137,-0.045495254978463996,0.8727288561931558,0.0027535630351586283,-0.19748,-26.824798
11.185,2.0,1.0,1.0,33.3,34.4,34.4,4.4,1.5,2.6925,0.4306357162836738,-0.04715735154120213,0.8766430478309042,0.0022417759899503475,-0.204743,-26.519208
11.185,2.0,1.0,1.0,33.3,34.4,34.4,4.4,1.5,2.695,0.42074510223422973,-0.04891768737837951,0.8804587241964028,0.0016750908173874938,-0.212563,-26.205592
11.185,2.0,1.0,1.0,33.3,34.4,34.4,4.4,1.5,2.6975,0.41064920785573283,-0.05078492937779399,0.8841674128650241,0.0010464709134911424,-0.221005,-25.883459
11.185,2.0,1.0,1.0,33.3,34.4,34.4,4.4,1.5,2.7,0.40033726589763025,-0.05276874437663183,0.8877594521306293,0.0003477280606097644,-0.230145,-25.552276
11.185,2.0,1.0,1.0,33.3,34.4,34.4,4.4,1.5,2.7025,0.3897973517711908,-0.05487993629579852,0.8912237589589491,-0.0004307090820014022,-0.240071,-25.211461
11.185,2.0,1.0,1.0,33.3,34.4,34.4,4.4,1.5,2.705,0.37901622379422273,-0.05713060336263255,0.8945475415399163,-0.0013000819190462044,-0.250885,-24.860375
11.185,2.0,1.0,1.0,33.3,34.4,34.4,4.4,1.5,2.7075,0.36797914029574214,-0.05953431781025716,0.8977159409844774,-0.002273659734884115,-0.262708,-24.498323
11.185,2.0,1.0,1.0,33.3,34.4,34.4,4.4,1.5,2.71,0.356669651242423,-0.0621063302037795,0.9007115817894529,-0.003367188737172481,-0.275682,-24.124536
11.185,2.0,1.0,1.0,33.3,34.4,34.4,4.4,1.5,2.7125,0.345069362690266,-0.06486379984301895,0.903514004015435,-0.004599459340206478,-0.289978,-23.73817
11.185,2.0,1.0,1.0,33.3,34.4,34.4,4.4,1.5,2.715,0.3331576738027932,-0.06782605117430184,0.9060989409985208,-0.005993027791573855,-0.305797,-23.338294
11.185,2.0,1.0,1.0,33.3,34.4,34.4,4.4,1.5,2.7175,0.3209114890020438,-0.07101485321161921,0.908437393868616,-0.007575140741752764,-0.323385,-22.923879
11.185,2.0,1.0,1.0,33.3,34.4,34.4,4.4,1.5,2.72,0.3083049130334794,-0.07445471360698516,0.9104944367827005,-0.009378928636841338,-0.343036,-22.493783
11.185,2.0,1.0,1.0,33.3,34.4,34.4,4.4,1.5,2.7225,0.29530894603753965,-0.07817316949980706,0.9122276626198706,-0.011444957841131047,-0.365112,-22.04674
11.185,2.0,1.0,1.0,33.3,34.4,34.4,4.4,1.5,2.725,0.281891212051293,-0.08220104067429164,0.9135851451207525,-0.0138232649417795,-0.390061,-21.581343
11.185,2.0,1.0,1.0,33.3,34.4,34.4,4.4,1.5,2.7275,0.26801578274798993,-0.08657258180269878,0.9145027461609697,-0.016576043624909373,-0.418435,-21.096026
11.185,2.0,1.0,1.0,33.3,34.4,34.4,4.4,1.5,2.73,0.2536432074021828,-0.09132542087911273,0.9149005306649982,-0.019781220112481145,-0.450931,-20.589047
11.185,2.0,1.0,1.0,33.3,34.4,34.4,4.4,1.5,2.7325,0.23873094533975658,-0.09650008502618637,0.9146779596266406,-0.023537244226119906,-0.488431,-20.058471
11.185,2.0,1.0,1.0,33.3,34.4,34.4,4.4,1.5,2.735,0.22323454546417293,-0.10213876570134765,0.9137074056923603,-0.027969547550386227,-0.532065,-19.502153
11.185,2.0,1.0,1.0,33.3,34.4,34.4,4.4,1.5,2.7375,0.20711017667364318,-0.10828271514663346,0.9118253689039673,-0.03323928433782769,-0.583295,-18.917735
11.185,2.0,1.0,1.0,33.3,34.4,34.4,4.4,1.5,2.74,0.1903195681695992,-0.11496720984377504,0.9088205644522003,-0.0395551720038207,-0.644039,-18.302647
11.185,2.0,1.0,1.0,33.3,34.4,34.4,4.4,1.5,2.7425,0.17283922058601608,-0.12221221457713265,0.9044178415617431,-0.047189453108725674,-0.716835,-17.654152
11.185,2.0,1.0,1.0,33.3,34.4,34.4,4.4,1.5,2.745,0.15467716070470927,-0.13000547091374395,0.8982567894505078,-0.05649909095048128,-0.805086,-16.969429
11.185,2.0,1.0,1.0,33.3,34.4,34.4,4.4,1.5,2.7475,0.13590297569528956,-0.13827227902308634,0.8898642301580932,-0.06795294554441061,-0.913392,-16.245774
11.185,2.0,1.0,1.0,33.3,34.4,34.4,4.4,1.5,2.75,0.116701049665688,-0.146822078847877,0.878621474746644,-0.0821639658204366,-1.048014,-15.480963
11.185,2.0,1.0,1.0,33.3,34.4,34.4,4.4,1.5,2.7525,0.09746360803948255,-0.15525531478811308,0.8637324098146756,-0.09992019406762312,-1.217467,-14.673952
11.185,2.0,1.0,1.0,33.3,34.4,34.4,4.4,1.5,2.755,0.07894926515322415,-0.1628051210564717,0.8442121995185514,-0.12219460725161783,-1.433151,-13.826114
11.185,2.0,1.0,1.0,33.3,34.4,34.4,4.4,1.5,2.7575,0.06253947475381558,-0.1680819681231604,0.8189489148760192,-0.15008130114758947,-1.709611,-12.94342
11.185,2.0,1.0,1.0,33.3,34.4,34.4,4.4,1.5,2.76,0.050608153257723956,-0.16870711206478875,0.7869577396945324,-0.1845384817322029,-2.063048,-12.040051
11.185,2.0,1.0,1.0,33.3,34.4,34.4,4.4,1.5,2.7625,0.04691327804571209,-0.16092788668549624,0.7480531325777408,-0.2257141810392178,-2.504304,-11.143862
11.185,2.0,1.0,1.0,33.3,34.4,34.4,4.4,1.5,2.765,0.05659124310549047,-0.13963561186553003,0.7042089115106147,-0.27158908185654873,-3.018013,-10.303105
11.185,2.0,1.0,1.0,33.3,34.4,34.4,4.4,1.5,2.7675,0.08474712765051953,-0.09978934271584995,0.6614395757940688,-0.3161118755554457,-3.519481,-9.59063
11.185,2.0,1.0,1.0,33.3,34.4,34.4,4.4,1.5,2.77,0.13261210352596092,-0.04025634243096763,0.6304608115081219,-0.34857483685343743,-3.81882,-9.096538
11.185,2.0,1.0,1.0,33.3,34.4,34.4,4.4,1.5,2.7725,0.19299714931985995,0.03168616191468158,0.6228180520784519,-0.3575181683227262,-3.714576,-8.900057
11.185,2.0,1.0,1.0,33.3,34.4,34.4,4.4,1.5,2.775,0.2511912001136218,0.10132007852761313,0.6428222561077642,-0.3387691210601581,-3.221035,-9.029848
11.185,2.0,1.0,1.0,33.3,34.4,34.4,4.4,1.5,2.7775,0.2936207736303077,0.15516249568708185,0.6837115355197788,-0.2991940376650457,-2.567454,-9.446504
11.185,2.0,1.0,1.0,33.3,34.4,34.4,4.4,1.5,2.78,0.315307123276259,0.18835629666442893,0.7332734759856718,-0.25102051965261835,-1.957866,-10.066105
11.185,2.0,1.0,1.0,33.3,34.4,34.4,4.4,1.5,2.7825,0.31901216374010216,0.2037479381460278,0.7815873768202287,-0.20411926065400832,-1.471252,-10.799921
11.185,2.0,1.0,1.0,33.3,34.4,34.4,4.4,1.5,2.785,0.3103169031588083,0.2069520447545986,0.8237082824218178,-0.16337015166089514,-1.108149,-11.578968
11.185,2.0,1.0,1.0,33.3,34.4,34.4,4.4,1.5,2.7875,0.2942469552957291,0.20299545471102065,0.8584061913806059,-0.12995087981938622,-0.843667,-12.358658
11.185,2.0,1.0,1.0,33.3,34.4,34.4,4.4,1.5,2.79,0.2742870682004418,0.19535111421852785,0.8862530079667541,-0.10325481891443694,-0.651594,-13.113701
11.185,2.0,1.0,1.0,33.3,34.4,34.4,4.4,1.5,2.7925,0.2525597953617534,0.18612745432996272,0.9083950393966598,-0.08211431109839426,-0.511139,-13.831446
11.185,2.0,1.0,1.0,33.3,34.4,34.4,4.4,1.5,2.795,0.2302606180127849,0.1765076524049146,0.9259923823523137,-0.06535615693521223,-0.407287,-14.506732
11.185,2.0,1.0,1.0,33.3,34.4,34.4,4.4,1.5,2.7975,0.20802126077017064,0.16711389893385925,0.9400282441837455,-0.05198860324985693,-0.32955,-15.138548
11.185,2.0,1.0,1.0,33.3,34.4,34.4,4.4,1.5,2.8,0.18614989196072534,0.1582473668748578,0.9512781511997663,-0.04122989399476841,-0.270654,-15.72804
11.185,2.0,1.0,1.0,33.3,34.4,34.4,4.4,1.5,2.8025,0.16477556136372518,0.15003211888450171,0.9603348677332562,-0.03248209234523854,-0.225535,-16.277377
11.185,2.0,1.0,1.0,33.3,34.4,34.4,4.4,1.5,2.805,0.14393126676948223,0.1424976610919658,0.9676458096467068,-0.025292988080861643,-0.190633,-16.78913
11.185,2.0,1.0,1.0,33.3,34.4,34.4,4.4,1.5,2.8075,0.12360062929332905,0.13562520815325432,0.9735476946805582,-0.01932108987638706,-0.163411,-17.265935
11.185,2.0,1.0,1.0,33.3,34.4,34.4,4.4,1.5,2.81,0.10374372300812222,0.12937320811802897,0.9782944550948661,-0.014307528177669789,-0.142042,-17.710319
11.185,2.0,1.0,1.0,33.3,34.4,34.4,4.4,1.5,2.8125,0.0843111478437553,0.12369119640943,0.982078462637737,-0.0100547365587251,-0.125185,-18.124621
11.185,2.0,1.0,1.0,33.3,34.4,34.4,4.4,1.5,2.815,0.06525152012392682,0.11852713162050779,0.9850462611337455,-0.006410671935563815,-0.111852,-18.510959
11.185,2.0,1.0,1.0,33.3,34.4,34.4,4.4,1.5,2.8175,0.04651529638215787,0.11383111093310012,0.9873101101901375,-0.0032572463947739697,-0.101299,-18.871226
11.185,2.0,1.0,1.0,33.3,34.4,34.4,4.4,1.5,2.82,0.02805656890653775,0.10955709035109192,0.9889564383469417,-0.0005018596236233154,-0.092963,-19.207099
11.185,2.0,1.0,1.0,33.3,34.4,34.4,4.4,1.5,2.8225,0.009833753894179344,0.10566352121898727,0.9900520486395666,0.0019288178211240262,-0.086411,-19.520051
11.185,2.0,1.0,1.0,33.3,34.4,34.4,4.4,1.5,2.825,-0.00819031017790692,0.10211341410950732,0.9906486971498314,0.004093434657873477,-0.08131,-19.811371
11.185,2.0,1.0,1.0,33.3,34.4,34.4,4.4,1.5,2.8275,-0.026048563733003818,0.09887411585695177,0.9907864927262848,0.006039372668848613,-0.077398,-20.082175
11.185,2.0,1.0,1.0,33.3,34.4,34.4,4.4,1.5,2.83,-0.04377006529039294,0.0959169582700301,0.9904964390556291,0.007805306544469644,-0.074469,-20.333428
