1,w,sub_t,h,l1,l2,l3,g1,g2,Freq,S11_re,S21_re,S11_img,S21_img,S11_dB,S21_dB
11.185,2.0,1.0,1.0,34.5,33.0,33.0,1.5,3.0,2.5,0.69480184667725,-0.0184025296396031,0.707145742501153,0.0100369366773158,-0.075328,-33.571467
11.185,2.0,1.0,1.0,34.5,33.0,33.0,1.5,3.0,2.5025,0.6888693129528441,-0.018735499873584586,0.7127925043843427,0.010004027732182898,-0.07617,-33.457276
11.185,2.0,1.0,1.0,34.5,33.0,33.0,1.5,3.0,2.505,0.6828566950504161,-0.0190737244481517,0.7184195817093797,0.00996726091263401,-0.077028,-33.342753
11.185,2.0,1.0,1.0,34.5,33.0,33.0,1.5,3.0,2.5075,0.676763182497897,-0.01941727714885406,0.7240261455185196,0.00992649862169178,-0.077902,-33.227892
11.185,2.0,1.0,1.0,34.5,33.0,33.0,1.5,3.0,2.51,0.6705879568838407,-0.019766232192804108,0.7296113427319293,0.009881598708902184,-0.078793,-33.112689
11.185,2.0,1.0,1.0,34.5,33.0,33.0,1.5,3.0,2.5125,0.6643301919705887,-0.020120664183826787,0.7351742954472614,0.00983241431866888,-0.0797,-32.997139
11.185,2.0,1.0,1.0,34.5,33.0,33.0,1.5,3.0,2.515,0.6579890538211721,-0.020480648063763242,0.7407141002201325,0.00977879373365785,-0.080624,-32.881238
11.185,2.0,1.0,1.0,34.5,33.0,33.0,1.5,3.0,2.5175,0.6515637009407498,-0.020846259059689665,0.7462298273250588,0.00972058021312975,-0.081565,-32.764982
11.185,2.0,1.0,1.0,34.5,33.0,33.0,1.5,3.0,2.52,0.6450532844334145,-0.021217572626800518,0.751720519996435,0.00965761182605586,-0.082524,-32.648365
11.185,2.0,1.0,1.0,34.5,33.0,33.0,1.5,3.0,2.5225,0.6384569481752594,-0.021594664386689524,0.7571851936490924,0.009589721278871727,-0.083502,-32.531384
11.185,2.0,1.0,1.0,34.5,33.0,33.0,1.5,3.0,2.525,0.6317738290046044,-0.02197761006074944,0.7626228350780256,0.009516735737719823,-0.084498,-32.414033
11.185,2.0,1.0,1.0,34.5,33.0,33.0,1.5,3.0,2.5275,0.6250030569303666,-0.022366485398393487,0.76803240163684,0.009438476645031234,-0.085513,-32.296308
11.185,2.0,1.0,1.0,34.5,33.0,33.0,1.5,3.0,2.53,0.6181437553595741,-0.02276136609978677,0.7734128203944791,0.009354759530294925,-0.086547,-32.178204
11.185,2.0,1.0,1.0,34.5,33.0,33.0,1.5,3.0,2.5325,0.6111950413451008,-0.023162327732757317,0.7787629872698096,0.009265393814862157,-0.087601,-32.059716
11.185,2.0,1.0,1.0,34.5,33.0,33.0,1.5,3.0,2.535,0.6041560258547154,-0.02356944564353961,0.7840817661436318,0.00917018261063117,-0.088676,-31.940841
11.185,2.0,1.0,1.0,34.5,33.0,33.0,1.5,3.0,2.5375,0.5970258140626366,-0.023982794860982468,0.7893679879476803,0.009068922512458716,-0.089771,-31.821572
11.185,2.0,1.0,1.0,34.5,33.0,33.0,1.5,3.0,2.54,0.5898035056647941,-0.024402449993835184,0.7946204497302115,0.0089614033841428,-0.090888,-31.701906
11.185,2.0,1.0,1.0,34.5,33.0,33.0,1.5,3.0,2.5425,0.5824881952190982,-0.024828485120702813,0.7998379136977593,0.008847408137822319,-0.092026,-31.581838
11.185,2.0,1.0,1.0,34.5,33.0,33.0,1.5,3.0,2.545,0.575078972512036,-0.025260973672240623,0.805019106232656,0.008726712506639075,-0.093186,-31.461362
11.185,2.0,1.0,1.0,34.5,33.0,33.0,1.5,3.0,2.5475,0.5675749229530306,-0.02569998830513264,0.8101627168859269,0.00859908481050918,-0.09437,-31.340474
11.185,2.0,1.0,1.0,34.5,33.0,33.0,1.5,3.0,2.55,0.5599751279980009,-0.026145600767377493,0.8152673973451937,0.008464285714851461,-0.095577,-31.21917
11.185,2.0,1.0,1.0,34.5,33.0,33.0,1.5,3.0,2.5525,0.5522786656036983,-0.026597881754375354,0.8203317603771981,0.008322067982124723,-0.096807,-31.097444
11.185,2.0,1.0,1.0,34.5,33.0,33.0,1.5,3.0,2.555,0.5444846107144014,-0.02705690075528568,0.825354378744631,0.008172176216025588,-0.098062,-30.975291
11.185,2.0,1.0,1.0,34.5,33.0,33.0,1.5,3.0,2.5575,0.5365920357826693,-0.027522725889095996,0.8303337840969202,0.008014346598204635,-0.099342,-30.852708
11.185,2.0,1.0,1.0,34.5,33.0,33.0,1.5,3.0,2.56,0.5286000113259205,-0.027995423729811345,0.835268465834682,0.007848306617362312,-0.100648,-30.729688
11.185,2.0,1.0,1.0,34.5,33.0,33.0,1.5,3.0,2.5625,0.5205076065206747,-0.028475059120144103,0.8401568699475603,0.007673774790590228,-0.10198,-30.606226
11.185,2.0,1.0,1.0,34.5,33.0,33.0,1.5,3.0,2.565,0.512313889836383,-0.028961694973050272,0.8449973978252036,0.00749046037683146,-0.103339,-30.482319
11.185,2.0,1.0,1.0,34.5,33.0,33.0,1.5,3.0,2.5675,0.5040179297108774,-0.02945539206042356,0.8497884050411598,0.007298063082339001,-0.104726,-30.357961
11.185,2.0,1.0,1.0,34.5,33.0,33.0,1.5,3.0,2.57,0.4956187952695206,-0.029956208788224036,0.8545282001095111,0.007096272758021658,-0.106141,-30.233147
11.185,2.0,1.0,1.0,34.5,33.0,33.0,1.5,3.0,2.5725,0.48711555709027243,-0.030464200957278826,0.8592150432141078,0.006884769088575021,-0.107585,-30.107872
11.185,2.0,1.0,1.0,34.5,33.0,33.0,1.5,3.0,2.575,0.4785072880169593,-0.030979421508953612,0.8638471449103013,0.00666322127330619,-0.109058,-29.982131
11.185,2.0,1.0,1.0,34.5,33.0,33.0,1.5,3.0,2.5775,0.4697930640231455,-0.03150192025485207,0.8684226647991263,0.006431287698575439,-0.110562,-29.855919
11.185,2.0,1.0,1.0,34.5,33.0,33.0,1.5,3.0,2.58,0.46097196512910654,-0.03203174358965725,0.8729397101739271,0.006188615601789517,-0.112097,-29.729231
11.185,2.0,1.0,1.0,34.5,33.0,33.0,1.5,3.0,2.5825,0.45204307637450347,-0.032568934186183764,0.8773963346395072,0.005934840726898969,-0.113665,-29.602062
11.185,2.0,1.0,1.0,34.5,33.0,33.0,1.5,3.0,2.585,0.44300548884948693,-0.03311353067166199,0.8817905367039021,0.005669586971369625,-0.115265,-29.474407
11.185,2.0,1.0,1.0,34.5,33.0,33.0,1.5,3.0,2.5875,0.4338583007870518,-0.033665567284226816,0.8861202583429908,0.005392466024617504,-0.116899,-29.346261
11.185,2.0,1.0,1.0,34.5,33.0,33.0,1.5,3.0,2.59,0.4246006187196065,-0.03422507350853089,0.8903833835381962,0.005103076997919888,-0.118567,-29.217618
11.185,2.0,1.0,1.0,34.5,33.0,33.0,1.5,3.0,2.5925,0.41523155870280914,-0.03479207368934973,0.894577736787638,0.004801006045837926,-0.120271,-29.088474
11.185,2.0,1.0,1.0,34.5,33.0,33.0,1.5,3.0,2.595,0.40575024760990236,-0.0353665866219886,0.8987010815911689,0.004485825979217082,-0.122011,-28.958824
11.185,2.0,1.0,1.0,34.5,33.0,33.0,1.5,3.0,2.5975,0.39615582449983877,-0.035948625118244336,0.9027511189098448,0.004157095869856978,-0.123789,-28.828663
11.185,2.0,1.0,1.0,34.5,33.0,33.0,1.5,3.0,2.6,0.386447442062676,-0.036538195546612806,0.906725485600456,0.003814360646979283,-0.125604,-28.697984
11.185,2.0,1.0,1.0,34.5,33.0,33.0,1.5,3.0,2.6025,0.3766242681458492,-0.037135297345370154,0.910621752825888,0.0034571506856581687,-0.12746,-28.566784
11.185,2.0,1.0,1.0,34.5,33.0,33.0,1.5,3.0,2.605,0.36668548736503526,-0.037739922507090004,0.9144374244421901,0.0030849813874153655,-0.129355,-28.435057
11.185,2.0,1.0,1.0,34.5,33.0,33.0,1.5,3.0,2.6075,0.35663030280350594,-0.038352055033090804,0.9181699353633602,0.0026973527532294945,-0.131292,-28.302798
11.185,2.0,1.0,1.0,34.5,33.0,33.0,1.5,3.0,2.61,0.34645793780400425,-0.0389716703562347,0.9218166499050112,0.0022937489492546818,-0.133272,-28.170001
11.185,2.0,1.0,1.0,34.5,33.0,33.0,1.5,3.0,2.6125,0.33616763785730386,-0.03959873473042802,0.9253748601082203,0.001873637865597039,-0.135296,-28.036662
11.185,2.0,1.0,1.0,34.5,33.0,33.0,1.5,3.0,2.615,0.325758672591797,-0.04023320458509568,0.9288417840450545,0.0014364706685543575,-0.137364,-27.902775
11.185,2.0,1.0,1.0,34.5,33.0,33.0,1.5,3.0,2.6175,0.3152303378685964,-0.04087502584282189,0.9322145641074138,0.0009816813467877358,-0.139478,-27.768335
11.185,2.0,1.0,1.0,34.5,33.0,33.0,1.5,3.0,2.62,0.3045819579867946,-0.0415241331982698,0.93549026528105,0.0005086862519603446,-0.14164,-27.633337
11.185,2.0,1.0,1.0,34.5,33.0,33.0,1.5,3.0,2.6225,0.2938128880036822,-0.042180449356406566,0.9386658734068256,1.6883634452817737e-05,-0.143851,-27.497775
11.185,2.0,1.0,1.0,34.5,33.0,33.0,1.5,3.0,2.625,0.282922516174913,-0.0428438842279722,0.94173829343147,-0.000494346825154468,-0.146112,-27.361645
11.185,2.0,1.0,1.0,34.5,33.0,33.0,1.5,3.0,2.6275,0.27191026651972094,-0.043514334080044084,0.9447043476503669,-0.0010256444880569918,-0.148424,-27.224941
11.185,2.0,1.0,1.0,34.5,33.0,33.0,1.5,3.0,2.63,0.26077560151650436,-0.044191680639451954,0.9475607739451279,-0.001577668231788392,-0.150789,-27.087658
11.185,2.0,1.0,1.0,34.5,33.0,33.0,1.5,3.0,2.6325,0.24951802493423608,-0.044875790146705966,0.9503042240190039,-0.0021510969263992836,-0.153209,-26.94979
11.185,2.0,1.0,1.0,34.5,33.0,33.0,1.5,3.0,2.635,0.2381370848053255,-0.04556651235800117,0.9529312616334451,-0.0027466299111693735,-0.155684,-26.811333
11.185,2.0,1.0,1.0,34.5,33.0,33.0,1.5,3.0,2.6375,0.22663237654573598,-0.04626367949276151,0.9554383608494617,-0.0033649874706543075,-0.158217,-26.672281
11.185,2.0,1.0,1.0,34.5,33.0,33.0,1.5,3.0,2.64,0.21500354622829213,-0.04696710512408548,0.9578219042777428,-0.0040069113087397926,-0.16081,-26.532629
11.185,2.0,1.0,1.0,34.5,33.0,33.0,1.5,3.0,2.6425,0.20325029401532374,-0.04767658300934743,0.9600781813418553,-0.004673165019237028,-0.163463,-26.392372
11.185,2.0,1.0,1.0,34.5,33.0,33.0,1.5,3.0,2.645,0.19137237775690047,-0.04839188585810523,0.9622033865592002,-0.005364534551406873,-0.166179,-26.251504
11.185,2.0,1.0,1.0,34.5,33.0,33.0,1.5,3.0,2.6475,0.17936961676111127,-0.04911276403435328,0.964193617844827,-0.006081828668639513,-0.168959,-26.11002
11.185,2.0,1.0,1.0,34.5,33.0,33.0,1.5,3.0,2.65,0.16724189574294138,-0.04983894419005209,0.9660448748435992,-0.006825879398348003,-0.171806,-25.967914
11.185,2.0,1.0,1.0,34.5,33.0,33.0,1.5,3.0,2.6525,0.15498916895851808,-0.0505701278267504,0.9677530572966717,-0.007597542470944915,-0.174721,-25.825183
11.185,2.0,1.0,1.0,34.5,33.0,33.0,1.5,3.0,2.655,0.14261146453154858,-0.051305989782006775,0.9693139634486956,-0.008397697745581556,-0.177706,-25.681819
11.185,2.0,1.0,1.0,34.5,33.0,33.0,1.5,3.0,2.6575,0.1301088889789672,-0.052046176637200875,0.9707232885026895,-0.009227249620112508,-0.180763,-25.537819
11.185,2.0,1.0,1.0,34.5,33.0,33.0,1.5,3.0,2.66,0.11748163194289725,-0.05279030504321172,0.9719766231300262,-0.010087127422524649,-0.183895,-25.393176
11.185,2.0,1.0,1.0,34.5,33.0,33.0,1.5,3.0,2.6625,0.10472997113616107,-0.05353795996032522,0.9730694520435529,-0.010978285780827862,-0.187104,-25.247886
11.185,2.0,1.0,1.0,34.5,33.0,33.0,1.5,3.0,2.665,0.09185427750862876,-0.05428869280862102,0.9739971526424573,-0.011901704968147448,-0.190392,-25.101944
11.185,2.0,1.0,1.0,34.5,33.0,33.0,1.5,3.0,2.6675,0.07885502064183662,-0.05504201952497263,0.9747549937381107,-0.012858391219479324,-0.193761,-24.955343
11.185,2.0,1.0,1.0,34.5,33.0,33.0,1.5,3.0,2.67,0.06573277437931196,-0.05579741852268691,0.9753381343707846,-0.013849377016279545,-0.197215,-24.808079
11.185,2.0,1.0,1.0,34.5,33.0,33.0,1.5,3.0,2.6725,0.05248822270010757,-0.05655432854969727,0.9757416227278081,-0.014875721334742055,-0.200754,-24.660146
11.185,2.0,1.0,1.0,34.5,33.0,33.0,1.5,3.0,2.675,0.039122165843093006,-0.05731214644111707,0.9759603951745084,-0.015938509853287455,-0.204383,-24.51154
11.185,2.0,1.0,1.0,34.5,33.0,33.0,1.5,3.0,2.6775,0.025635526689518597,-0.05807022476185936,0.9759892754099769,-0.017038855114427605,-0.208104,-24.362255
11.185,2.0,1.0,1.0,34.5,33.0,33.0,1.5,3.0,2.68,0.012029357411354002,-0.05882786933492653,0.9758229737605659,-0.01817789663579699,-0.211919,-24.212286
11.185,2.0,1.0,1.0,34.5,33.0,33.0,1.5,3.0,2.6825,-0.001695153607131891,-0.05958433665087971,0.9754560866248196,-0.019356800964735004,-0.215832,-24.061627
11.185,2.0,1.0,1.0,34.5,33.0,33.0,1.5,3.0,2.685,-0.01553667456720822,-0.060338831153910366,0.9748830960844426,-0.020576761670383425,-0.219846,-23.910273
11.185,2.0,1.0,1.0,34.5,33.0,33.0,1.5,3.0,2.6875,-0.02949372276567278,-0.06109050239985234,0.9740983696968295,-0.02183899926680709,-0.223964,-23.75822
11.185,2.0,1.0,1.0,34.5,33.0,33.0,1.5,3.0,2.69,-0.04356465680990616,-0.061838442081397674,0.9730961604856267,-0.02314476106016789,-0.228189,-23.605461
11.185,2.0,1.0,1.0,34.5,33.0,33.0,1.5,3.0,2.6925,-0.057747668531119366,-0.06258168091571739,0.9718706071468115,-0.024495320912478948,-0.232525,-23.451992
11.185,2.0,1.0,1.0,34.5,33.0,33.0,1.5,3.0,2.695,-0.07204077458909817,-0.0633191853896256,0.9704157344887984,-0.025891978913922354,-0.236975,-23.297807
11.185,2.0,1.0,1.0,34.5,33.0,33.0,1.5,3.0,2.6975,-0.08644180776214035,-0.06404985435738647,0.9687254541261943,-0.027336060955156425,-0.241542,-23.142901
11.185,2.0,1.0,1.0,34.5,33.0,33.0,1.5,3.0,2.7,-0.10094840791609651,-0.06477251548622492,0.9667935654479164,-0.028828918190430125,-0.246232,-22.987269
11.185,2.0,1.0,1.0,34.5,33.0,33.0,1.5,3.0,2.7025,-0.1155580126469419,-0.06548592154458434,0.9646137568815722,-0.030371926381698357,-0.251047,-22.830906
11.185,2.0,1.0,1.0,34.5,33.0,33.0,1.5,3.0,2.705,-0.1302678475916525,-0.06618874652816574,0.9621796074772041,-0.031966485113258086,-0.255992,-22.673806
11.185,2.0,1.0,1.0,34.5,33.0,33.0,1.5,3.0,2.7075,-0.1450749164027512,-0.06687958161879577,0.9594845888347441,-0.03361401686572844,-0.261071,-22.515964
11.185,2.0,1.0,1.0,34.5,33.0,33.0,1.5,3.0,2.71,-0.1599759903824187,-0.06755693097119081,0.9565220674008124,-0.03531596593745156,-0.266288,-22.357374
11.185,2.0,1.0,1.0,34.5,33.0,33.0,1.5,3.0,2.7125,-0.17496759777274576,-0.0682192073227347,0.9532853071618171,-0.03707379720061671,-0.271649,-22.198032
11.185,2.0,1.0,1.0,34.5,33.0,33.0,1.5,3.0,2.715,-0.19004601269941,-0.06886472742144518,0.9497674727616889,-0.038888994678583894,-0.277158,-22.037932
11.185,2.0,1.0,1.0,34.5,33.0,33.0,1.5,3.0,2.7175,-0.20520724376687108,-0.06949170726738842,0.9459616330739449,-0.04076305993002331,-0.28282,-21.877068
11.185,2.0,1.0,1.0,34.5,33.0,33.0,1.5,3.0,2.72,-0.2204470223040421,-0.07009825716290503,0.9418607652592668,-0.042697510224574534,-0.28864,-21.715436
11.185,2.0,1.0,1.0,34.5,33.0,33.0,1.5,3.0,2.7225,-0.23576079026040245,-0.07068237656713688,0.9374577593411837,-0.04469387649377889,-0.294624,-21.553029
11.185,2.0,1.0,1.0,34.5,33.0,33.0,1.5,3.0,2.725,-0.25114368775350804,-0.07124194875048911,0.9327454233339976,-0.046753701040023646,-0.300778,-21.389842
11.185,2.0,1.0,1.0,34.5,33.0,33.0,1.5,3.0,2.7275,-0.2665905402700873,-0.0717747352448403,0.9277164889585838,-0.048878534985190576,-0.307107,-21.22587
11.185,2.0,1.0,1.0,34.5,33.0,33.0,1.5,3.0,2.73,-0.28209584552404904,-0.07227837008550168,0.9223636179832653,-0.05106993543957574,-0.313617,-21.061106
11.185,2.0,1.0,1.0,34.5,33.0,33.0,1.5,3.0,2.7325,-0.29765375997616383,-0.07275035384115246,0.9166794092285365,-0.053329462370484526,-0.320316,-20.895546
11.185,2.0,1.0,1.0,34.5,33.0,33.0,1.5,3.0,2.735,-0.31325808502153246,-0.07318804742821865,0.9106564062760175,-0.05565867514866238,-0.327209,-20.729183
11.185,2.0,1.0,1.0,34.5,33.0,33.0,1.5,3.0,2.7375,-0.32890225285253927,-0.07358866570643359,0.9042871059236292,-0.058059128749423365,-0.334304,-20.562012
11.185,2.0,1.0,1.0,34.5,33.0,33.0,1.5,3.0,2.74,-0.34457931200658487,-0.07394927085260851,0.8975639674306575,-0.06053236958395492,-0.341607,-20.394026
11.185,2.0,1.0,1.0,34.5,33.0,33.0,1.5,3.0,2.7425,-0.36028191260965914,-0.0742667655099558,0.8904794225979777,-0.06307993093482546,-0.349128,-20.225219
11.185,2.0,1.0,1.0,34.5,33.0,33.0,1.5,3.0,2.745,-0.37600229132859103,-0.07453788571064522,0.8830258867304729,-0.06570332796816944,-0.356874,-20.055586
11.185,2.0,1.0,1.0,34.5,33.0,33.0,1.5,3.0,2.7475,-0.3917322560467971,-0.07475919356962747,0.8751957705303016,-0.06840405229338381,-0.364852,-19.88512
11.185,2.0,1.0,1.0,34.5,33.0,33.0,1.5,3.0,2.75,-0.407463170280317,-0.0749270697481344,0.866981492971452,-0.0711835660394206,-0.373072,-19.713813
11.185,2.0,1.0,1.0,34.5,33.0,33.0,1.5,3.0,2.7525,-0.4231859373530585,-0.07503770568565468,0.8583754952077367,-0.07404329541488448,-0.381544,-19.541661
11.185,2.0,1.0,1.0,34.5,33.0,33.0,1.5,3.0,2.755,-0.438890984352349,-0.07508709559958876,0.8493702555681769,-0.07698462371713921,-0.390276,-19.368655
11.185,2.0,1.0,1.0,34.5,33.0,33.0,1.5,3.0,2.7575,-0.45456824588819067,-0.07507102825219904,0.8399583056955265,-0.0800088837534745,-0.399279,-19.194788
11.185,2.0,1.0,1.0,34.5,33.0,33.0,1.5,3.0,2.76,-0.47020714768190736,-0.07498507848489518,0.8301322478855573,-0.08311734963503725,-0.408563,-19.020054
11.185,2.0,1.0,1.0,34.5,33.0,33.0,1.5,3.0,2.7625,-0.4857965900123334,-0.07482459852032224,0.8198847736866449,-0.08631122790171872,-0.41814,-18.844444
11.185,2.0,1.0,1.0,34.5,33.0,33.0,1.5,3.0,2.765,-0.5013249310501031,-0.07458470903314664,0.8092086838212091,-0.0895916479334181,-0.428021,-18.667952
11.185,2.0,1.0,1.0,34.5,33.0,33.0,1.5,3.0,2.7675,-0.5167799701131204,-0.07426028999086826,0.7980969094926452,-0.09295965160009471,-0.438219,-18.490568
11.185,2.0,1.0,1.0,34.5,33.0,33.0,1.5,3.0,2.77,-0.5321489308788513,-0.073845971266413,0.7865425351436209,-0.09641618209970822,-0.448745,-18.312284
11.185,2.0,1.0,1.0,34.5,33.0,33.0,1.5,3.0,2.7725,-0.5474184445915854,-0.07333612302468913,0.774538822734017,-0.0999620719294818,-0.459615,-18.133091
11.185,2.0,1.0,1.0,34.5,33.0,33.0,1.5,3.0,2.775,-0.5625745333054394,-0.07272484588571605,0.7620792376093695,-0.10359802993187171,-0.470842,-17.95298
11.185,2.0,1.0,1.0,34.5,33.0,33.0,1.5,3.0,2.7775,-0.5776025932064067,-0.07200596086736719,0.7491574760335394,-0.10732462735210749,-0.482441,-17.771942
11.185,2.0,1.0,1.0,34.5,33.0,33.0,1.5,3.0,2.78,-0.5924873780593665,-0.07117299911120804,0.7357674944625002,-0.11114228283912553,-0.494428,-17.589967
11.185,2.0,1.0,1.0,34.5,33.0,33.0,1.5,3.0,2.7825,-0.6072129828284806,-0.07021919139537865,0.7219035406397142,-0.11505124631604173,-0.506821,-17.407043
11.185,2.0,1.0,1.0,34.5,33.0,33.0,1.5,3.0,2.785,-0.6217628275220166,-0.06913745743897105,0.7075601865975701,-0.11905158163995508,-0.519636,-17.223159
11.185,2.0,1.0,1.0,34.5,33.0,33.0,1.5,3.0,2.7875,-0.6361196413151041,-0.0679203950029271,0.6927323636540554,-0.1231431479636511,-0.532892,-17.038305
11.185,2.0,1.0,1.0,34.5,33.0,33.0,1.5,3.0,2.79,-0.6502654470065586,-0.06656026879315009,0.6774153994990885,-0.1273255797036444,-0.54661,-16.852467
11.185,2.0,1.0,1.0,34.5,33.0,33.0,1.5,3.0,2.7925,-0.6641815458684059,-0.06504899917234465,0.6616050574711876,-0.13159826500972843,-0.560811,-16.665633
11.185,2.0,1.0,1.0,34.5,33.0,33.0,1.5,3.0,2.795,-0.6778485029494657,-0.06337815068812176,0.6452975781322895,-0.1359603226207035,-0.575516,-16.477789
11.185,2.0,1.0,1.0,34.5,33.0,33.0,1.5,3.0,2.7975,-0.6912461328970142,-0.06153892042623405,0.6284897232570124,-0.14041057697894052,-0.59075,-16.288921
11.185,2.0,1.0,1.0,34.5,33.0,33.0,1.5,3.0,2.8,-0.7043534863636032,-0.05952212619950811,0.6111788223623937,-0.1449475314628019,-0.606538,-16.099013
11.185,2.0,1.0,1.0,34.5,33.0,33.0,1.5,3.0,2.8025,-0.7171488370692783,-0.05731819458529555,0.5933628219157292,-0.14956933958032123,-0.622906,-15.908049
11.185,2.0,1.0,1.0,34.5,33.0,33.0,1.5,3.0,2.805,-0.7296096695931547,-0.054917148827207746,0.5750403373716121,-0.15427377394971914,-0.639884,-15.716013
11.185,2.0,1.0,1.0,34.5,33.0,33.0,1.5,3.0,2.8075,-0.741712667972612,-0.052308596620763266,0.5562107082050685,-0.15905819287197934,-0.657501,-15.522886
11.185,2.0,1.0,1.0,34.5,33.0,33.0,1.5,3.0,2.81,-0.7534337051935103,-0.04948171780762841,0.5368740561261811,-0.1639195042774307,-0.67579,-15.32865
11.185,2.0,1.0,1.0,34.5,33.0,33.0,1.5,3.0,2.8125,-0.764747833661104,-0.0464252520097144,0.517031346683245,-0.168854126801686,-0.694785,-15.133284
11.185,2.0,1.0,1.0,34.5,33.0,33.0,1.5,3.0,2.815,-0.7756292767492097,-0.043127486242912155,0.49668445448667553,-0.1738579477159472,-0.714525,-14.936768
11.185,2.0,1.0,1.0,34.5,33.0,33.0,1.5,3.0,2.8175,-0.7860514215349973,-0.039576242561235764,0.4758362323152514,-0.17892627740202344,-0.735048,-14.739078
11.185,2.0,1.0,1.0,34.5,33.0,33.0,1.5,3.0,2.82,-0.7959868128392457,-0.03575886579623892,0.45449058440039786,-0.18405380002293448,-0.756397,-14.540191
11.185,2.0,1.0,1.0,34.5,33.0,33.0,1.5,3.0,2.8225,-0.8054071487077566,-0.031662211474553094,0.4326525442237029,-0.189234519995,-0.778618,-14.340082
11.185,2.0,1.0,1.0,34.5,33.0,33.0,1.5,3.0,2.825,-0.8142832774897595,-0.027272634019242004,0.4103283572084823,-0.19446170381621297,-0.801761,-14.138725
11.185,2.0,1.0,1.0,34.5,33.0,33.0,1.5,3.0,2.8275,-0.8225851966947566,-0.02257597536954737,0.3875255687387784,-0.1997278167477062,-0.825877,-13.936092
