1,w,sub_t,h,l1,l2,l3,g1,g2,Freq,S11_re,S21_re,S11_img,S21_img,S11_dB,S21_dB
11.185,2.0,1.0,1.0,34.5,33.3,33.3,3.1,2.2,2.5,0.699902502693473,-0.0143650889742427,0.703022448860721,0.00716663910935302,-0.06959,-35.888578
11.185,2.0,1.0,1.0,34.5,33.3,33.3,3.1,2.2,2.5025,0.6941209729748682,-0.014618506526057999,0.7086130082081826,0.007134056191923369,-0.07033,-35.774176
11.185,2.0,1.0,1.0,34.5,33.3,33.3,3.1,2.2,2.505,0.6882633774084221,-0.014875844027859518,0.7141841994995148,0.007098493504627421,-0.071084,-35.659434
11.185,2.0,1.0,1.0,34.5,33.3,33.3,3.1,2.2,2.5075,0.6823289974025829,-0.015137157547170297,0.7197352526527127,0.0070598503286030305,-0.071851,-35.544347
11.185,2.0,1.0,1.0,34.5,33.3,33.3,3.1,2.2,2.51,0.6763171080546664,-0.015402503726916376,0.7252653764111504,0.007018022696877148,-0.072633,-35.428909
11.185,2.0,1.0,1.0,34.5,33.3,33.3,3.1,2.2,2.5125,0.6702269782623412,-0.015671939772420235,0.7307737577627279,0.0069729032827476455,-0.073429,-35.313115
11.185,2.0,1.0,1.0,34.5,33.3,33.3,3.1,2.2,2.515,0.6640578708462803,-0.015945523436775216,0.7362595613440984,0.006924381284089617,-0.07424,-35.196958
11.185,2.0,1.0,1.0,34.5,33.3,33.3,3.1,2.2,2.5175,0.6578090426845812,-0.01622331300449155,0.7417219288296364,0.006872342303428813,-0.075065,-35.080433
11.185,2.0,1.0,1.0,34.5,33.3,33.3,3.1,2.2,2.52,0.6514797448595563,-0.016505367273299446,0.747159978304839,0.006816668223618052,-0.075906,-34.963535
11.185,2.0,1.0,1.0,34.5,33.3,33.3,3.1,2.2,2.5225,0.645069222817556,-0.016791745533985852,0.7525728036238033,0.00675723707894631,-0.076762,-34.846257
11.185,2.0,1.0,1.0,34.5,33.3,33.3,3.1,2.2,2.525,0.638576716542478,-0.017082507548136564,0.757959473750469,0.006693922921502043,-0.077635,-34.728592
11.185,2.0,1.0,1.0,34.5,33.3,33.3,3.1,2.2,2.5275,0.632001460743674,-0.017377713523645803,0.7633190320832837,0.006626595682605885,-0.078523,-34.610536
11.185,2.0,1.0,1.0,34.5,33.3,33.3,3.1,2.2,2.53,0.6253426850589875,-0.017677424087847646,0.76865049576295,0.006555121029119322,-0.079429,-34.492081
11.185,2.0,1.0,1.0,34.5,33.3,33.3,3.1,2.2,2.5325,0.61859961427369,-0.017981700258115053,0.7739528549629233,0.006479360214427842,-0.080351,-34.373222
11.185,2.0,1.0,1.0,34.5,33.3,33.3,3.1,2.2,2.535,0.6117714685561065,-0.01829060340976342,0.7792250721623221,0.006399169923888706,-0.081291,-34.253952
11.185,2.0,1.0,1.0,34.5,33.3,33.3,3.1,2.2,2.5375,0.6048574637107811,-0.018604195241084403,0.7844660814009053,0.006314402114524441,-0.082249,-34.134265
11.185,2.0,1.0,1.0,34.5,33.3,33.3,3.1,2.2,2.54,0.5978568114500413,-0.018922537735327195,0.7896747875157888,0.006224903848733316,-0.083226,-34.014154
11.185,2.0,1.0,1.0,34.5,33.3,33.3,3.1,2.2,2.5425,0.5907687196848742,-0.01924569311943171,0.7948500653595563,0.006130517121778611,-0.084221,-33.893612
11.185,2.0,1.0,1.0,34.5,33.3,33.3,3.1,2.2,2.545,0.5835923928360647,-0.01957372381930765,0.799990758999439,0.006031078682807682,-0.085235,-33.772633
11.185,2.0,1.0,1.0,34.5,33.3,33.3,3.1,2.2,2.5475,0.5763270321665928,-0.01990669241143986,0.8050956808972124,0.005926419849141358,-0.086269,-33.65121
11.185,2.0,1.0,1.0,34.5,33.3,33.3,3.1,2.2,2.55,0.5689718361363029,-0.020244661570588678,0.8101636110695108,0.005816366313561906,-0.087323,-33.529336
11.185,2.0,1.0,1.0,34.5,33.3,33.3,3.1,2.2,2.5525,0.5615260007799526,-0.020587694013337716,0.815193296228193,0.005700737944316746,-0.088397,-33.407005
11.185,2.0,1.0,1.0,34.5,33.3,33.3,3.1,2.2,2.555,0.5539887201097359,-0.020935852437229178,0.8201834489004736,0.00557934857754117,-0.089493,-33.284208
11.185,2.0,1.0,1.0,34.5,33.3,33.3,3.1,2.2,2.5575,0.5463591865434648,-0.021289199455209143,0.8251327465284818,0.005452005801790876,-0.09061,-33.160939
11.185,2.0,1.0,1.0,34.5,33.3,33.3,3.1,2.2,2.56,0.5386365913596318,-0.021647797525088774,0.8300398305479438,0.005318510734360594,-0.091749,-33.03719
11.185,2.0,1.0,1.0,34.5,33.3,33.3,3.1,2.2,2.5625,0.5308201251806202,-0.02201170887371011,0.8349033054456788,0.005178657789049976,-0.092912,-32.912955
11.185,2.0,1.0,1.0,34.5,33.3,33.3,3.1,2.2,2.565,0.522908978485385,-0.022380995415485563,0.8397217377956246,0.005032234435022511,-0.094097,-32.788225
11.185,2.0,1.0,1.0,34.5,33.3,33.3,3.1,2.2,2.5675,0.5149023421529981,-0.022755718664959675,0.8444936552730871,0.004879020946386549,-0.095306,-32.662992
11.185,2.0,1.0,1.0,34.5,33.3,33.3,3.1,2.2,2.57,0.5067994080384777,-0.02313593964302089,0.8492175456469552,0.00471879014210992,-0.09654,-32.53725
11.185,2.0,1.0,1.0,34.5,33.3,33.3,3.1,2.2,2.5725,0.49859936958241485,-0.02352171877636769,0.8538918557496009,0.004551307115860771,-0.097799,-32.41099
11.185,2.0,1.0,1.0,34.5,33.3,33.3,3.1,2.2,2.575,0.49030142245594355,-0.023913115789808738,0.8585149904242155,0.004376328955348329,-0.099083,-32.284203
11.185,2.0,1.0,1.0,34.5,33.3,33.3,3.1,2.2,2.5775,0.48190476524268927,-0.024310189590951096,0.8630853114493467,0.004193604450715829,-0.100394,-32.156883
11.185,2.0,1.0,1.0,34.5,33.3,33.3,3.1,2.2,2.58,0.4734086001593804,-0.02471299814680197,0.8676011364403927,0.004002873791516147,-0.101733,-32.02902
11.185,2.0,1.0,1.0,34.5,33.3,33.3,3.1,2.2,2.5825,0.46481213381687736,-0.025121598351781016,0.8720607377278647,0.0038038682517771536,-0.103099,-31.900606
11.185,2.0,1.0,1.0,34.5,33.3,33.3,3.1,2.2,2.585,0.4561145780234579,-0.025536045886606885,0.8764623412122065,0.0035963098626390832,-0.104493,-31.771633
11.185,2.0,1.0,1.0,34.5,33.3,33.3,3.1,2.2,2.5875,0.44731515063224825,-0.025956395067489455,0.8808041251950123,0.0033799110720199857,-0.105917,-31.642091
11.185,2.0,1.0,1.0,34.5,33.3,33.3,3.1,2.2,2.59,0.438413076434801,-0.026382698685021553,0.8850842191864626,0.0031543743907366567,-0.107371,-31.511972
11.185,2.0,1.0,1.0,34.5,33.3,33.3,3.1,2.2,2.5925,0.4294075881028511,-0.026815007832126557,0.8893007026888823,0.0029193920244797496,-0.108855,-31.381267
11.185,2.0,1.0,1.0,34.5,33.3,33.3,3.1,2.2,2.595,0.4202979271804281,-0.027253371720375202,0.8934516039562631,0.0026746454910089924,-0.110372,-31.249966
11.185,2.0,1.0,1.0,34.5,33.3,33.3,3.1,2.2,2.5975,0.4110833451285137,-0.027697837483942885,0.8975348987297056,0.0024198052219007306,-0.111921,-31.118061
11.185,2.0,1.0,1.0,34.5,33.3,33.3,3.1,2.2,2.6,0.40176310442458385,-0.028148449970428844,0.9015485089486872,0.0021545301481445244,-0.113504,-30.985541
11.185,2.0,1.0,1.0,34.5,33.3,33.3,3.1,2.2,2.6025,0.3923364797194439,-0.028605251517708506,0.9054903014381406,0.001878467268845849,-0.115121,-30.852396
11.185,2.0,1.0,1.0,34.5,33.3,33.3,3.1,2.2,2.605,0.3828027590538397,-0.029068281715936627,0.9093580865713227,0.0015912512022518005,-0.116774,-30.718618
11.185,2.0,1.0,1.0,34.5,33.3,33.3,3.1,2.2,2.6075,0.37316124513746807,-0.029537577153758193,0.9131496169085003,0.0012925037182716437,-0.118463,-30.584195
11.185,2.0,1.0,1.0,34.5,33.3,33.3,3.1,2.2,2.61,0.36341125669307767,-0.03001317114772167,0.9168625858115059,0.0009818332516171276,-0.12019,-30.449117
11.185,2.0,1.0,1.0,34.5,33.3,33.3,3.1,2.2,2.6125,0.3535521298684785,-0.030495093453821877,0.9204946260342447,0.0006588343946368413,-0.121955,-30.313374
11.185,2.0,1.0,1.0,34.5,33.3,33.3,3.1,2.2,2.615,0.34358321971936756,-0.030983369960025556,0.92404330828927,0.0003230873688640766,-0.12376,-30.176955
11.185,2.0,1.0,1.0,34.5,33.3,33.3,3.1,2.2,2.6175,0.33350390176602884,-0.03147802235855382,0.9275061397905732,-2.5842525760470578e-05,-0.125606,-30.039848
11.185,2.0,1.0,1.0,34.5,33.3,33.3,3.1,2.2,2.62,0.3233135736270461,-0.03197906779661105,0.9308805627727805,-0.00038840548509224993,-0.127493,-29.902043
11.185,2.0,1.0,1.0,34.5,33.3,33.3,3.1,2.2,2.6225,0.31301165673331466,-0.03248651850415766,0.93416395298697,-0.0007650677995832915,-0.129424,-29.763529
11.185,2.0,1.0,1.0,34.5,33.3,33.3,3.1,2.2,2.625,0.302597598125779,-0.0330003813972238,0.93735361817335,-0.00115631247891959,-0.1314,-29.624292
11.185,2.0,1.0,1.0,34.5,33.3,33.3,3.1,2.2,2.6275,0.29207087234041923,-0.03352065765515523,0.9404467965111151,-0.0015626399038179146,-0.133422,-29.484322
11.185,2.0,1.0,1.0,34.5,33.3,33.3,3.1,2.2,2.63,0.28143098338420375,-0.03404734227006428,0.9434406550457737,-0.0019845685063862137,-0.135491,-29.343605
11.185,2.0,1.0,1.0,34.5,33.3,33.3,3.1,2.2,2.6325,0.27067746680583116,-0.034580423566633316,0.9463322880943121,-0.002422635480544998,-0.137609,-29.20213
11.185,2.0,1.0,1.0,34.5,33.3,33.3,3.1,2.2,2.635,0.2598098918652707,-0.03511988269028046,0.9491187156286008,-0.0028773975241049893,-0.139777,-29.059884
11.185,2.0,1.0,1.0,34.5,33.3,33.3,3.1,2.2,2.6375,0.24882786380626953,-0.035665693061547814,0.9517968816374254,-0.003349431614203812,-0.141997,-28.916852
11.185,2.0,1.0,1.0,34.5,33.3,33.3,3.1,2.2,2.64,0.23773102623614595,-0.03621781979441132,0.9543636524676221,-0.003839335817920671,-0.144271,-28.773023
11.185,2.0,1.0,1.0,34.5,33.3,33.3,3.1,2.2,2.6425,0.2265190636174159,-0.036776219076032374,0.9568158151447714,-0.0043477301400121305,-0.1466,-28.628381
11.185,2.0,1.0,1.0,34.5,33.3,33.3,3.1,2.2,2.645,0.21519170387595263,-0.03734083750527967,0.9591500756739468,-0.0048752574098496655,-0.148987,-28.482912
11.185,2.0,1.0,1.0,34.5,33.3,33.3,3.1,2.2,2.6475,0.20374872113062048,-0.03791161138713829,0.9613630573210274,-0.005422584209785911,-0.151432,-28.336603
11.185,2.0,1.0,1.0,34.5,33.3,33.3,3.1,2.2,2.65,0.19218993854950603,-0.0384884659798932,0.9634512988750874,-0.005990401847338957,-0.153938,-28.189437
11.185,2.0,1.0,1.0,34.5,33.3,33.3,3.1,2.2,2.6525,0.18051523133816597,-0.03907131469171907,0.9654112528923962,-0.00657942737375448,-0.156507,-28.0414
11.185,2.0,1.0,1.0,34.5,33.3,33.3,3.1,2.2,2.655,0.1687245298654892,-0.039660058223035505,0.9672392839225326,-0.00719040465169987,-0.15914,-27.892476
11.185,2.0,1.0,1.0,34.5,33.3,33.3,3.1,2.2,2.6575,0.15681782293310678,-0.04025458365067841,0.9689316667171223,-0.00782410547504641,-0.161842,-27.742649
11.185,2.0,1.0,1.0,34.5,33.3,33.3,3.1,2.2,2.66,0.14479516119453628,-0.04085476344960692,0.9704845844216723,-0.008481330743922506,-0.164612,-27.591901
11.185,2.0,1.0,1.0,34.5,33.3,33.3,3.1,2.2,2.6625,0.132656660730601,-0.041460454447494674,0.9718941267509387,-0.009162911698464017,-0.167455,-27.440216
11.185,2.0,1.0,1.0,34.5,33.3,33.3,3.1,2.2,2.665,0.12040250678794394,-0.04207149670715063,0.9731562881482129,-0.009869711214956105,-0.170372,-27.287575
11.185,2.0,1.0,1.0,34.5,33.3,33.3,3.1,2.2,2.6675,0.1080329576879482,-0.04268771233126438,0.9742669659288181,-0.010602625168348897,-0.173366,-27.133961
11.185,2.0,1.0,1.0,34.5,33.3,33.3,3.1,2.2,2.67,0.09554834891363984,-0.04330890418347715,0.97522195840806,-0.011362583865449256,-0.17644,-26.979356
11.185,2.0,1.0,1.0,34.5,33.3,33.3,3.1,2.2,2.6725,0.08294909738273178,-0.043934854519230994,0.9760169630137022,-0.012150553553435604,-0.179597,-26.823738
11.185,2.0,1.0,1.0,34.5,33.3,33.3,3.1,2.2,2.675,0.07023570591538651,-0.04456532351923974,0.9766475743829464,-0.01296753800872026,-0.18284,-26.667089
11.185,2.0,1.0,1.0,34.5,33.3,33.3,3.1,2.2,2.6775,0.05740876790586043,-0.04520004771775209,0.9771092824436867,-0.013814580211598076,-0.186171,-26.509388
11.185,2.0,1.0,1.0,34.5,33.3,33.3,3.1,2.2,2.68,0.044468972207769936,-0.04583873831702689,0.9773974704796421,-0.014692764112570393,-0.189595,-26.350614
11.185,2.0,1.0,1.0,34.5,33.3,33.3,3.1,2.2,2.6825,0.031417108243464796,-0.04648107937860373,0.977507413178672,-0.015603216496725749,-0.193115,-26.190744
11.185,2.0,1.0,1.0,34.5,33.3,33.3,3.1,2.2,2.685,0.018254071348644735,-0.047126725881025316,0.9774342746633651,-0.016547108953099396,-0.196734,-26.029756
11.185,2.0,1.0,1.0,34.5,33.3,33.3,3.1,2.2,2.6875,0.004980868364308198,-0.04777530163262454,0.9771731065025959,-0.01752565995652154,-0.200457,-25.867626
11.185,2.0,1.0,1.0,34.5,33.3,33.3,3.1,2.2,2.69,-0.008401376510988698,-0.04842639702683119,0.9767188457023904,-0.018540137070107838,-0.204287,-25.70433
11.185,2.0,1.0,1.0,34.5,33.3,33.3,3.1,2.2,2.6925,-0.021891415594531647,-0.04907956662615251,0.9760663126740013,-0.019591859277252467,-0.208229,-25.539843
11.185,2.0,1.0,1.0,34.5,33.3,33.3,3.1,2.2,2.695,-0.03548787130319908,-0.04973432655952137,0.9752102091765641,-0.020682199452749597,-0.212288,-25.374139
11.185,2.0,1.0,1.0,34.5,33.3,33.3,3.1,2.2,2.6975,-0.049189229430989925,-0.050390151716076276,0.9741451162311138,-0.021812586983515774,-0.216468,-25.20719
11.185,2.0,1.0,1.0,34.5,33.3,33.3,3.1,2.2,2.7,-0.06299383210214458,-0.051046472716590206,0.9728654920021284,-0.022984510550299733,-0.220774,-25.038968
11.185,2.0,1.0,1.0,34.5,33.3,33.3,3.1,2.2,2.7025,-0.07689987037997854,-0.05170267264170168,0.9713656696419435,-0.024199521082774598,-0.225211,-24.869445
11.185,2.0,1.0,1.0,34.5,33.3,33.3,3.1,2.2,2.705,-0.09090537650953293,-0.05235808349376235,0.9696398550925815,-0.025459234901500375,-0.229786,-24.69859
11.185,2.0,1.0,1.0,34.5,33.3,33.3,3.1,2.2,2.7075,-0.10500821576989948,-0.05301198236648304,0.9676821248385417,-0.02676533706144294,-0.234504,-24.526372
11.185,2.0,1.0,1.0,34.5,33.3,33.3,3.1,2.2,2.71,-0.11920607790952385,-0.05366358729357841,0.9654864236030636,-0.0281195849130365,-0.239371,-24.352758
11.185,2.0,1.0,1.0,34.5,33.3,33.3,3.1,2.2,2.7125,-0.1334964681348042,-0.05431205274423899,0.9630465619791158,-0.029523811898199005,-0.244395,-24.177713
11.185,2.0,1.0,1.0,34.5,33.3,33.3,3.1,2.2,2.715,-0.14787669761900132,-0.05495646472943209,0.9603562139850733,-0.030979931600250452,-0.249583,-24.001203
11.185,2.0,1.0,1.0,34.5,33.3,33.3,3.1,2.2,2.7175,-0.16234387349456336,-0.05559583547869168,0.957408914533496,-0.03248994206836299,-0.254941,-23.82319
11.185,2.0,1.0,1.0,34.5,33.3,33.3,3.1,2.2,2.72,-0.17689488828757097,-0.056229097642115894,0.9541980567998161,-0.03405593043898435,-0.260479,-23.643637
11.185,2.0,1.0,1.0,34.5,33.3,33.3,3.1,2.2,2.7225,-0.19152640874797233,-0.05685509796666855,0.9507168894758672,-0.03568007787864814,-0.266204,-23.462502
11.185,2.0,1.0,1.0,34.5,33.3,33.3,3.1,2.2,2.725,-0.20623486402334343,-0.05747259038946213,0.9469585138912241,-0.03736466487469284,-0.272127,-23.279745
11.185,2.0,1.0,1.0,34.5,33.3,33.3,3.1,2.2,2.7275,-0.22101643311729938,-0.058080228483375414,0.9429158809830681,-0.03911207690270229,-0.278256,-23.095321
11.185,2.0,1.0,1.0,34.5,33.3,33.3,3.1,2.2,2.73,-0.23586703156585315,-0.05867655718197146,0.9385817880929613,-0.040924810501907605,-0.284602,-22.909185
11.185,2.0,1.0,1.0,34.5,33.3,33.3,3.1,2.2,2.7325,-0.25078229725607104,-0.05926000370108082,0.9339488755662432,-0.042805479792399626,-0.291177,-22.721289
11.185,2.0,1.0,1.0,34.5,33.3,33.3,3.1,2.2,2.735,-0.2657575753011186,-0.05982886756338961,0.9290096231270577,-0.04475682347074613,-0.297992,-22.531583
11.185,2.0,1.0,1.0,34.5,33.3,33.3,3.1,2.2,2.7375,-0.28078790187370295,-0.06038130961970743,0.9237563459989477,-0.04678171232350777,-0.30506,-22.340015
11.185,2.0,1.0,1.0,34.5,33.3,33.3,3.1,2.2,2.74,-0.29586798688615257,-0.060915339946006564,0.9181811907378765,-0.048883157301152,-0.312395,-22.14653
11.185,2.0,1.0,1.0,34.5,33.3,33.3,3.1,2.2,2.7425,-0.31099219538927375,-0.061428804478514634,0.9122761307411954,-0.051064318197966384,-0.320012,-21.95107
11.185,2.0,1.0,1.0,34.5,33.3,33.3,3.1,2.2,2.745,-0.32615452754343655,-0.06191937022972449,0.9060329613927044,-0.053328512986695234,-0.327926,-21.753576
11.185,2.0,1.0,1.0,34.5,33.3,33.3,3.1,2.2,2.7475,-0.3413485969936496,-0.06238450890573108,0.8994432948005248,-0.05567922785971592,-0.336156,-21.553984
11.185,2.0,1.0,1.0,34.5,33.3,33.3,3.1,2.2,2.75,-0.356567607455128,-0.0628214787192825,0.892498554081149,-0.0581201280315186,-0.344718,-21.352228
11.185,2.0,1.0,1.0,34.5,33.3,33.3,3.1,2.2,2.7525,-0.3718043272863538,-0.06322730416273346,0.885189967139864,-0.06065506935992154,-0.353634,-21.148238
11.185,2.0,1.0,1.0,34.5,33.3,33.3,3.1,2.2,2.755,-0.3870510617922718,-0.06359875346998377,0.8775085598949915,-0.06328811084565497,-0.362925,-20.941941
11.185,2.0,1.0,1.0,34.5,33.3,33.3,3.1,2.2,2.7575,-0.4022996229600628,-0.06393231345559834,0.8694451488911725,-0.0660235280714354,-0.372615,-20.733259
11.185,2.0,1.0,1.0,34.5,33.3,33.3,3.1,2.2,2.76,-0.41754129628283293,-0.06422416137161369,0.8609903332458163,-0.06886582764206615,-0.382728,-20.522113
11.185,2.0,1.0,1.0,34.5,33.3,33.3,3.1,2.2,2.7625,-0.4327668042714884,-0.06447013336680536,0.8521344858729433,-0.07181976268603474,-0.393293,-20.308416
11.185,2.0,1.0,1.0,34.5,33.3,33.3,3.1,2.2,2.765,-0.4479662661901954,-0.0646656890679536,0.8428677439308893,-0.074890349475892,-0.40434,-20.092077
11.185,2.0,1.0,1.0,34.5,33.3,33.3,3.1,2.2,2.7675,-0.46312915347479866,-0.06480587172614857,0.8331799984452931,-0.07808288521864847,-0.415902,-19.873003
11.185,2.0,1.0,1.0,34.5,33.3,33.3,3.1,2.2,2.77,-0.47824424020395534,-0.06488526328132795,0.8230608830674708,-0.0814029670574648,-0.428015,-19.651093
11.185,2.0,1.0,1.0,34.5,33.3,33.3,3.1,2.2,2.7725,-0.49329954788704367,-0.06489793359251882,0.812499761942241,-0.08485651231067994,-0.440717,-19.426242
11.185,2.0,1.0,1.0,34.5,33.3,33.3,3.1,2.2,2.775,-0.5082822837082482,-0.06483738295666727,0.8014857166800088,-0.08844977995195424,-0.454053,-19.198337
11.185,2.0,1.0,1.0,34.5,33.3,33.3,3.1,2.2,2.7775,-0.5231787712186764,-0.06469647689186378,0.7900075324580339,-0.09218939330363861,-0.468069,-18.96726
11.185,2.0,1.0,1.0,34.5,33.3,33.3,3.1,2.2,2.78,-0.5379743722939153,-0.06446737198689383,0.7780536833182476,-0.0960823638713484,-0.482818,-18.732888
11.185,2.0,1.0,1.0,34.5,33.3,33.3,3.1,2.2,2.7825,-0.5526533989672592,-0.06414143141316622,0.7656123167878898,-0.1001361161870412,-0.498358,-18.495087
11.185,2.0,1.0,1.0,34.5,33.3,33.3,3.1,2.2,2.785,-0.5671990135034635,-0.06370912845099105,0.7526712380299079,-0.10435851344537121,-0.514752,-18.253718
11.185,2.0,1.0,1.0,34.5,33.3,33.3,3.1,2.2,2.7875,-0.5815931147858573,-0.063159936092444,0.7392178938396926,-0.10875788360658986,-0.532071,-18.008634
11.185,2.0,1.0,1.0,34.5,33.3,33.3,3.1,2.2,2.79,-0.5958162087426514,-0.06248220043879304,0.7252393569525524,-0.11334304548956448,-0.550393,-17.759678
11.185,2.0,1.0,1.0,34.5,33.3,33.3,3.1,2.2,2.7925,-0.6098472601253803,-0.061662995201098254,0.7107223113248905,-0.11812333417817315,-0.569807,-17.506684
11.185,2.0,1.0,1.0,34.5,33.3,33.3,3.1,2.2,2.795,-0.623663522460777,-0.06068795412559906,0.6956530393176057,-0.12310862479716596,-0.590408,-17.249477
11.185,2.0,1.0,1.0,34.5,33.3,33.3,3.1,2.2,2.7975,-0.6372403424122401,-0.05954107758615204,0.680017412064854,-0.1283093533577756,-0.612307,-16.98787
11.185,2.0,1.0,1.0,34.5,33.3,33.3,3.1,2.2,2.8,-0.6505509340910207,-0.0582045088970847,0.6638008847837219,-0.13373653290018847,-0.635626,-16.721667
11.185,2.0,1.0,1.0,34.5,33.3,33.3,3.1,2.2,2.8025,-0.6635661180301602,-0.05665827508168038,0.6469884994096112,-0.13940176253088463,-0.660503,-16.450658
11.185,2.0,1.0,1.0,34.5,33.3,33.3,3.1,2.2,2.805,-0.6762540185535151,-0.05487998586187806,0.6295648977797385,-0.1453172261165688,-0.687092,-16.174623
11.185,2.0,1.0,1.0,34.5,33.3,33.3,3.1,2.2,2.8075,-0.688579712113431,-0.05284448348941265,0.6115143497023029,-0.1514956762842444,-0.715571,-15.893328
11.185,2.0,1.0,1.0,34.5,33.3,33.3,3.1,2.2,2.81,-0.70050481780796,-0.05052343469238454,0.5928208017344917,-0.15795039789689566,-0.746139,-15.606524
11.185,2.0,1.0,1.0,34.5,33.3,33.3,3.1,2.2,2.8125,-0.7119870196975598,-0.04788485444029482,0.5734679544728882,-0.16469514320276052,-0.779023,-15.31395
11.185,2.0,1.0,1.0,34.5,33.3,33.3,3.1,2.2,2.815,-0.7229795087031405,-0.04489254941650742,0.5534393788022787,-0.1717440282274999,-0.814483,-15.01533
11.185,2.0,1.0,1.0,34.5,33.3,33.3,3.1,2.2,2.8175,-0.7334303297756645,-0.04150546702415175,0.5327186850781787,-0.17911137646977124,-0.852818,-14.710372
11.185,2.0,1.0,1.0,34.5,33.3,33.3,3.1,2.2,2.82,-0.7432816177005859,-0.037676933458640885,0.5112897639364494,-0.18681149127248137,-0.894371,-14.398771
11.185,2.0,1.0,1.0,34.5,33.3,33.3,3.1,2.2,2.8225,-0.7524687024017872,-0.03335376192113438,0.48913712373560553,-0.19485833197266664,-0.939537,-14.080205
11.185,2.0,1.0,1.0,34.5,33.3,33.3,3.1,2.2,2.825,-0.7609190620810495,-0.028475209563974216,0.466246358085745,-0.20326506054519763,-0.988778,-13.754341
11.185,2.0,1.0,1.0,34.5,33.3,33.3,3.1,2.2,2.8275,-0.7685511002427348,-0.02297175952347933,0.44260478822512517,-0.2120434142339214,-1.042627,-13.42083
