1,w,sub_t,h,l1,l2,l3,g1,g2,Freq,S11_re,S21_re,S11_img,S21_img,S11_dB,S21_dB
11.185,2.0,1.0,1.0,34.0,34.4,34.4,3.1,3.5,2.5,0.782778179884874,-0.00935980705819297,0.610539063969586,0.00536771103278714,-0.063435,-39.339787
11.185,2.0,1.0,1.0,34.0,34.4,34.4,3.1,3.5,2.5025,0.7782355781264817,-0.009540532902819341,0.6161937265268776,0.005368583407745247,-0.064115,-39.213857
11.185,2.0,1.0,1.0,34.0,34.4,34.4,3.1,3.5,2.505,0.7736290440424685,-0.009724597571937181,0.6218409578508531,0.005368014230751984,-0.064809,-39.087434
11.185,2.0,1.0,1.0,34.0,34.4,34.4,3.1,3.5,2.5075,0.7689579067202013,-0.00991207491979475,0.6274803124554068,0.005365946289535974,-0.065515,-38.960506
11.185,2.0,1.0,1.0,34.0,34.4,34.4,3.1,3.5,2.51,0.7642214849501096,-0.010103040917661907,0.6331113314445718,0.005362320096170727,-0.066235,-38.833062
11.185,2.0,1.0,1.0,34.0,34.4,34.4,3.1,3.5,2.5125,0.7594190870707461,-0.010297573729579792,0.6387335420784029,0.005357073783568696,-0.06697,-38.705091
11.185,2.0,1.0,1.0,34.0,34.4,34.4,3.1,3.5,2.515,0.7545500108118336,-0.01049575379141296,0.6443464573237158,0.005350142996526988,-0.067719,-38.576579
11.185,2.0,1.0,1.0,34.0,34.4,34.4,3.1,3.5,2.5175,0.7496135431352857,-0.01069766389337323,0.6499495753890532,0.0053414607769921435,-0.068483,-38.447514
11.185,2.0,1.0,1.0,34.0,34.4,34.4,3.1,3.5,2.52,0.7446089600741552,-0.010903389266197555,0.6555423792432449,0.005330957443189533,-0.069262,-38.317884
11.185,2.0,1.0,1.0,34.0,34.4,34.4,3.1,3.5,2.5225,0.7395355265695037,-0.011113017671169186,0.6611243361168515,0.005318560462236526,-0.070057,-38.187676
11.185,2.0,1.0,1.0,34.0,34.4,34.4,3.1,3.5,2.525,0.7343924963051345,-0.011326639494189298,0.6666948969857953,0.005304194315833127,-0.070868,-38.056876
11.185,2.0,1.0,1.0,34.0,34.4,34.4,3.1,3.5,2.5275,0.7291791115401656,-0.011544347844110394,0.6722534960364145,0.005287780358593203,-0.071696,-37.925472
11.185,2.0,1.0,1.0,34.0,34.4,34.4,3.1,3.5,2.53,0.7238946029394029,-0.01176623865556384,0.6777995501111319,0.005269236668548699,-0.072541,-37.793449
11.185,2.0,1.0,1.0,34.0,34.4,34.4,3.1,3.5,2.5325,0.7185381894014649,-0.011992410796521549,0.6833324581339077,0.005248477889325013,-0.073403,-37.660793
11.185,2.0,1.0,1.0,34.0,34.4,34.4,3.1,3.5,2.535,0.7131090778846086,-0.012222966180851577,0.6888516005145852,0.005225415063448507,-0.074283,-37.52749
11.185,2.0,1.0,1.0,34.0,34.4,34.4,3.1,3.5,2.5375,0.7076064632302149,-0.012458009886140148,0.6943563385311822,0.005199955456207427,-0.075182,-37.393526
11.185,2.0,1.0,1.0,34.0,34.4,34.4,3.1,3.5,2.54,0.7020295279838583,-0.012697650277071523,0.6998460136891443,0.005172002369444117,-0.0761,-37.258885
11.185,2.0,1.0,1.0,34.0,34.4,34.4,3.1,3.5,2.5425,0.6963774422139071,-0.012941999134674117,0.7053199470565098,0.005141454944608962,-0.077038,-37.123552
11.185,2.0,1.0,1.0,34.0,34.4,34.4,3.1,3.5,2.545,0.6906493633275737,-0.013191171791763153,0.7107774385738689,0.005108207954356383,-0.077996,-36.987512
11.185,2.0,1.0,1.0,34.0,34.4,34.4,3.1,3.5,2.5475,0.6848444358843445,-0.01344528727492661,0.7162177663379375,0.005072151581906553,-0.078975,-36.850747
11.185,2.0,1.0,1.0,34.0,34.4,34.4,3.1,3.5,2.55,0.6789617914066851,-0.013704468453429697,0.7216401858575093,0.005033171187337443,-0.079975,-36.713243
11.185,2.0,1.0,1.0,34.0,34.4,34.4,3.1,3.5,2.5525,0.6730005481879405,-0.013968842195430478,0.7270439292804346,0.004991147059905321,-0.080997,-36.574982
11.185,2.0,1.0,1.0,34.0,34.4,34.4,3.1,3.5,2.555,0.6669598110973058,-0.014238539531929486,0.7324282045902365,0.004945954155421011,-0.082042,-36.435946
11.185,2.0,1.0,1.0,34.0,34.4,34.4,3.1,3.5,2.5575,0.6608386713817481,-0.014513695828902521,0.7377921947708562,0.004897461817631168,-0.08311,-36.296118
11.185,2.0,1.0,1.0,34.0,34.4,34.4,3.1,3.5,2.56,0.6546362064647534,-0.014794450968093066,0.7431350569379235,0.004845533482469492,-0.084203,-36.155481
11.185,2.0,1.0,1.0,34.0,34.4,34.4,3.1,3.5,2.5625,0.6483514797417395,-0.015080949536974211,0.7484559214348525,0.0047900263639496345,-0.085321,-36.014014
11.185,2.0,1.0,1.0,34.0,34.4,34.4,3.1,3.5,2.565,0.6419835403719694,-0.0153733410284236,0.7537538908919506,0.004730791120371083,-0.086464,-35.8717
11.185,2.0,1.0,1.0,34.0,34.4,34.4,3.1,3.5,2.5675,0.6355314230667909,-0.015671780050689043,0.7590280392465826,0.004667671499399193,-0.087634,-35.728518
11.185,2.0,1.0,1.0,34.0,34.4,34.4,3.1,3.5,2.57,0.6289941478739886,-0.015976426548262108,0.7642774107223267,0.0046005039604586125,-0.088831,-35.584449
11.185,2.0,1.0,1.0,34.0,34.4,34.4,3.1,3.5,2.5725,0.6223707199580262,-0.016287446034318833,0.7695010187648929,0.004529117272748763,-0.090057,-35.439472
11.185,2.0,1.0,1.0,34.0,34.4,34.4,3.1,3.5,2.575,0.6156601293759297,-0.01660500983542933,0.7746978449324174,0.0044533320870440585,-0.091312,-35.293565
11.185,2.0,1.0,1.0,34.0,34.4,34.4,3.1,3.5,2.5775,0.6088613508485404,-0.016929295349285715,0.7798668377375806,0.004372960479283008,-0.092597,-35.146707
11.185,2.0,1.0,1.0,34.0,34.4,34.4,3.1,3.5,2.58,0.6019733435268291,-0.017260486316249102,0.7850069114387888,0.00428780546377672,-0.093913,-34.998875
11.185,2.0,1.0,1.0,34.0,34.4,34.4,3.1,3.5,2.5825,0.5949950507529349,-0.01759877310556927,0.7901169447774801,0.004197660473674918,-0.095262,-34.850047
11.185,2.0,1.0,1.0,34.0,34.4,34.4,3.1,3.5,2.585,0.5879253998155644,-0.017944353017189673,0.7951957796583522,0.004102308806117523,-0.096644,-34.700198
11.185,2.0,1.0,1.0,34.0,34.4,34.4,3.1,3.5,2.5875,0.5807633016993339,-0.01829743060011126,0.8002422197690984,0.004001523029268528,-0.098061,-34.549303
11.185,2.0,1.0,1.0,34.0,34.4,34.4,3.1,3.5,2.59,0.5735076508276177,-0.018658217988354594,0.8052550291359251,0.003895064348172647,-0.099514,-34.397339
11.185,2.0,1.0,1.0,34.0,34.4,34.4,3.1,3.5,2.5925,0.5661573247983939,-0.019026935255633367,0.8102329306108667,0.00378268192609519,-0.101003,-34.244278
11.185,2.0,1.0,1.0,34.0,34.4,34.4,3.1,3.5,2.595,0.5587111841125637,-0.01940381078992213,0.8151746042865351,0.0036641121576934783,-0.102531,-34.090094
11.185,2.0,1.0,1.0,34.0,34.4,34.4,3.1,3.5,2.5975,0.5511680718941276,-0.01978908168918808,0.820078685833635,0.00353907789002611,-0.104099,-33.934759
11.185,2.0,1.0,1.0,34.0,34.4,34.4,3.1,3.5,2.6,0.5435268136015774,-0.020182994179638165,0.8249437647561212,0.0034072875870259623,-0.105708,-33.778245
11.185,2.0,1.0,1.0,34.0,34.4,34.4,3.1,3.5,2.6025,0.5357862167297904,-0.020585804057926118,0.829768382558465,0.003268434432643442,-0.10736,-33.620522
11.185,2.0,1.0,1.0,34.0,34.4,34.4,3.1,3.5,2.605,0.5279450705016302,-0.02099777715886019,0.8345510308190054,0.0031221953673994576,-0.109057,-33.46156
11.185,2.0,1.0,1.0,34.0,34.4,34.4,3.1,3.5,2.6075,0.5200021455484081,-0.02141918985025852,0.8392901491628066,0.0029682300525721668,-0.110799,-33.301329
11.185,2.0,1.0,1.0,34.0,34.4,34.4,3.1,3.5,2.61,0.5119561935782729,-0.02185032955670317,0.8439841231268572,0.0028061797556667907,-0.11259,-33.139794
11.185,2.0,1.0,1.0,34.0,34.4,34.4,3.1,3.5,2.6125,0.5038059470315042,-0.02229149531406607,0.8486312819097821,0.0026356661501795563,-0.114431,-32.976923
11.185,2.0,1.0,1.0,34.0,34.4,34.4,3.1,3.5,2.615,0.4955501187216003,-0.022742998356797727,0.8532298959974962,0.002456290021956648,-0.116323,-32.812681
11.185,2.0,1.0,1.0,34.0,34.4,34.4,3.1,3.5,2.6175,0.4871874014609747,-0.023205162740099875,0.8577781746554103,0.0022676298736567942,-0.118269,-32.647032
11.185,2.0,1.0,1.0,34.0,34.4,34.4,3.1,3.5,2.62,0.47871646766994047,-0.023678325999237537,0.8622742632768866,0.002069240417943163,-0.120272,-32.479939
11.185,2.0,1.0,1.0,34.0,34.4,34.4,3.1,3.5,2.6225,0.47013596896758075,-0.024162839848387022,0.866716240576633,0.0018606509490418407,-0.122333,-32.311364
11.185,2.0,1.0,1.0,34.0,34.4,34.4,3.1,3.5,2.625,0.461444535743001,-0.0246590709215612,0.871102115616562,0.00164136358120148,-0.124455,-32.141267
11.185,2.0,1.0,1.0,34.0,34.4,34.4,3.1,3.5,2.6275,0.45264077670529995,-0.025167401558304037,0.8754298246504065,0.001410851341350907,-0.12664,-31.969606
11.185,2.0,1.0,1.0,34.0,34.4,34.4,3.1,3.5,2.63,0.4437232784105361,-0.02568823063699992,0.8796972277719247,0.0011685561018645355,-0.128892,-31.796338
11.185,2.0,1.0,1.0,34.0,34.4,34.4,3.1,3.5,2.6325,0.43469060476380106,-0.026221974458798,0.8839021053499565,0.0009138863377892029,-0.131213,-31.62142
11.185,2.0,1.0,1.0,34.0,34.4,34.4,3.1,3.5,2.635,0.42554129649441746,-0.026769067685306916,0.8880421542317853,0.0006462146911337467,-0.133607,-31.444805
11.185,2.0,1.0,1.0,34.0,34.4,34.4,3.1,3.5,2.6375,0.41627387060216064,-0.02732996433336583,0.8921149836942456,0.00036487532285195705,-0.136076,-31.266445
11.185,2.0,1.0,1.0,34.0,34.4,34.4,3.1,3.5,2.64,0.4068868197722685,-0.02790513883034159,0.89611811111976,6.916103092571507e-05,-0.138625,-31.08629
11.185,2.0,1.0,1.0,34.0,34.4,34.4,3.1,3.5,2.6425,0.39737861175695144,-0.028495087133535716,0.900048957371906,-0.00024167988955381024,-0.141256,-30.904288
11.185,2.0,1.0,1.0,34.0,34.4,34.4,3.1,3.5,2.645,0.387747688720985,-0.029100327917396848,0.9039048418422313,-0.000568447071248393,-0.143974,-30.720385
11.185,2.0,1.0,1.0,34.0,34.4,34.4,3.1,3.5,2.6475,0.37799246654895097,-0.029721403832323443,0.9076829771367664,-0.0009119918145327434,-0.146783,-30.534526
11.185,2.0,1.0,1.0,34.0,34.4,34.4,3.1,3.5,2.65,0.36811133411162394,-0.030358882838894746,0.9113804633669697,-0.0012732211763540001,-0.149688,-30.346652
11.185,2.0,1.0,1.0,34.0,34.4,34.4,3.1,3.5,2.6525,0.3581026524890947,-0.03101335962136755,0.9149942820056152,-0.0016531024459300729,-0.152693,-30.156702
11.185,2.0,1.0,1.0,34.0,34.4,34.4,3.1,3.5,2.655,0.3479647541482132,-0.03168545708421754,0.9185212892633761,-0.0020526680499409517,-0.155803,-29.964612
11.185,2.0,1.0,1.0,34.0,34.4,34.4,3.1,3.5,2.6575,0.3376959420721916,-0.0323758279353567,0.9219582089363739,-0.0024730209352331915,-0.159025,-29.770316
11.185,2.0,1.0,1.0,34.0,34.4,34.4,3.1,3.5,2.66,0.3272944888404154,-0.03308515635939554,0.9253016246687692,-0.002915340483186482,-0.162363,-29.573746
11.185,2.0,1.0,1.0,34.0,34.4,34.4,3.1,3.5,2.6625,0.31675863565697304,-0.033814159783922625,0.9285479715673414,-0.003380889016898401,-0.165824,-29.374828
11.185,2.0,1.0,1.0,34.0,34.4,34.4,3.1,3.5,2.665,0.30608659132694704,-0.0345635907411811,0.9316935270968966,-0.0038710189703676347,-0.169415,-29.173487
11.185,2.0,1.0,1.0,34.0,34.4,34.4,3.1,3.5,2.6675,0.2952765311803993,-0.03533423882670498,0.9347344011759865,-0.004387180798063285,-0.173143,-28.969644
11.185,2.0,1.0,1.0,34.0,34.4,34.4,3.1,3.5,2.67,0.2843265959450238,-0.036126932755350324,0.9376665253817329,-0.00493093171385205,-0.177016,-28.763217
11.185,2.0,1.0,1.0,34.0,34.4,34.4,3.1,3.5,2.6725,0.2732348905699513,-0.036942542513658756,0.9404856411601998,-0.005503945360441282,-0.181042,-28.554118
11.185,2.0,1.0,1.0,34.0,34.4,34.4,3.1,3.5,2.675,0.26199948300515574,-0.037781981605492634,0.9431872869245468,-0.006108022524553469,-0.18523,-28.342258
11.185,2.0,1.0,1.0,34.0,34.4,34.4,3.1,3.5,2.6775,0.25061840294342136,-0.03864620938529022,0.9457667839067576,-0.006745103029301976,-0.18959,-28.127541
11.185,2.0,1.0,1.0,34.0,34.4,34.4,3.1,3.5,2.68,0.23908964053516263,-0.039536233469900865,0.9482192206097323,-0.0074172789540545596,-0.194133,-27.909866
11.185,2.0,1.0,1.0,34.0,34.4,34.4,3.1,3.5,2.6825,0.22741114509066127,-0.04045311221560289,0.9505394356844539,-0.008126809353909876,-0.19887,-27.689131
11.185,2.0,1.0,1.0,34.0,34.4,34.4,3.1,3.5,2.685,0.21558082378974153,-0.04139795724129888,0.9527219990313267,-0.008876136676305603,-0.203814,-27.465223
11.185,2.0,1.0,1.0,34.0,34.4,34.4,3.1,3.5,2.6875,0.203596540425969,-0.042371935971694,0.954761190894896,-0.00966790510185716,-0.208978,-27.238027
11.185,2.0,1.0,1.0,34.0,34.4,34.4,3.1,3.5,2.69,0.19145611422144618,-0.04337627416508314,0.9566509786863379,-0.010504981071065735,-0.214376,-27.007421
11.185,2.0,1.0,1.0,34.0,34.4,34.4,3.1,3.5,2.6925,0.17915731875973992,-0.044412258378646964,0.9583849912273461,-0.011390476298940497,-0.220026,-26.773277
11.185,2.0,1.0,1.0,34.0,34.4,34.4,3.1,3.5,2.695,0.16669788109918907,-0.0454812383092071,0.9599564900612684,-0.012327773626951536,-0.225944,-26.535459
11.185,2.0,1.0,1.0,34.0,34.4,34.4,3.1,3.5,2.6975,0.15407548114747563,-0.04658462892834536,0.9613583374212684,-0.01332055611739254,-0.23215,-26.293824
11.185,2.0,1.0,1.0,34.0,34.4,34.4,3.1,3.5,2.7,0.1412877514022642,-0.04772391230649653,0.9625829603792411,-0.01437283986076203,-0.238664,-26.048221
11.185,2.0,1.0,1.0,34.0,34.4,34.4,3.1,3.5,2.7025,0.12833227719310636,-0.04890063898965685,0.9636223106213215,-0.0154890110441038,-0.245511,-25.798491
11.185,2.0,1.0,1.0,34.0,34.4,34.4,3.1,3.5,2.705,0.11520659759876213,-0.05011642875280959,0.964467819203746,-0.016673867919683363,-0.252716,-25.544465
11.185,2.0,1.0,1.0,34.0,34.4,34.4,3.1,3.5,2.7075,0.10190820726380141,-0.051372970503637955,0.9651103455337326,-0.01793266842173448,-0.260306,-25.285964
11.185,2.0,1.0,1.0,34.0,34.4,34.4,3.1,3.5,2.71,0.08843455940212648,-0.05267202104541922,0.9655401196905239,-0.0192711843076781,-0.268313,-25.022799
11.185,2.0,1.0,1.0,34.0,34.4,34.4,3.1,3.5,2.7125,0.07478307035681056,-0.05401540232504435,0.9657466770476542,-0.02069576285332115,-0.276772,-24.754769
11.185,2.0,1.0,1.0,34.0,34.4,34.4,3.1,3.5,2.715,0.06095112619087622,-0.05540499668553085,0.9657187839738353,-0.02221339731407611,-0.285721,-24.481661
11.185,2.0,1.0,1.0,34.0,34.4,34.4,3.1,3.5,2.7175,0.04693609191918093,-0.05684273950509478,0.9654443531704652,-0.023831807582269236,-0.295203,-24.203248
11.185,2.0,1.0,1.0,34.0,34.4,34.4,3.1,3.5,2.72,0.032735324166827534,-0.058330608427549814,0.9649103469413453,-0.025559532731463122,-0.305265,-23.919289
11.185,2.0,1.0,1.0,34.0,34.4,34.4,3.1,3.5,2.7225,0.01834618826651885,-0.059870608159164354,0.9641026663757242,-0.027406037451298434,-0.315962,-23.629527
11.185,2.0,1.0,1.0,34.0,34.4,34.4,3.1,3.5,2.725,0.003766081102507507,-0.06146474950879228,0.9630060240484808,-0.029381834751358728,-0.327354,-23.33369
11.185,2.0,1.0,1.0,34.0,34.4,34.4,3.1,3.5,2.7275,-0.011007538606410447,-0.06311502095929279,0.9616037973882536,-0.031498627762861726,-0.339508,-23.031485
11.185,2.0,1.0,1.0,34.0,34.4,34.4,3.1,3.5,2.73,-0.02597711038863075,-0.06482335054971963,0.9598778593199565,-0.033769474007875735,-0.352501,-22.7226
11.185,2.0,1.0,1.0,34.0,34.4,34.4,3.1,3.5,2.7325,-0.041144919608525,-0.06659155518023455,0.957808382134341,-0.036208976155365814,-0.366421,-22.406703
11.185,2.0,1.0,1.0,34.0,34.4,34.4,3.1,3.5,2.735,-0.056513028832356184,-0.0684212735720222,0.9553736097526053,-0.03883350406263429,-0.381366,-22.083436
11.185,2.0,1.0,1.0,34.0,34.4,34.4,3.1,3.5,2.7375,-0.07208318808691759,-0.07031387795062531,0.9525495926145477,-0.04166145383344904,-0.397449,-21.752419
11.185,2.0,1.0,1.0,34.0,34.4,34.4,3.1,3.5,2.74,-0.08785671759182047,-0.07227035797478251,0.9493098782978301,-0.04471355073622047,-0.414801,-21.413241
11.185,2.0,1.0,1.0,34.0,34.4,34.4,3.1,3.5,2.7425,-0.10383435449777562,-0.07429116836958492,0.9456251496465541,-0.04801320414340482,-0.433569,-21.065464
11.185,2.0,1.0,1.0,34.0,34.4,34.4,3.1,3.5,2.745,-0.12001605241640388,-0.07637602895756454,0.9414628006251119,-0.051586924200200876,-0.453928,-20.708617
11.185,2.0,1.0,1.0,34.0,34.4,34.4,3.1,3.5,2.7475,-0.13640071882795876,-0.07852366205902332,0.9367864383029293,-0.055464811720333865,-0.476077,-20.342194
11.185,2.0,1.0,1.0,34.0,34.4,34.4,3.1,3.5,2.75,-0.152985870449377,-0.0807314471998416,0.931555297323137,-0.0596811348312695,-0.500248,-19.965651
11.185,2.0,1.0,1.0,34.0,34.4,34.4,3.1,3.5,2.7525,-0.1697671798464364,-0.08299496622994092,0.925723550961477,-0.06427500809943794,-0.526717,-19.578404
11.185,2.0,1.0,1.0,34.0,34.4,34.4,3.1,3.5,2.755,-0.18673787729815544,-0.08530740263436577,0.9192395005679733,-0.06929119212630724,-0.555804,-19.179826
11.185,2.0,1.0,1.0,34.0,34.4,34.4,3.1,3.5,2.7575,-0.20388795921710132,-0.08765874605803015,0.9120446230731235,-0.0747810336418997,-0.58789,-18.769243
11.185,2.0,1.0,1.0,34.0,34.4,34.4,3.1,3.5,2.76,-0.22120313696929397,-0.09003473553623469,0.9040724548547817,-0.0808035674017552,-0.623428,-18.345933
11.185,2.0,1.0,1.0,34.0,34.4,34.4,3.1,3.5,2.7625,-0.23866343587932368,-0.09241545078219497,0.895247290562186,-0.08742680074156416,-0.662962,-17.909125
11.185,2.0,1.0,1.0,34.0,34.4,34.4,3.1,3.5,2.765,-0.2562413210075539,-0.09477342758853032,0.8854826791966183,-0.09472919772299847,-0.707144,-17.457995
11.185,2.0,1.0,1.0,34.0,34.4,34.4,3.1,3.5,2.7675,-0.27389918048638273,-0.0970711274961254,0.8746797098647774,-0.10280136937305026,-0.756766,-16.991671
11.185,2.0,1.0,1.0,34.0,34.4,34.4,3.1,3.5,2.77,-0.2915859341991104,-0.09925752878199012,0.8627251013660795,-0.11174795431728113,-0.812795,-16.509234
11.185,2.0,1.0,1.0,34.0,34.4,34.4,3.1,3.5,2.7725,-0.30923244950810375,-0.10126351967807035,0.8494891520978167,-0.12168963111998342,-0.876416,-16.009727
11.185,2.0,1.0,1.0,34.0,34.4,34.4,3.1,3.5,2.775,-0.326745329680528,-0.10299565870921555,0.834823684895047,-0.1327651245444795,-0.949098,-15.492171
11.185,2.0,1.0,1.0,34.0,34.4,34.4,3.1,3.5,2.7775,-0.343998487857422,-0.10432771449073822,0.8185602610662472,-0.1451329269029063,-1.032667,-14.955585
11.185,2.0,1.0,1.0,34.0,34.4,34.4,3.1,3.5,2.78,-0.36082172672335205,-0.1050892053448328,0.800509181895607,-0.15897220965093062,-1.129415,-14.399031
11.185,2.0,1.0,1.0,34.0,34.4,34.4,3.1,3.5,2.7825,-0.37698532053839434,-0.1050499371918825,0.7804602144441096,-0.17448197901376508,-1.242236,-13.82167
11.185,2.0,1.0,1.0,34.0,34.4,34.4,3.1,3.5,2.785,-0.3921793827304993,-0.10389932796642086,0.7581866832022006,-0.19187682093126418,-1.3748,-13.222855
11.185,2.0,1.0,1.0,34.0,34.4,34.4,3.1,3.5,2.7875,-0.40598671317882584,-0.10121922402946334,0.7334557285665418,-0.21137641649110805,-1.531791,-12.602274
11.185,2.0,1.0,1.0,34.0,34.4,34.4,3.1,3.5,2.79,-0.4178481267942456,-0.09644923312434454,0.7060493775494605,-0.23318415968908776,-1.719186,-11.960153
11.185,2.0,1.0,1.0,34.0,34.4,34.4,3.1,3.5,2.7925,-0.4270205566820657,-0.08884491051280208,0.6758038493759962,-0.25744742947873833,-1.944601,-11.297565
11.185,2.0,1.0,1.0,34.0,34.4,34.4,3.1,3.5,2.795,-0.4325316650955568,-0.0774326086075455,0.6426782982820357,-0.2841882944145123,-2.217626,-10.616865
11.185,2.0,1.0,1.0,34.0,34.4,34.4,3.1,3.5,2.7975,-0.4331423504536004,-0.060972506016283824,0.6068682896472216,-0.3131893631941352,-2.550022,-9.922299
11.185,2.0,1.0,1.0,34.0,34.4,34.4,3.1,3.5,2.8,-0.42734344376285344,-0.0379562989627916,0.5689808793580168,-0.34381799958942344,-2.955392,-9.220819
11.185,2.0,1.0,1.0,34.0,34.4,34.4,3.1,3.5,2.8025,-0.41343767911384255,-0.006690868938348894,0.53027960903261,-0.3747808485593586,-3.447394,-8.523068
11.185,2.0,1.0,1.0,34.0,34.4,34.4,3.1,3.5,2.805,-0.38978928485387193,0.03444958033378963,0.49297358852291917,-0.403835060080566,-4.034484,-7.84443
11.185,2.0,1.0,1.0,34.0,34.4,34.4,3.1,3.5,2.8075,-0.3553379384322092,0.08650643293154134,0.4604442901723074,-0.4275635115302581,-4.707314,-7.205751
11.185,2.0,1.0,1.0,34.0,34.4,34.4,3.1,3.5,2.81,-0.31040984254323956,0.14912307362548163,0.437175404642863,-0.44144969619517566,-5.413975,-6.633091
11.185,2.0,1.0,1.0,34.0,34.4,34.4,3.1,3.5,2.8125,-0.257631367635078,0.219631904071618,0.428058275470199,-0.440579819299562,-6.027418,-6.155592
11.185,2.0,1.0,1.0,34.0,34.4,34.4,3.1,3.5,2.815,-0.20238080488094337,0.2926093503524861,0.4369088549296078,-0.4211335438113816,-6.347979,-5.800877
11.185,2.0,1.0,1.0,34.0,34.4,34.4,3.1,3.5,2.8175,-0.15204624419987378,0.36063094779829935,0.46463790128342364,-0.3822159542572492,-6.215904,-5.588648
11.185,2.0,1.0,1.0,34.0,34.4,34.4,3.1,3.5,2.82,-0.11393240433774293,0.4163777908373214,0.5082145436278818,-0.32688566907063327,-5.666101,-5.524936
11.185,2.0,1.0,1.0,34.0,34.4,34.4,3.1,3.5,2.8225,-0.09283325364666466,0.4550683635193806,0.5614022433069503,-0.2614023271977077,-4.897359,-5.600071
11.185,2.0,1.0,1.0,34.0,34.4,34.4,3.1,3.5,2.825,-0.08979663981949135,0.47568589703891806,0.6169479314207288,-0.19302241158859682,-4.103987,-5.791622
11.185,2.0,1.0,1.0,34.0,34.4,34.4,3.1,3.5,2.8275,-0.10265695391703528,0.4804312403824187,0.6687934920821814,-0.1277825831472567,-3.393022,-6.070524
