1,w,sub_t,h,l1,l2,l3,g1,g2,Freq,S11_re,S21_re,S11_img,S21_img,S11_dB,S21_dB
11.185,2.0,1.0,1.0,34.1,33.8,33.8,2.5,3.9,2.5,0.767221323628168,-0.0100840940355046,0.629436648533897,0.00561877409012297,-0.066436,-38.753016
11.185,2.0,1.0,1.0,34.1,33.8,33.8,2.5,3.9,2.5025,0.7623313865646731,-0.010271581341925936,0.6352265755601635,0.005608776395485146,-0.067128,-38.633943
11.185,2.0,1.0,1.0,34.1,33.8,33.8,2.5,3.9,2.505,0.7573719705842898,-0.010462151455380498,0.6410068199168812,0.0055969111977146185,-0.067834,-38.514528
11.185,2.0,1.0,1.0,34.1,33.8,33.8,2.5,3.9,2.5075,0.7523423575998363,-0.010655856760866726,0.6467768304695319,0.005583111656020117,-0.068552,-38.394762
11.185,2.0,1.0,1.0,34.1,33.8,33.8,2.5,3.9,2.51,0.7472418202123678,-0.010852750570798129,0.6525360397956033,0.005567308618122174,-0.069283,-38.274639
11.185,2.0,1.0,1.0,34.1,33.8,33.8,2.5,3.9,2.5125,0.7420696216571232,-0.011052887136915664,0.6582838636892618,0.005549430533678041,-0.070027,-38.15415
11.185,2.0,1.0,1.0,34.1,33.8,33.8,2.5,3.9,2.515,0.7368250157535658,-0.011256321661937328,0.6640197006509019,0.005529403364169666,-0.070785,-38.03329
11.185,2.0,1.0,1.0,34.1,33.8,33.8,2.5,3.9,2.5175,0.7315072468598568,-0.011463110310903886,0.669742931361081,0.0055071504890955485,-0.071557,-37.912051
11.185,2.0,1.0,1.0,34.1,33.8,33.8,2.5,3.9,2.52,0.7261155498320764,-0.011673310222177723,0.6754529181383754,0.0054825926083001296,-0.072343,-37.790425
11.185,2.0,1.0,1.0,34.1,33.8,33.8,2.5,3.9,2.5225,0.7206491499885758,-0.011886979518046167,0.6811490043806286,0.005455647640265202,-0.073143,-37.668404
11.185,2.0,1.0,1.0,34.1,33.8,33.8,2.5,3.9,2.525,0.7151072630798134,-0.012104177314879071,0.6868305139890977,0.00542623061617926,-0.073959,-37.545982
11.185,2.0,1.0,1.0,34.1,33.8,33.8,2.5,3.9,2.5275,0.709489095264082,-0.012324963732785034,0.6924967507749547,0.005394253569592062,-0.074789,-37.423149
11.185,2.0,1.0,1.0,34.1,33.8,33.8,2.5,3.9,2.53,0.7037938430895503,-0.012549399904706255,0.6981469978475875,0.005359625421450753,-0.075636,-37.2999
11.185,2.0,1.0,1.0,34.1,33.8,33.8,2.5,3.9,2.5325,0.6980206934830527,-0.012777547984887958,0.7037805169841385,0.005322251860304166,-0.076498,-37.176224
11.185,2.0,1.0,1.0,34.1,33.8,33.8,2.5,3.9,2.535,0.692168823746098,-0.013009471156653048,0.7093965479796975,0.005282035217451094,-0.077377,-37.052115
11.185,2.0,1.0,1.0,34.1,33.8,33.8,2.5,3.9,2.5375,0.6862374015585904,-0.013245233639406646,0.7149943079775323,0.005238874336795774,-0.078272,-36.927564
11.185,2.0,1.0,1.0,34.1,33.8,33.8,2.5,3.9,2.54,0.6802255849907811,-0.013484900694790147,0.7205729907787468,0.0051926644391628,-0.079185,-36.802564
11.185,2.0,1.0,1.0,34.1,33.8,33.8,2.5,3.9,2.5425,0.6741325225239939,-0.013728538631897652,0.7261317661307167,0.0051432969808093264,-0.080115,-36.677105
11.185,2.0,1.0,1.0,34.1,33.8,33.8,2.5,3.9,2.545,0.667957353080705,-0.013976214811461133,0.7316697789936437,0.005090659505859824,-0.081063,-36.551179
11.185,2.0,1.0,1.0,34.1,33.8,33.8,2.5,3.9,2.5475,0.6616992060645893,-0.014227997648902743,0.7371861487845327,0.005034635492373072,-0.08203,-36.424778
11.185,2.0,1.0,1.0,34.1,33.8,33.8,2.5,3.9,2.55,0.6553572014111618,-0.014483956616146203,0.7426799685979081,0.0049751041917361315,-0.083015,-36.297893
11.185,2.0,1.0,1.0,34.1,33.8,33.8,2.5,3.9,2.5525,0.6489304496497085,-0.01474416224206884,0.7481503044025117,0.004911940461063408,-0.08402,-36.170514
11.185,2.0,1.0,1.0,34.1,33.8,33.8,2.5,3.9,2.555,0.6424180519772019,-0.015008686111468867,0.7535961942132532,0.004845014588261757,-0.085045,-36.042634
11.185,2.0,1.0,1.0,34.1,33.8,33.8,2.5,3.9,2.5575,0.6358191003449581,-0.01527760086241101,0.7590166472376337,0.004774192109403268,-0.08609,-35.914243
11.185,2.0,1.0,1.0,34.1,33.8,33.8,2.5,3.9,2.56,0.6291326775588295,-0.015550980181803828,0.7644106429958302,0.004699333618029134,-0.087156,-35.785331
11.185,2.0,1.0,1.0,34.1,33.8,33.8,2.5,3.9,2.5625,0.6223578573937627,-0.01582889879905072,0.7697771304136284,0.0046202945659856035,-0.088244,-35.655889
11.185,2.0,1.0,1.0,34.1,33.8,33.8,2.5,3.9,2.565,0.6154937047235973,-0.01611143247760402,0.7751150268873458,0.0045369250553720635,-0.089353,-35.525909
11.185,2.0,1.0,1.0,34.1,33.8,33.8,2.5,3.9,2.5675,0.6085392756670386,-0.016398658004238523,0.7804232173198599,0.004449069621157175,-0.090486,-35.395379
11.185,2.0,1.0,1.0,34.1,33.8,33.8,2.5,3.9,2.57,0.6014936177507719,-0.016690653175846525,0.7857005531268418,0.004356567003993883,-0.091641,-35.26429
11.185,2.0,1.0,1.0,34.1,33.8,33.8,2.5,3.9,2.5725,0.5943557700907454,-0.016987496783541108,0.79094585121225,0.004259249912737675,-0.09282,-35.132632
11.185,2.0,1.0,1.0,34.1,33.8,33.8,2.5,3.9,2.575,0.5871247635927034,-0.01728926859383752,0.7961578929121182,0.004156944776144186,-0.094024,-35.000395
11.185,2.0,1.0,1.0,34.1,33.8,33.8,2.5,3.9,2.5775,0.5797996211731147,-0.017596049326664708,0.801335422905634,0.00404947148319147,-0.095253,-34.867569
11.185,2.0,1.0,1.0,34.1,33.8,33.8,2.5,3.9,2.58,0.5723793580016917,-0.017907920629939466,0.8064771480924705,0.003936643111441023,-0.096507,-34.734142
11.185,2.0,1.0,1.0,34.1,33.8,33.8,2.5,3.9,2.5825,0.564862981766763,-0.018224965050414814,0.8115817364353088,0.0038182656428158764,-0.097788,-34.600105
11.185,2.0,1.0,1.0,34.1,33.8,33.8,2.5,3.9,2.585,0.5572494929648381,-0.018547266000491357,0.816647815766438,0.003694137666138987,-0.099096,-34.465445
11.185,2.0,1.0,1.0,34.1,33.8,33.8,2.5,3.9,2.5875,0.5495378852157585,-0.01887490772065567,0.8216739725572922,0.003564050065734983,-0.100432,-34.330153
11.185,2.0,1.0,1.0,34.1,33.8,33.8,2.5,3.9,2.59,0.5417271456049284,-0.019207975237183268,0.8266587506497429,0.0034277856953568346,-0.101797,-34.194217
11.185,2.0,1.0,1.0,34.1,33.8,33.8,2.5,3.9,2.5925,0.5338162550541644,-0.019546554314714554,0.8316006499479208,0.0032851190366547894,-0.103191,-34.057624
11.185,2.0,1.0,1.0,34.1,33.8,33.8,2.5,3.9,2.595,0.5258041887228322,-0.019890731403280827,0.836498125069292,0.0031358158413567544,-0.104616,-33.920364
11.185,2.0,1.0,1.0,34.1,33.8,33.8,2.5,3.9,2.5975,0.5176899164409733,-0.02024059357932382,0.8413495839536922,0.0029796327562782894,-0.106072,-33.782424
11.185,2.0,1.0,1.0,34.1,33.8,33.8,2.5,3.9,2.6,0.5094724031762649,-0.020596228480214942,0.8461533864289457,0.002816316930226597,-0.10756,-33.643793
11.185,2.0,1.0,1.0,34.1,33.8,33.8,2.5,3.9,2.6025,0.5011506095367343,-0.020957724231739826,0.8509078427316558,0.0026456056018031096,-0.10908,-33.504457
11.185,2.0,1.0,1.0,34.1,33.8,33.8,2.5,3.9,2.605,0.49272349231124857,-0.021325169367971592,0.8556112119817195,0.002467225667047984,-0.110635,-33.364404
11.185,2.0,1.0,1.0,34.1,33.8,33.8,2.5,3.9,2.6075,0.48419000504992266,-0.02169865274290754,0.8602617006090318,0.0022808932258022324,-0.112225,-33.22362
11.185,2.0,1.0,1.0,34.1,33.8,33.8,2.5,3.9,2.61,0.4755490986867076,-0.02207826343319248,0.8648574607308069,0.0020863131055905296,-0.113851,-33.082093
11.185,2.0,1.0,1.0,34.1,33.8,33.8,2.5,3.9,2.6125,0.46679972220652866,-0.02246409063119683,0.869396588477884,0.0018831783617520173,-0.115515,-32.93981
11.185,2.0,1.0,1.0,34.1,33.8,33.8,2.5,3.9,2.615,0.4579408233594882,-0.022856223527655598,0.8738771222683039,0.0016711697524619828,-0.117216,-32.796755
11.185,2.0,1.0,1.0,34.1,33.8,33.8,2.5,3.9,2.6175,0.44897134942478906,-0.023254751183007117,0.8782970410263871,0.0014499551871991587,-0.118957,-32.652915
11.185,2.0,1.0,1.0,34.1,33.8,33.8,2.5,3.9,2.62,0.4398902480271732,-0.02365976238649872,0.8826542623454594,0.0012191891471174028,-0.120738,-32.508276
11.185,2.0,1.0,1.0,34.1,33.8,33.8,2.5,3.9,2.6225,0.4306964680088271,-0.024071345502046895,0.8869466405923078,0.000978512075676814,-0.122561,-32.362822
11.185,2.0,1.0,1.0,34.1,33.8,33.8,2.5,3.9,2.625,0.421388960359895,-0.0244895882997508,0.891171964951338,0.000727549737779805,-0.124427,-32.216539
11.185,2.0,1.0,1.0,34.1,33.8,33.8,2.5,3.9,2.6275,0.4119666792108778,-0.0249145777718658,0.8953279574063497,0.0004659125455367415,-0.126338,-32.069411
11.185,2.0,1.0,1.0,34.1,33.8,33.8,2.5,3.9,2.63,0.402428582890426,-0.025346399931937262,0.8994122706577166,0.00019319484865783283,-0.128294,-31.921422
11.185,2.0,1.0,1.0,34.1,33.8,33.8,2.5,3.9,2.6325,0.39277363505221247,-0.025785139595682044,0.903422485972678,-9.102581267081753e-05,-0.130298,-31.772556
11.185,2.0,1.0,1.0,34.1,33.8,33.8,2.5,3.9,2.635,0.38300080587479496,-0.026230880142079863,0.9073561109663255,-0.0003871894947192892,-0.132351,-31.622797
11.185,2.0,1.0,1.0,34.1,33.8,33.8,2.5,3.9,2.6375,0.37310907333861687,-0.0266837032529988,0.9112105773107456,-0.0006957546794074407,-0.134454,-31.472126
11.185,2.0,1.0,1.0,34.1,33.8,33.8,2.5,3.9,2.64,0.3630974245845129,-0.02714368862953108,0.9149832383696704,-0.0010171991483887192,-0.13661,-31.320528
11.185,2.0,1.0,1.0,34.1,33.8,33.8,2.5,3.9,2.6425,0.3529648573583899,-0.027610913683046145,0.9186713667558192,-0.0013520209048413971,-0.138819,-31.167984
11.185,2.0,1.0,1.0,34.1,33.8,33.8,2.5,3.9,2.645,0.34271038154701006,-0.028085453198788742,0.9222721518079827,-0.0017007391459883709,-0.141083,-31.014475
11.185,2.0,1.0,1.0,34.1,33.8,33.8,2.5,3.9,2.6475,0.3323330208101165,-0.028567378969647856,0.9257826969847376,-0.0020638952895879682,-0.143406,-30.859983
11.185,2.0,1.0,1.0,34.1,33.8,33.8,2.5,3.9,2.65,0.3218318143144547,-0.02905675939750195,0.9292000171714915,-0.002442054057878377,-0.145787,-30.704488
11.185,2.0,1.0,1.0,34.1,33.8,33.8,2.5,3.9,2.6525,0.3112058185756468,-0.029553659059300522,0.9325210358973622,-0.0028358046227153124,-0.148231,-30.547971
11.185,2.0,1.0,1.0,34.1,33.8,33.8,2.5,3.9,2.655,0.3004541094141743,-0.03005813823477502,0.9357425824582124,-0.0032457618159267175,-0.150737,-30.390411
11.185,2.0,1.0,1.0,34.1,33.8,33.8,2.5,3.9,2.6575,0.28957578403221795,-0.03057025239237208,0.9388613889418829,-0.0036725674092113613,-0.15331,-30.231788
11.185,2.0,1.0,1.0,34.1,33.8,33.8,2.5,3.9,2.66,0.27856996321849303,-0.031090051629673834,0.941874087151468,-0.00411689146823963,-0.155951,-30.072079
11.185,2.0,1.0,1.0,34.1,33.8,33.8,2.5,3.9,2.6625,0.26743579368874615,-0.03161758006420411,0.944777205422161,-0.004579433785975325,-0.158663,-29.911263
11.185,2.0,1.0,1.0,34.1,33.8,33.8,2.5,3.9,2.665,0.25617245057005056,-0.032152875170116155,0.9475671653269256,-0.005060925400627576,-0.161447,-29.749317
11.185,2.0,1.0,1.0,34.1,33.8,33.8,2.5,3.9,2.6675,0.24477914003768445,-0.03269596705580525,0.9502402782658949,-0.005562130204066571,-0.164308,-29.586217
11.185,2.0,1.0,1.0,34.1,33.8,33.8,2.5,3.9,2.67,0.23325510211392805,-0.03324687767699406,0.9527927419340647,-0.0060838466470002775,-0.167247,-29.421939
11.185,2.0,1.0,1.0,34.1,33.8,33.8,2.5,3.9,2.6725,0.22159961363883393,-0.03380561997928039,0.9552206366614309,-0.006626909547712518,-0.170268,-29.256459
11.185,2.0,1.0,1.0,34.1,33.8,33.8,2.5,3.9,2.675,0.20981199142378923,-0.03437219696351916,0.9575199216192856,-0.007192192011709614,-0.173374,-29.089751
11.185,2.0,1.0,1.0,34.1,33.8,33.8,2.5,3.9,2.6775,0.1978915955994636,-0.03494660066672167,0.9596864308859234,-0.007780607470222652,-0.176568,-28.921788
11.185,2.0,1.0,1.0,34.1,33.8,33.8,2.5,3.9,2.68,0.18583783317067462,-0.035528811050385085,0.9617158693644613,-0.008393111846161077,-0.179853,-28.752543
11.185,2.0,1.0,1.0,34.1,33.8,33.8,2.5,3.9,2.6825,0.17365016179168968,-0.036118794787304384,0.9636038085449016,-0.009030705856825272,-0.183233,-28.581989
11.185,2.0,1.0,1.0,34.1,33.8,33.8,2.5,3.9,2.685,0.16132809377656518,-0.036716503936958064,0.9653456821019305,-0.00969443746346069,-0.186712,-28.410095
11.185,2.0,1.0,1.0,34.1,33.8,33.8,2.5,3.9,2.6875,0.148871200360346,-0.0373218744984813,0.966936781319232,-0.0103854044785806,-0.190294,-28.236833
11.185,2.0,1.0,1.0,34.1,33.8,33.8,2.5,3.9,2.69,0.1362791162283186,-0.03793482482902931,0.9683722503303097,-0.01110475734290958,-0.193982,-28.062171
11.185,2.0,1.0,1.0,34.1,33.8,33.8,2.5,3.9,2.6925,0.12355154433194052,-0.03855525391398154,0.969647081164971,-0.011853702084808562,-0.197782,-27.886077
11.185,2.0,1.0,1.0,34.1,33.8,33.8,2.5,3.9,2.695,0.11068826101182706,-0.03918303947390621,0.9707561085896452,-0.012633503476141963,-0.201698,-27.708518
11.185,2.0,1.0,1.0,34.1,33.8,33.8,2.5,3.9,2.6975,0.09768912144992865,-0.039818035891494095,0.9716940047286869,-0.013445488399756345,-0.205735,-27.529461
11.185,2.0,1.0,1.0,34.1,33.8,33.8,2.5,3.9,2.7,0.08455406547519824,-0.040460071939729274,0.9724552734526398,-0.014291049445050719,-0.209898,-27.348869
11.185,2.0,1.0,1.0,34.1,33.8,33.8,2.5,3.9,2.7025,0.0712831237493039,-0.04110894829038733,0.9730342445181634,-0.015171648749561263,-0.214192,-27.166706
11.185,2.0,1.0,1.0,34.1,33.8,33.8,2.5,3.9,2.705,0.05787642436159604,-0.04176443477947924,0.9734250674429114,-0.016088822106052874,-0.218624,-26.982934
11.185,2.0,1.0,1.0,34.1,33.8,33.8,2.5,3.9,2.7075,0.04433419986543979,-0.042426267403471864,0.9736217050970948,-0.017044183356329016,-0.223199,-26.797514
11.185,2.0,1.0,1.0,34.1,33.8,33.8,2.5,3.9,2.71,0.03065679479136256,-0.04309414501695085,0.9736179269917399,-0.018039429094847213,-0.227925,-26.610405
11.185,2.0,1.0,1.0,34.1,33.8,33.8,2.5,3.9,2.7125,0.016844673676151858,-0.04376772569880657,0.9734073022417623,-0.019076343707278922,-0.232808,-26.421565
11.185,2.0,1.0,1.0,34.1,33.8,33.8,2.5,3.9,2.715,0.0028984296513116293,-0.04444662274994685,0.9729831921798807,-0.0201568047713888,-0.237855,-26.230949
11.185,2.0,1.0,1.0,34.1,33.8,33.8,2.5,3.9,2.7175,-0.011181206360967625,-0.045130400280904356,0.9723387425951063,-0.021282788850050135,-0.243074,-26.038512
11.185,2.0,1.0,1.0,34.1,33.8,33.8,2.5,3.9,2.72,-0.025393355790698048,-0.04581856834242505,0.9714668755670082,-0.02245637770887303,-0.248474,-25.844207
11.185,2.0,1.0,1.0,34.1,33.8,33.8,2.5,3.9,2.7225,-0.039736981842086475,-0.046510577546098615,0.9703602808641835,-0.023679764993820504,-0.254063,-25.647985
11.185,2.0,1.0,1.0,34.1,33.8,33.8,2.5,3.9,2.725,-0.05421087812774017,-0.04720581311520597,0.9690114068723105,-0.024955263407332295,-0.259851,-25.449793
11.185,2.0,1.0,1.0,34.1,33.8,33.8,2.5,3.9,2.7275,-0.06881365644024567,-0.047903588298085505,0.9674124510138428,-0.026285312424899974,-0.265848,-25.24958
11.185,2.0,1.0,1.0,34.1,33.8,33.8,2.5,3.9,2.73,-0.08354373357697095,-0.0486031370672897,0.9655553496177494,-0.02767248659772947,-0.272065,-25.047289
11.185,2.0,1.0,1.0,34.1,33.8,33.8,2.5,3.9,2.7325,-0.09839931712345827,-0.04930360601744854,0.9634317671937583,-0.029119504491131883,-0.278512,-24.842863
11.185,2.0,1.0,1.0,34.1,33.8,33.8,2.5,3.9,2.735,-0.11337839008860877,-0.050004045362849366,0.9610330850612488,-0.03062923831257646,-0.285204,-24.636241
11.185,2.0,1.0,1.0,34.1,33.8,33.8,2.5,3.9,2.7375,-0.12847869427092745,-0.050703398922039566,0.9583503892783012,-0.03220472428795741,-0.292152,-24.42736
11.185,2.0,1.0,1.0,34.1,33.8,33.8,2.5,3.9,2.74,-0.14369771221902433,-0.051400492960956244,0.9553744578114102,-0.03384917384953534,-0.299371,-24.216156
11.185,2.0,1.0,1.0,34.1,33.8,33.8,2.5,3.9,2.7425,-0.15903264763103145,-0.05209402374784538,0.9520957468810155,-0.03556598570422786,-0.306877,-24.002559
11.185,2.0,1.0,1.0,34.1,33.8,33.8,2.5,3.9,2.745,-0.17448040401612547,-0.05278254365212773,0.9485043764123599,-0.03735875885639016,-0.314685,-23.786499
11.185,2.0,1.0,1.0,34.1,33.8,33.8,2.5,3.9,2.7475,-0.19003756141650932,-0.053464445594926996,0.9445901145152069,-0.03923130666491389,-0.322814,-23.5679
11.185,2.0,1.0,1.0,34.1,33.8,33.8,2.5,3.9,2.75,-0.205700350959392,-0.0541379456306118,0.940342360909808,-0.0411876720202978,-0.331281,-23.346684
11.185,2.0,1.0,1.0,34.1,33.8,33.8,2.5,3.9,2.7525,-0.2214646269749716,-0.05480106340574002,0.9357501292101921,-0.04323214373319542,-0.340109,-23.122771
11.185,2.0,1.0,1.0,34.1,33.8,33.8,2.5,3.9,2.755,-0.23732583637742888,-0.055451600203423955,0.930802027969623,-0.045369274231662884,-0.34932,-22.896075
11.185,2.0,1.0,1.0,34.1,33.8,33.8,2.5,3.9,2.7575,-0.25327898496047463,-0.056087114236395876,0.9254862403870263,-0.04760389866970007,-0.358936,-22.666506
11.185,2.0,1.0,1.0,34.1,33.8,33.8,2.5,3.9,2.76,-0.2693186002057723,-0.056704892799801544,0.9197905025677278,-0.04994115555436128,-0.368986,-22.433971
11.185,2.0,1.0,1.0,34.1,33.8,33.8,2.5,3.9,2.7625,-0.2854386901404715,-0.057301920833631594,0.9137020802272929,-0.052386509002328795,-0.379496,-22.198371
11.185,2.0,1.0,1.0,34.1,33.8,33.8,2.5,3.9,2.765,-0.3016326977071209,-0.05787484537308549,0.9072077437242307,-0.05494577273877443,-0.390499,-21.959604
11.185,2.0,1.0,1.0,34.1,33.8,33.8,2.5,3.9,2.7675,-0.3178934500237255,-0.05841993528112511,0.9002937413065524,-0.05762513595084308,-0.402028,-21.717562
11.185,2.0,1.0,1.0,34.1,33.8,33.8,2.5,3.9,2.77,-0.33421310181113745,-0.05893303555869924,0.8929457704596213,-0.060431191104140004,-0.41412,-21.472132
11.185,2.0,1.0,1.0,34.1,33.8,33.8,2.5,3.9,2.7725,-0.3505830721465039,-0.059409515411845686,0.8851489472498618,-0.06337096382180486,-0.426815,-21.223195
11.185,2.0,1.0,1.0,34.1,33.8,33.8,2.5,3.9,2.775,-0.36699397356187835,-0.05984420911780709,0.8768877735723913,-0.06645194491030366,-0.440157,-20.970626
11.185,2.0,1.0,1.0,34.1,33.8,33.8,2.5,3.9,2.7775,-0.3834355323421696,-0.060231348570481645,0.8681461022329816,-0.0696821245915339,-0.454196,-20.714293
11.185,2.0,1.0,1.0,34.1,33.8,33.8,2.5,3.9,2.78,-0.3998964986816679,-0.060564486194259304,0.8589070998290963,-0.07307002896401715,-0.468985,-20.45406
11.185,2.0,1.0,1.0,34.1,33.8,33.8,2.5,3.9,2.7825,-0.4163645451275267,-0.0608364066889343,0.8491532074453654,-0.07662475866258237,-0.484582,-20.189782
11.185,2.0,1.0,1.0,34.1,33.8,33.8,2.5,3.9,2.785,-0.4328261514652167,-0.06103902580023006,0.8388660992512579,-0.08035602961045198,-0.501053,-19.921305
11.185,2.0,1.0,1.0,34.1,33.8,33.8,2.5,3.9,2.7875,-0.44926647387651364,-0.061163273992532484,0.8280266391904905,-0.08427421565251567,-0.518471,-19.64847
11.185,2.0,1.0,1.0,34.1,33.8,33.8,2.5,3.9,2.79,-0.4656691958158759,-0.06119896252323945,0.8166148360925435,-0.08839039271405849,-0.536914,-19.371108
11.185,2.0,1.0,1.0,34.1,33.8,33.8,2.5,3.9,2.7925,-0.4820163575941554,-0.061134628970524185,0.8046097977297898,-0.09271638393217399,-0.556473,-19.089041
11.185,2.0,1.0,1.0,34.1,33.8,33.8,2.5,3.9,2.795,-0.4982881611165032,-0.060957358735181356,0.7919896846063598,-0.09726480494033102,-0.577246,-18.802084
11.185,2.0,1.0,1.0,34.1,33.8,33.8,2.5,3.9,2.7975,-0.5144627455780956,-0.06065257840735787,0.7787316646201993,-0.10204910812705516,-0.599345,-18.510041
11.185,2.0,1.0,1.0,34.1,33.8,33.8,2.5,3.9,2.8,-0.5305159291593787,-0.06020381614291934,0.7648118702181732,-0.10708362420708818,-0.622894,-18.212704
11.185,2.0,1.0,1.0,34.1,33.8,33.8,2.5,3.9,2.8025,-0.5464209108613725,-0.05959242331231912,0.7502053603065255,-0.11238359879713544,-0.648033,-17.909858
11.185,2.0,1.0,1.0,34.1,33.8,33.8,2.5,3.9,2.805,-0.5621479255592181,-0.058797250645614633,0.7348860900394713,-0.11796522082466687,-0.674918,-17.601274
11.185,2.0,1.0,1.0,34.1,33.8,33.8,2.5,3.9,2.8075,-0.5776638441052162,-0.05779427087815543,0.7188268927593827,-0.1238456384455763,-0.703729,-17.286715
11.185,2.0,1.0,1.0,34.1,33.8,33.8,2.5,3.9,2.81,-0.5929317088581366,-0.05655613848049763,0.7019994798990249,-0.13004295660952178,-0.734665,-16.96593
11.185,2.0,1.0,1.0,34.1,33.8,33.8,2.5,3.9,2.8125,-0.607910193334109,-0.0550516754149557,0.684374466707537,-0.13657620836359,-0.767958,-16.638657
11.185,2.0,1.0,1.0,34.1,33.8,33.8,2.5,3.9,2.815,-0.6225529727552845,-0.0532452699903335,0.6659214343975439,-0.14346528925686347,-0.803867,-16.304623
11.185,2.0,1.0,1.0,34.1,33.8,33.8,2.5,3.9,2.8175,-0.6368079901218857,-0.05109617379371074,0.6466090429574108,-0.1507308405762811,-0.842691,-15.963544
11.185,2.0,1.0,1.0,34.1,33.8,33.8,2.5,3.9,2.82,-0.6506166000893157,-0.048557679403103834,0.6264052137301606,-0.15839406231090264,-0.884773,-15.615126
11.185,2.0,1.0,1.0,34.1,33.8,33.8,2.5,3.9,2.8225,-0.6639125704863891,-0.04557615922085097,0.605277407325439,-0.16647643031516388,-0.930508,-15.259063
11.185,2.0,1.0,1.0,34.1,33.8,33.8,2.5,3.9,2.825,-0.6766209189452062,-0.042089943497774604,0.5831930310234991,-0.17499928360743622,-0.980352,-14.895044
11.185,2.0,1.0,1.0,34.1,33.8,33.8,2.5,3.9,2.8275,-0.6886565601552006,-0.03802801377088296,0.560120021228069,-0.18398323642881256,-1.034835,-14.52275
